# Total Phase Data Center(tm) v6.73
# (c) 2005-2017 Total Phase, Inc.
# www.totalphase.com
#
# 
#
# Level,Index,m:s.ms.us,Dur,Len,Err,S/P,Addr,Record,Data
0,0,0:00.000.000,,,,,,Capture started,[09/19/22 21:12:35]
0,1,0:14.114.725,128.900 us,4 B,,SP,55,Write Transaction,46 07 0B 01
0,2,0:14.120.126,61.800 us,1 B,,SP,55,Read Transaction,00*
0,3,0:14.120.461,128.900 us,4 B,,SP,55,Write Transaction,46 07 12 00
0,4,0:14.125.863,61.600 us,1 B,,SP,55,Read Transaction,00*
0,5,0:14.126.201,153.800 us,5 B,,SP,55,Write Transaction,46 07 1A 00 03
0,6,0:14.131.625,62.000 us,1 B,,SP,55,Read Transaction,00*
0,7,0:14.131.964,153.800 us,5 B,,SP,55,Write Transaction,46 07 15 01 03
0,8,0:14.137.387,61.700 us,1 B,,SP,55,Read Transaction,00*
0,9,0:14.137.721,153.800 us,5 B,,SP,55,Write Transaction,46 07 15 02 03
0,10,0:14.143.147,61.700 us,1 B,,SP,55,Read Transaction,00*
0,11,0:14.143.484,153.700 us,5 B,,SP,55,Write Transaction,46 07 1B 00 01
0,12,0:14.148.911,61.800 us,1 B,,SP,55,Read Transaction,00*
0,13,0:14.149.249,153.800 us,5 B,,SP,55,Write Transaction,46 07 1B 01 01
0,14,0:14.154.671,61.900 us,1 B,,SP,55,Read Transaction,00*
0,15,0:14.155.006,153.800 us,5 B,,SP,55,Write Transaction,46 07 14 01 04
0,16,0:14.160.431,61.700 us,1 B,,SP,55,Read Transaction,00*
0,17,0:14.160.768,153.800 us,5 B,,SP,55,Write Transaction,46 07 16 01 10
0,18,0:14.166.192,61.700 us,1 B,,SP,55,Read Transaction,00*
0,19,0:14.166.529,153.800 us,5 B,,SP,55,Write Transaction,46 07 1B 02 01
0,20,0:14.171.952,61.900 us,1 B,,SP,55,Read Transaction,00*
0,21,0:14.172.287,153.700 us,5 B,,SP,55,Write Transaction,46 07 14 02 04
0,22,0:14.177.712,61.800 us,1 B,,SP,55,Read Transaction,00*
0,23,0:14.178.049,154.000 us,5 B,,SP,55,Write Transaction,46 07 16 02 10
0,24,0:14.183.474,61.700 us,1 B,,SP,55,Read Transaction,00*
0,25,0:14.183.814,153.800 us,5 B,,SP,55,Write Transaction,46 07 0F 00 7D
0,26,0:14.189.240,61.700 us,1 B,,SP,55,Read Transaction,00*
0,27,0:14.189.576,153.800 us,5 B,,SP,55,Write Transaction,46 07 10 01 38
0,28,0:14.195.000,61.700 us,1 B,,SP,55,Read Transaction,00*
0,29,0:14.195.337,153.700 us,5 B,,SP,55,Write Transaction,46 07 0D 07 08
0,30,0:14.200.811,61.700 us,1 B,,SP,55,Read Transaction,00*
0,31,0:14.201.148,153.800 us,5 B,,SP,55,Write Transaction,46 07 0E 00 32
0,32,0:14.206.570,61.700 us,1 B,,SP,55,Read Transaction,00*
0,33,0:14.206.905,153.800 us,5 B,,SP,55,Write Transaction,46 07 23 00 00
0,34,0:14.212.331,61.700 us,1 B,,SP,55,Read Transaction,00*
0,35,0:14.212.668,153.800 us,5 B,,SP,55,Write Transaction,46 07 24 00 00
0,36,0:14.218.088,61.900 us,1 B,,SP,55,Read Transaction,00*
0,37,0:14.218.426,153.800 us,5 B,,SP,55,Write Transaction,46 07 1C 00 00
0,38,0:14.223.850,61.700 us,1 B,,SP,55,Read Transaction,00*
0,39,0:14.224.186,153.800 us,5 B,,SP,55,Write Transaction,46 07 23 01 00
0,40,0:14.229.610,61.800 us,1 B,,SP,55,Read Transaction,00*
0,41,0:14.229.947,153.800 us,5 B,,SP,55,Write Transaction,46 07 24 01 00
0,42,0:14.235.371,61.800 us,1 B,,SP,55,Read Transaction,00*
0,43,0:14.235.706,153.800 us,5 B,,SP,55,Write Transaction,46 07 23 02 00
0,44,0:14.241.131,61.700 us,1 B,,SP,55,Read Transaction,00*
0,45,0:14.241.468,153.800 us,5 B,,SP,55,Write Transaction,46 07 24 02 00
0,46,0:14.246.893,61.800 us,1 B,,SP,55,Read Transaction,00*
0,47,0:14.247.230,153.800 us,5 B,,SP,55,Write Transaction,46 07 11 01 38
0,48,0:14.252.654,61.700 us,1 B,,SP,55,Read Transaction,00*
0,49,0:14.252.987,128.900 us,4 B,,SP,55,Write Transaction,46 07 0C 01
0,50,0:14.258.388,61.700 us,1 B,,SP,55,Read Transaction,00*
0,51,0:14.259.111,178.700 us,6 B,,SP,55,Write Transaction,46 07 25 00 00 64
0,52,0:14.264.560,61.900 us,1 B,,SP,55,Read Transaction,00*
0,53,0:14.264.996,178.700 us,6 B,,SP,55,Write Transaction,46 07 25 01 00 C8
0,54,0:14.270.444,61.900 us,1 B,,SP,55,Read Transaction,00*
0,55,0:14.270.903,178.700 us,6 B,,SP,55,Write Transaction,46 07 25 02 00 C8
0,56,0:14.276.354,62.000 us,1 B,,SP,55,Read Transaction,00*
0,57,0:14.277.882,104.100 us,3 B,,SP,55,Write Transaction,10 00 03
0,58,0:14.283.257,61.700 us,1 B,,SP,55,Read Transaction,00*
0,59,0:14.283.636,128.900 us,4 B,,SP,55,Write Transaction,44 07 01 01
0,60,0:14.783.520,65.500 us,1 B,,SP,55,Read Transaction,00*
0,61,0:14.799.930,677.900 us,26 B,,SP,55,Write Transaction,14 00 04 67 8F 05 98 EB 04 B7 10 04 FF 3A 00 00 00 00 00 00 FF ED 00 5A FC 2A
0,62,0:14.815.876,114.900 us,3 B,,SP,55,Read Transaction,00 00 18*
0,63,0:14.820.267,79.100 us,2 B,,SP,55,Write Transaction,00 00
0,64,0:14.825.616,86.600 us,2 B,,SP,55,Read Transaction,00 08*
0,65,0:14.825.978,79.100 us,2 B,,SP,55,Write Transaction,12 01
0,66,0:14.831.326,659.700 us,25 B,,SP,55,Read Transaction,00 00 00 00 80 02 58 00 00 00 00 01 00 00 00 00 00 00 00 00 00 00 00 02 1B*
0,67,0:14.839.339,103.900 us,3 B,,SP,55,Write Transaction,47 07 27
0,68,0:14.844.718,560.000 us,21 B,,SP,55,Read Transaction,00 00 00 00 00 00 00 00 00 00 00 80 C7 83 90 80 80 C7 83 90 80*
0,69,0:14.870.831,128.900 us,4 B,,SP,55,Write Transaction,46 07 28 01
0,70,0:14.876.232,61.800 us,1 B,,SP,55,Read Transaction,00*
0,71,0:14.879.508,676.900 us,26 B,,SP,55,Write Transaction,14 00 04 69 92 05 9A 70 04 75 43 04 BE 59 00 00 00 00 00 00 FF ED 00 5A FC 2A
0,72,0:14.895.452,113.900 us,3 B,,SP,55,Read Transaction,00 00 18*
0,73,0:14.899.841,79.000 us,2 B,,SP,55,Write Transaction,00 00
0,74,0:14.905.192,86.700 us,2 B,,SP,55,Read Transaction,00 08*
0,75,0:14.905.554,79.000 us,2 B,,SP,55,Write Transaction,12 01
0,76,0:14.910.904,659.600 us,25 B,,SP,55,Read Transaction,00 00 00 00 00 02 58 00 00 00 00 01 00 00 00 00 00 00 00 00 00 00 00 02 1B*
0,77,0:14.919.726,676.900 us,26 B,,SP,55,Write Transaction,14 00 04 6E B8 05 9E FC 04 77 EC 04 C0 01 00 00 00 00 00 00 FF ED 00 5A FC 2A
0,78,0:14.935.670,113.700 us,3 B,,SP,55,Read Transaction,00 00 18*
0,79,0:14.940.068,79.200 us,2 B,,SP,55,Write Transaction,00 00
0,80,0:14.945.427,86.800 us,2 B,,SP,55,Read Transaction,00 08*
0,81,0:14.945.790,79.100 us,2 B,,SP,55,Write Transaction,12 01
0,82,0:14.951.140,660.500 us,25 B,,SP,55,Read Transaction,00 00 00 00 80 02 58 00 00 00 00 01 00 00 00 00 00 00 00 00 00 00 00 02 00*
0,83,0:14.959.131,104.000 us,3 B,,SP,55,Write Transaction,47 07 27
0,84,0:14.964.507,560.200 us,21 B,,SP,55,Read Transaction,00 80 4E 00 00 00 80 4E 00 00 00 00 00 00 00 00 00 00 00 00 00*
0,85,0:14.990.615,128.900 us,4 B,,SP,55,Write Transaction,46 07 28 01
0,86,0:14.996.015,61.800 us,1 B,,SP,55,Read Transaction,00*
0,87,0:14.999.316,676.900 us,26 B,,SP,55,Write Transaction,14 00 03 43 97 04 21 E8 04 7A 19 04 C2 9A 00 00 00 00 00 00 FF ED 00 5A FC 2A
0,88,0:15.015.260,113.500 us,3 B,,SP,55,Read Transaction,00 00 18*
0,89,0:15.019.652,79.100 us,2 B,,SP,55,Write Transaction,00 00
0,90,0:15.025.002,86.700 us,2 B,,SP,55,Read Transaction,00 08*
0,91,0:15.025.364,79.100 us,2 B,,SP,55,Write Transaction,12 01
0,92,0:15.030.713,659.400 us,25 B,,SP,55,Read Transaction,00 00 00 00 00 02 58 00 00 00 00 01 00 00 00 00 00 00 00 00 00 00 00 02 16*
0,93,0:15.039.538,676.900 us,26 B,,SP,55,Write Transaction,14 00 03 46 00 04 24 C2 04 7C E0 04 C5 4C 00 00 00 00 00 00 FF ED 00 5A FC 2A
0,94,0:15.055.475,113.500 us,3 B,,SP,55,Read Transaction,00 00 18*
0,95,0:15.059.866,79.100 us,2 B,,SP,55,Write Transaction,00 00
0,96,0:15.065.215,86.600 us,2 B,,SP,55,Read Transaction,00 08*
0,97,0:15.065.575,79.000 us,2 B,,SP,55,Write Transaction,12 01
0,98,0:15.070.926,659.600 us,25 B,,SP,55,Read Transaction,00 00 00 00 80 02 58 00 00 00 00 01 00 00 00 00 00 00 00 00 00 00 00 02 00*
0,99,0:15.078.947,104.000 us,3 B,,SP,55,Write Transaction,47 07 27
0,100,0:15.084.322,560.000 us,21 B,,SP,55,Read Transaction,00 80 44 00 00 00 80 44 00 00 00 00 00 00 00 00 00 00 00 00 00*
0,101,0:15.110.403,128.900 us,4 B,,SP,55,Write Transaction,46 07 28 01
0,102,0:15.115.803,61.800 us,1 B,,SP,55,Read Transaction,00*
0,103,0:15.119.103,676.900 us,26 B,,SP,55,Write Transaction,14 00 02 E1 B6 03 A3 F5 04 7F 9C 04 C7 4A 00 00 00 00 00 00 FF ED 00 5A FC 2A
0,104,0:15.135.042,113.300 us,3 B,,SP,55,Read Transaction,00 00 18*
0,105,0:15.139.434,79.100 us,2 B,,SP,55,Write Transaction,00 00
0,106,0:15.144.784,86.800 us,2 B,,SP,55,Read Transaction,00 08*
0,107,0:15.145.145,79.200 us,2 B,,SP,55,Write Transaction,12 01
0,108,0:15.150.499,659.600 us,25 B,,SP,55,Read Transaction,00 00 00 00 00 02 58 00 00 00 00 01 00 00 00 00 00 00 00 00 00 00 00 02 16*
0,109,0:15.159.339,676.900 us,26 B,,SP,55,Write Transaction,14 00 02 E5 13 03 A7 46 04 82 1A 04 C9 CC 00 00 00 00 00 00 FF ED 00 5A FC 2A
0,110,0:15.175.276,113.500 us,3 B,,SP,55,Read Transaction,00 00 18*
0,111,0:15.179.666,79.100 us,2 B,,SP,55,Write Transaction,00 00
0,112,0:15.185.019,86.700 us,2 B,,SP,55,Read Transaction,00 08*
0,113,0:15.185.381,79.100 us,2 B,,SP,55,Write Transaction,12 01
0,114,0:15.190.732,659.500 us,25 B,,SP,55,Read Transaction,00 00 00 00 00 02 58 00 00 00 00 01 00 00 00 00 00 00 00 00 00 00 00 02 00*
0,115,0:15.199.312,676.800 us,26 B,,SP,55,Write Transaction,14 00 02 E8 12 03 AA 7F 04 84 60 04 CB B2 00 00 00 00 00 00 FF ED 00 5A FC 2A
0,116,0:15.215.252,113.600 us,3 B,,SP,55,Read Transaction,00 00 18*
0,117,0:15.219.642,79.100 us,2 B,,SP,55,Write Transaction,00 00
0,118,0:15.224.991,86.700 us,2 B,,SP,55,Read Transaction,00 08*
0,119,0:15.225.354,79.100 us,2 B,,SP,55,Write Transaction,12 01
0,120,0:15.230.702,659.600 us,25 B,,SP,55,Read Transaction,00 00 00 00 00 02 58 00 00 00 00 01 00 00 00 00 00 00 00 00 00 00 00 02 00*
0,121,0:15.239.194,677.000 us,26 B,,SP,55,Write Transaction,14 00 02 EA F8 03 AD 94 04 85 B6 04 CC AF 00 00 00 00 00 00 FF ED 00 5A FC 2A
0,122,0:15.255.137,113.600 us,3 B,,SP,55,Read Transaction,00 00 18*
0,123,0:15.259.526,79.100 us,2 B,,SP,55,Write Transaction,00 00
0,124,0:15.264.877,86.700 us,2 B,,SP,55,Read Transaction,00 08*
0,125,0:15.265.238,79.100 us,2 B,,SP,55,Write Transaction,12 01
0,126,0:15.270.591,659.700 us,25 B,,SP,55,Read Transaction,00 00 00 00 00 02 58 00 00 00 00 01 00 00 00 00 00 00 00 00 00 00 00 02 00*
0,127,0:15.279.129,676.400 us,26 B,,SP,55,Write Transaction,14 00 02 EC E7 03 AF BC 04 86 86 04 CD D9 00 00 00 00 00 00 FF ED 00 5A FC 2A
0,128,0:15.295.068,113.600 us,3 B,,SP,55,Read Transaction,00 00 18*
0,129,0:15.299.457,79.100 us,2 B,,SP,55,Write Transaction,00 00
0,130,0:15.304.808,86.700 us,2 B,,SP,55,Read Transaction,00 08*
0,131,0:15.305.170,79.100 us,2 B,,SP,55,Write Transaction,12 01
0,132,0:15.310.518,659.600 us,25 B,,SP,55,Read Transaction,00 00 00 00 00 02 58 00 00 00 00 01 00 00 00 00 00 00 00 00 00 00 00 02 00*
0,133,0:15.319.576,676.900 us,26 B,,SP,55,Write Transaction,14 00 02 EE 4C 03 B1 BC 04 88 C3 04 D0 70 00 00 00 00 00 00 FF ED 00 5A FC 2A
0,134,0:15.335.514,116.300 us,3 B,,SP,55,Read Transaction,00 00 18*
0,135,0:15.339.909,79.000 us,2 B,,SP,55,Write Transaction,00 00
0,136,0:15.345.258,86.700 us,2 B,,SP,55,Read Transaction,00 08*
0,137,0:15.345.619,79.000 us,2 B,,SP,55,Write Transaction,12 01
0,138,0:15.350.969,659.600 us,25 B,,SP,55,Read Transaction,00 00 00 00 00 02 58 00 00 00 00 01 00 00 00 00 00 00 00 00 00 00 00 02 00*
0,139,0:15.359.577,676.900 us,26 B,,SP,55,Write Transaction,14 00 02 F0 7B 03 B4 9E 04 8D 57 04 D4 B9 00 00 00 00 00 00 FF EA 00 56 FC 2B
0,140,0:15.375.524,115.600 us,3 B,,SP,55,Read Transaction,00 00 18*
0,141,0:15.379.916,79.000 us,2 B,,SP,55,Write Transaction,00 00
0,142,0:15.385.267,86.700 us,2 B,,SP,55,Read Transaction,00 08*
0,143,0:15.385.629,79.100 us,2 B,,SP,55,Write Transaction,12 01
0,144,0:15.390.986,659.400 us,25 B,,SP,55,Read Transaction,00 00 00 00 00 02 58 00 00 00 00 01 00 00 00 00 00 00 00 00 00 00 00 02 00*
0,145,0:15.399.494,677.000 us,26 B,,SP,55,Write Transaction,14 00 02 F3 04 03 B7 DB 04 90 13 04 D6 D9 00 00 00 00 00 00 FF EA 00 5B FC 30
0,146,0:15.415.437,115.600 us,3 B,,SP,55,Read Transaction,00 00 18*
0,147,0:15.419.833,79.200 us,2 B,,SP,55,Write Transaction,00 00
0,148,0:15.425.189,86.800 us,2 B,,SP,55,Read Transaction,00 08*
0,149,0:15.425.552,79.100 us,2 B,,SP,55,Write Transaction,12 01
0,150,0:15.430.909,660.200 us,25 B,,SP,55,Read Transaction,00 00 00 00 00 02 58 00 00 00 00 01 00 00 00 00 00 00 00 00 00 00 00 02 00*
0,151,0:15.439.463,676.900 us,26 B,,SP,55,Write Transaction,14 00 02 F6 05 03 BB 39 04 91 E6 04 D8 4C 00 00 00 00 00 00 FF ED 00 5C FC 2C
0,152,0:15.455.409,115.500 us,3 B,,SP,55,Read Transaction,00 00 18*
0,153,0:15.459.801,79.100 us,2 B,,SP,55,Write Transaction,00 00
0,154,0:15.465.152,86.700 us,2 B,,SP,55,Read Transaction,00 08*
0,155,0:15.465.515,79.000 us,2 B,,SP,55,Write Transaction,12 01
0,156,0:15.470.866,659.500 us,25 B,,SP,55,Read Transaction,00 00 00 00 80 02 58 00 00 00 00 01 00 00 00 00 00 00 00 00 00 00 00 02 00*
0,157,0:15.478.763,104.100 us,3 B,,SP,55,Write Transaction,47 07 27
0,158,0:15.484.169,560.000 us,21 B,,SP,55,Read Transaction,00 00 00 00 00 00 00 00 00 00 00 81 10 00 00 00 81 01 00 00 00*
0,159,0:15.485.768,128.900 us,4 B,,SP,55,Write Transaction,46 07 28 01
0,160,0:15.491.173,61.900 us,1 B,,SP,55,Read Transaction,00*
0,161,0:15.519.208,677.500 us,26 B,,SP,55,Write Transaction,14 00 02 F6 DA 03 BC 55 06 A8 CE 06 61 7D 00 00 00 00 00 00 FF EA 00 5E FC 32
0,162,0:15.535.148,115.700 us,3 B,,SP,55,Read Transaction,00 00 18*
0,163,0:15.539.538,79.100 us,2 B,,SP,55,Write Transaction,00 00
0,164,0:15.544.888,86.600 us,2 B,,SP,55,Read Transaction,00 08*
0,165,0:15.545.250,79.000 us,2 B,,SP,55,Write Transaction,12 01
0,166,0:15.550.601,659.700 us,25 B,,SP,55,Read Transaction,00 00 00 00 00 02 58 00 00 00 00 01 00 00 00 00 00 00 00 00 00 00 00 02 1B*
0,167,0:15.559.224,676.800 us,26 B,,SP,55,Write Transaction,14 00 02 EC 1A 03 B1 64 06 9F EF 06 5D 67 00 00 00 00 00 00 FF EF 00 5B FC 2E
0,168,0:15.575.162,115.600 us,3 B,,SP,55,Read Transaction,00 00 18*
0,169,0:15.579.554,79.000 us,2 B,,SP,55,Write Transaction,00 00
0,170,0:15.584.905,86.700 us,2 B,,SP,55,Read Transaction,00 08*
0,171,0:15.585.267,79.100 us,2 B,,SP,55,Write Transaction,12 01
0,172,0:15.590.618,659.600 us,25 B,,SP,55,Read Transaction,00 00 00 00 00 02 58 00 00 00 00 01 00 00 00 00 00 00 00 00 00 00 00 02 00*
0,173,0:15.599.176,676.900 us,26 B,,SP,55,Write Transaction,14 00 02 E3 11 03 A8 CE 06 9A 40 06 5A F3 00 00 00 00 00 00 FF EA 00 5D FC 33
0,174,0:15.615.117,115.800 us,3 B,,SP,55,Read Transaction,00 00 18*
0,175,0:15.619.514,79.100 us,2 B,,SP,55,Write Transaction,00 00
0,176,0:15.624.863,86.700 us,2 B,,SP,55,Read Transaction,00 08*
0,177,0:15.625.225,79.000 us,2 B,,SP,55,Write Transaction,12 01
0,178,0:15.630.581,660.500 us,25 B,,SP,55,Read Transaction,00 00 00 00 00 02 58 00 00 00 00 01 00 00 00 00 00 00 00 00 00 00 00 02 00*
0,179,0:15.639.109,676.900 us,26 B,,SP,55,Write Transaction,14 00 02 DF 9A 03 A5 31 06 97 DA 06 5A 2D 00 00 00 00 00 00 FF EE 00 5D FC 2C
0,180,0:15.655.049,115.600 us,3 B,,SP,55,Read Transaction,00 00 18*
0,181,0:15.659.442,79.100 us,2 B,,SP,55,Write Transaction,00 00
0,182,0:15.664.792,86.700 us,2 B,,SP,55,Read Transaction,00 08*
0,183,0:15.665.155,79.100 us,2 B,,SP,55,Write Transaction,12 01
0,184,0:15.670.503,659.600 us,25 B,,SP,55,Read Transaction,00 00 00 00 00 02 58 00 00 00 00 01 00 00 00 00 00 00 00 00 00 00 00 02 00*
0,185,0:15.679.038,676.700 us,26 B,,SP,55,Write Transaction,14 00 02 DE 7E 03 A3 E8 06 98 A8 06 5B 3B 00 00 00 00 00 00 FF ED 00 59 FC 2F
0,186,0:15.694.979,115.500 us,3 B,,SP,55,Read Transaction,00 00 18*
0,187,0:15.699.372,79.100 us,2 B,,SP,55,Write Transaction,00 00
0,188,0:15.704.721,86.700 us,2 B,,SP,55,Read Transaction,00 08*
0,189,0:15.705.082,79.100 us,2 B,,SP,55,Write Transaction,12 01
0,190,0:15.710.432,660.300 us,25 B,,SP,55,Read Transaction,00 00 00 00 00 02 58 00 00 00 00 01 00 00 00 00 00 00 00 00 00 00 00 02 00*
0,191,0:15.718.968,677.000 us,26 B,,SP,55,Write Transaction,14 00 02 DE 62 03 A3 A9 06 96 8A 06 59 B6 00 00 00 00 00 00 FF EB 00 5C FC 2B
0,192,0:15.734.909,116.100 us,3 B,,SP,55,Read Transaction,00 00 18*
0,193,0:15.739.302,79.200 us,2 B,,SP,55,Write Transaction,00 00
0,194,0:15.744.658,86.700 us,2 B,,SP,55,Read Transaction,00 08*
0,195,0:15.745.020,79.000 us,2 B,,SP,55,Write Transaction,12 01
0,196,0:15.750.370,659.700 us,25 B,,SP,55,Read Transaction,00 00 00 00 00 02 58 00 00 00 00 01 00 00 00 00 00 00 00 00 00 00 00 02 00*
0,197,0:15.758.965,677.900 us,26 B,,SP,55,Write Transaction,14 00 02 DF A8 03 A4 E9 06 98 58 06 5B A1 00 00 00 00 00 00 FF EC 00 5C FC 23
0,198,0:15.774.905,115.600 us,3 B,,SP,55,Read Transaction,00 00 18*
0,199,0:15.779.298,79.000 us,2 B,,SP,55,Write Transaction,00 00
0,200,0:15.784.646,86.600 us,2 B,,SP,55,Read Transaction,00 08*
0,201,0:15.785.010,79.000 us,2 B,,SP,55,Write Transaction,12 01
0,202,0:15.790.358,659.600 us,25 B,,SP,55,Read Transaction,00 00 00 00 00 02 58 00 00 00 00 01 00 00 00 00 00 00 00 00 00 00 00 02 00*
0,203,0:15.798.816,678.000 us,26 B,,SP,55,Write Transaction,14 00 02 E1 2A 03 A6 8E 06 9A 34 06 5C 9F 00 00 00 00 00 00 FF EC 00 5C FC 2E
0,204,0:15.814.763,115.500 us,3 B,,SP,55,Read Transaction,00 00 18*
0,205,0:15.819.155,79.100 us,2 B,,SP,55,Write Transaction,00 00
0,206,0:15.824.506,86.700 us,2 B,,SP,55,Read Transaction,00 08*
0,207,0:15.824.868,79.100 us,2 B,,SP,55,Write Transaction,12 01
0,208,0:15.830.219,659.700 us,25 B,,SP,55,Read Transaction,00 00 00 00 00 02 58 00 00 00 00 01 00 00 00 00 00 00 00 00 00 00 00 02 00*
0,209,0:15.838.817,676.900 us,26 B,,SP,55,Write Transaction,14 00 02 E1 27 03 A6 9D 06 98 A9 06 5B A2 00 00 00 00 00 00 FF F1 00 5E FC 30
0,210,0:15.854.780,115.600 us,3 B,,SP,55,Read Transaction,00 00 18*
0,211,0:15.859.173,79.100 us,2 B,,SP,55,Write Transaction,00 00
0,212,0:15.864.528,86.800 us,2 B,,SP,55,Read Transaction,00 08*
0,213,0:15.864.891,79.200 us,2 B,,SP,55,Write Transaction,12 01
0,214,0:15.870.242,659.600 us,25 B,,SP,55,Read Transaction,00 00 00 00 00 02 58 00 00 00 00 01 00 00 00 00 00 00 00 00 00 00 00 02 00*
0,215,0:15.878.703,677.000 us,26 B,,SP,55,Write Transaction,14 00 02 E1 B3 03 A7 74 06 9B 2A 06 5D D8 00 00 00 00 00 00 FF ED 00 5B FC 2C
0,216,0:15.894.641,115.600 us,3 B,,SP,55,Read Transaction,00 00 18*
0,217,0:15.899.034,79.000 us,2 B,,SP,55,Write Transaction,00 00
0,218,0:15.904.384,86.700 us,2 B,,SP,55,Read Transaction,00 08*
0,219,0:15.904.745,79.100 us,2 B,,SP,55,Write Transaction,12 01
0,220,0:15.910.096,659.600 us,25 B,,SP,55,Read Transaction,00 00 00 00 00 02 58 00 00 00 00 01 00 00 00 00 00 00 00 00 00 00 00 02 00*
0,221,0:15.918.696,676.900 us,26 B,,SP,55,Write Transaction,14 00 02 E3 8C 03 A9 9F 06 9C 89 06 5E 1B 00 00 00 00 00 00 FF EC 00 60 FC 2A
0,222,0:15.934.641,115.600 us,3 B,,SP,55,Read Transaction,00 00 18*
0,223,0:15.939.033,79.100 us,2 B,,SP,55,Write Transaction,00 00
0,224,0:15.944.384,86.700 us,2 B,,SP,55,Read Transaction,00 08*
0,225,0:15.944.746,79.000 us,2 B,,SP,55,Write Transaction,12 01
0,226,0:15.950.095,659.500 us,25 B,,SP,55,Read Transaction,00 00 00 00 00 02 58 00 00 00 00 01 00 00 00 00 00 00 00 00 00 00 00 02 00*
0,227,0:15.958.566,676.800 us,26 B,,SP,55,Write Transaction,14 00 02 E5 F1 03 AC 29 06 9C E3 06 5E 36 00 00 00 00 00 00 FF EE 00 5C FC 23
0,228,0:15.974.513,115.600 us,3 B,,SP,55,Read Transaction,00 00 18*
0,229,0:15.978.906,79.000 us,2 B,,SP,55,Write Transaction,00 00
0,230,0:15.984.257,86.700 us,2 B,,SP,55,Read Transaction,00 08*
0,231,0:15.984.618,79.100 us,2 B,,SP,55,Write Transaction,12 01
0,232,0:15.989.968,659.600 us,25 B,,SP,55,Read Transaction,00 00 00 00 00 02 58 00 00 00 00 01 00 00 00 00 00 00 00 00 00 00 00 02 00*
0,233,0:15.998.568,676.800 us,26 B,,SP,55,Write Transaction,14 00 02 E9 72 03 AF A1 06 A2 3C 06 62 21 00 00 00 00 00 00 FF EC 00 5E FC 2E
0,234,0:16.014.509,115.500 us,3 B,,SP,55,Read Transaction,00 00 18*
0,235,0:16.018.900,79.000 us,2 B,,SP,55,Write Transaction,00 00
0,236,0:16.024.254,86.800 us,2 B,,SP,55,Read Transaction,00 08*
0,237,0:16.024.617,79.100 us,2 B,,SP,55,Write Transaction,12 01
0,238,0:16.029.968,659.700 us,25 B,,SP,55,Read Transaction,00 00 00 00 00 02 58 00 00 00 00 01 00 00 00 00 00 00 00 00 00 00 00 02 00*
0,239,0:16.038.435,676.900 us,26 B,,SP,55,Write Transaction,14 00 02 ED CA 03 B4 49 06 A7 59 06 65 2F 00 00 00 00 00 00 FF E9 00 5D FC 2D
0,240,0:16.054.375,115.600 us,3 B,,SP,55,Read Transaction,00 00 18*
0,241,0:16.058.771,79.100 us,2 B,,SP,55,Write Transaction,00 00
0,242,0:16.064.128,86.900 us,2 B,,SP,55,Read Transaction,00 08*
0,243,0:16.064.489,79.200 us,2 B,,SP,55,Write Transaction,12 01
0,244,0:16.069.841,660.600 us,25 B,,SP,55,Read Transaction,00 00 00 00 00 02 58 00 00 00 00 01 00 00 00 00 00 00 00 00 00 00 00 02 00*
0,245,0:16.078.416,676.900 us,26 B,,SP,55,Write Transaction,14 00 02 F1 8D 03 B8 2E 06 A9 7E 06 66 0A 00 00 00 00 00 00 FF F1 00 5A FC 2E
0,246,0:16.094.356,115.600 us,3 B,,SP,55,Read Transaction,00 00 18*
0,247,0:16.098.748,79.100 us,2 B,,SP,55,Write Transaction,00 00
0,248,0:16.104.099,86.700 us,2 B,,SP,55,Read Transaction,00 08*
0,249,0:16.104.462,79.100 us,2 B,,SP,55,Write Transaction,12 01
0,250,0:16.109.817,659.700 us,25 B,,SP,55,Read Transaction,00 00 00 00 00 02 58 00 00 00 00 01 00 00 00 00 00 00 00 00 00 00 00 02 00*
0,251,0:16.118.349,677.000 us,26 B,,SP,55,Write Transaction,14 00 02 F5 01 03 BB C5 06 AA C2 06 66 61 00 00 00 00 00 00 FF F0 00 5D FC 2C
0,252,0:16.134.292,116.200 us,3 B,,SP,55,Read Transaction,00 00 18*
0,253,0:16.138.687,79.100 us,2 B,,SP,55,Write Transaction,00 00
0,254,0:16.144.038,86.700 us,2 B,,SP,55,Read Transaction,00 08*
0,255,0:16.144.401,79.000 us,2 B,,SP,55,Write Transaction,12 01
0,256,0:16.149.750,659.700 us,25 B,,SP,55,Read Transaction,00 00 00 00 00 02 58 00 00 00 00 01 00 00 00 00 00 00 00 00 00 00 00 02 00*
0,257,0:16.158.262,676.900 us,26 B,,SP,55,Write Transaction,14 00 02 F7 8C 03 BE 8B 06 AB 4C 06 66 CB 00 00 00 00 00 00 FF EA 00 59 FC 2B
0,258,0:16.174.206,115.600 us,3 B,,SP,55,Read Transaction,00 00 18*
0,259,0:16.178.599,79.000 us,2 B,,SP,55,Write Transaction,00 00
0,260,0:16.183.949,86.700 us,2 B,,SP,55,Read Transaction,00 08*
0,261,0:16.184.310,79.100 us,2 B,,SP,55,Write Transaction,12 01
0,262,0:16.189.661,659.600 us,25 B,,SP,55,Read Transaction,00 00 00 00 00 02 58 00 00 00 00 01 00 00 00 00 00 00 00 00 00 00 00 02 00*
0,263,0:16.198.216,676.900 us,26 B,,SP,55,Write Transaction,14 00 02 FA 38 03 C1 BB 06 AF B5 06 6A 89 00 00 00 00 00 00 FF ED 00 61 FC 30
0,264,0:16.214.160,115.600 us,3 B,,SP,55,Read Transaction,00 00 18*
0,265,0:16.218.552,79.100 us,2 B,,SP,55,Write Transaction,00 00
0,266,0:16.223.902,86.600 us,2 B,,SP,55,Read Transaction,00 08*
0,267,0:16.224.265,79.000 us,2 B,,SP,55,Write Transaction,12 01
0,268,0:16.229.614,659.700 us,25 B,,SP,55,Read Transaction,00 00 00 00 00 02 58 00 00 00 00 01 00 00 00 00 00 00 00 00 00 00 00 02 00*
0,269,0:16.238.146,676.900 us,26 B,,SP,55,Write Transaction,14 00 02 FC E8 03 C5 06 06 B3 00 06 6C C3 00 00 00 00 00 00 FF EC 00 5E FC 2C
0,270,0:16.254.084,115.500 us,3 B,,SP,55,Read Transaction,00 00 18*
0,271,0:16.258.478,79.000 us,2 B,,SP,55,Write Transaction,00 00
0,272,0:16.263.827,86.700 us,2 B,,SP,55,Read Transaction,00 08*
0,273,0:16.264.188,79.100 us,2 B,,SP,55,Write Transaction,12 01
0,274,0:16.269.541,659.600 us,25 B,,SP,55,Read Transaction,00 00 00 00 00 02 58 00 00 00 00 01 00 00 00 00 00 00 00 00 00 00 00 02 00*
0,275,0:16.278.092,676.800 us,26 B,,SP,55,Write Transaction,14 00 02 FF 17 03 C7 8F 06 B3 90 06 6C D5 00 00 00 00 00 00 FF EF 00 60 FC 2F
0,276,0:16.294.033,115.500 us,3 B,,SP,55,Read Transaction,00 00 18*
0,277,0:16.298.424,79.000 us,2 B,,SP,55,Write Transaction,00 00
0,278,0:16.303.774,86.700 us,2 B,,SP,55,Read Transaction,00 08*
0,279,0:16.304.137,79.100 us,2 B,,SP,55,Write Transaction,12 01
0,280,0:16.309.484,659.600 us,25 B,,SP,55,Read Transaction,00 00 00 00 00 02 58 00 00 00 00 01 00 00 00 00 00 00 00 00 00 00 00 02 00*
0,281,0:16.318.018,676.900 us,26 B,,SP,55,Write Transaction,14 00 03 01 A2 03 CA AB 06 B8 51 06 71 18 00 00 00 00 00 00 FF EF 00 5F FC 2E
0,282,0:16.333.959,115.500 us,3 B,,SP,55,Read Transaction,00 00 18*
0,283,0:16.338.353,79.000 us,2 B,,SP,55,Write Transaction,00 00
0,284,0:16.343.702,86.700 us,2 B,,SP,55,Read Transaction,00 08*
0,285,0:16.344.063,79.000 us,2 B,,SP,55,Write Transaction,12 01
0,286,0:16.349.414,659.700 us,25 B,,SP,55,Read Transaction,00 00 00 00 00 02 58 00 00 00 00 01 00 00 00 00 00 00 00 00 00 00 00 02 00*
0,287,0:16.357.918,677.000 us,26 B,,SP,55,Write Transaction,14 00 03 04 9C 03 CE 3D 06 BB 0A 06 71 E0 00 00 00 00 00 00 FF F0 00 5B FC 2D
0,288,0:16.373.862,116.400 us,3 B,,SP,55,Read Transaction,00 00 18*
0,289,0:16.378.255,79.100 us,2 B,,SP,55,Write Transaction,00 00
0,290,0:16.383.605,86.700 us,2 B,,SP,55,Read Transaction,00 08*
0,291,0:16.383.968,79.000 us,2 B,,SP,55,Write Transaction,12 01
0,292,0:16.389.318,659.600 us,25 B,,SP,55,Read Transaction,00 00 00 00 00 02 58 00 00 00 00 01 00 00 00 00 00 00 00 00 00 00 00 02 00*
0,293,0:16.397.938,676.900 us,26 B,,SP,55,Write Transaction,14 00 03 00 BF 03 C9 FD 06 B2 EA 06 6C FD 00 00 00 00 00 00 FF EC 00 57 FC 2C
0,294,0:16.413.886,115.600 us,3 B,,SP,55,Read Transaction,00 00 18*
0,295,0:16.418.279,79.100 us,2 B,,SP,55,Write Transaction,00 00
0,296,0:16.423.636,86.800 us,2 B,,SP,55,Read Transaction,00 08*
0,297,0:16.424.001,79.200 us,2 B,,SP,55,Write Transaction,12 01
0,298,0:16.429.350,659.600 us,25 B,,SP,55,Read Transaction,00 00 00 00 00 02 58 00 00 00 00 01 00 00 00 00 00 00 00 00 00 00 00 02 00*
0,299,0:16.437.794,676.800 us,26 B,,SP,55,Write Transaction,14 00 02 F3 8B 03 BC BF 06 AC 95 06 6B D5 00 00 00 00 00 00 FF EB 00 5C FC 2E
0,300,0:16.453.730,115.600 us,3 B,,SP,55,Read Transaction,00 00 18*
0,301,0:16.458.122,79.000 us,2 B,,SP,55,Write Transaction,00 00
0,302,0:16.463.477,86.900 us,2 B,,SP,55,Read Transaction,00 08*
0,303,0:16.463.840,79.200 us,2 B,,SP,55,Write Transaction,12 01
0,304,0:16.469.196,659.600 us,25 B,,SP,55,Read Transaction,00 00 00 00 00 02 58 00 00 00 00 01 00 00 00 00 00 00 00 00 00 00 00 02 00*
0,305,0:16.478.211,676.800 us,26 B,,SP,55,Write Transaction,14 00 02 E8 22 03 B2 14 06 A5 07 06 67 AC 00 00 00 00 00 00 FF F0 00 5E FC 2C
0,306,0:16.494.154,115.500 us,3 B,,SP,55,Read Transaction,00 00 18*
0,307,0:16.498.548,79.100 us,2 B,,SP,55,Write Transaction,00 00
0,308,0:16.503.898,86.700 us,2 B,,SP,55,Read Transaction,00 08*
0,309,0:16.504.261,79.100 us,2 B,,SP,55,Write Transaction,12 01
0,310,0:16.509.609,659.600 us,25 B,,SP,55,Read Transaction,00 00 00 00 00 02 58 00 00 00 00 01 00 00 00 00 00 00 00 00 00 00 00 02 00*
0,311,0:16.517.661,676.800 us,26 B,,SP,55,Write Transaction,14 00 02 E3 86 03 AD 39 06 A3 98 06 68 25 00 00 00 00 00 00 FF ED 00 5E FC 2F
0,312,0:16.533.598,116.100 us,3 B,,SP,55,Read Transaction,00 00 18*
0,313,0:16.537.991,79.100 us,2 B,,SP,55,Write Transaction,00 00
0,314,0:16.543.340,86.700 us,2 B,,SP,55,Read Transaction,00 08*
0,315,0:16.543.701,79.000 us,2 B,,SP,55,Write Transaction,12 01
0,316,0:16.549.053,659.600 us,25 B,,SP,55,Read Transaction,00 00 00 00 00 02 58 00 00 00 00 01 00 00 00 00 00 00 00 00 00 00 00 02 00*
0,317,0:16.557.681,676.700 us,26 B,,SP,55,Write Transaction,14 00 02 E1 EC 03 AA F3 06 A2 75 06 66 D5 00 00 00 00 00 00 FF EE 00 5C FC 2D
0,318,0:16.573.621,115.500 us,3 B,,SP,55,Read Transaction,00 00 18*
0,319,0:16.578.012,79.100 us,2 B,,SP,55,Write Transaction,00 00
0,320,0:16.583.367,86.700 us,2 B,,SP,55,Read Transaction,00 08*
0,321,0:16.583.729,79.100 us,2 B,,SP,55,Write Transaction,12 01
0,322,0:16.589.085,660.600 us,25 B,,SP,55,Read Transaction,00 00 00 00 00 02 58 00 00 00 00 01 00 00 00 00 00 00 00 00 00 00 00 02 00*
0,323,0:16.597.538,676.800 us,26 B,,SP,55,Write Transaction,14 00 02 DF C3 03 A8 3A 06 9D 56 06 63 98 00 00 00 00 00 00 FF EC 00 60 FC 2C
0,324,0:16.613.481,115.600 us,3 B,,SP,55,Read Transaction,00 00 18*
0,325,0:16.617.875,79.100 us,2 B,,SP,55,Write Transaction,00 00
0,326,0:16.623.225,86.700 us,2 B,,SP,55,Read Transaction,00 08*
0,327,0:16.623.586,79.100 us,2 B,,SP,55,Write Transaction,12 01
0,328,0:16.628.942,660.200 us,25 B,,SP,55,Read Transaction,00 00 00 00 00 02 58 00 00 00 00 01 00 00 00 00 00 00 00 00 00 00 00 02 00*
0,329,0:16.637.515,676.900 us,26 B,,SP,55,Write Transaction,14 00 02 E1 12 03 A9 22 06 A1 11 06 66 54 00 00 00 00 00 00 FF E9 00 5C FC 30
0,330,0:16.653.457,115.700 us,3 B,,SP,55,Read Transaction,00 00 18*
0,331,0:16.657.850,79.000 us,2 B,,SP,55,Write Transaction,00 00
0,332,0:16.663.201,86.700 us,2 B,,SP,55,Read Transaction,00 08*
0,333,0:16.663.563,79.100 us,2 B,,SP,55,Write Transaction,12 01
0,334,0:16.668.913,659.700 us,25 B,,SP,55,Read Transaction,00 00 00 00 00 02 58 00 00 00 00 01 00 00 00 00 00 00 00 00 00 00 00 02 00*
0,335,0:16.677.481,677.000 us,26 B,,SP,55,Write Transaction,14 00 02 E4 0B 03 AB 9B 06 A3 B0 06 67 B0 00 00 00 00 00 00 FF E8 00 5E FC 2E
0,336,0:16.693.432,115.600 us,3 B,,SP,55,Read Transaction,00 00 18*
0,337,0:16.697.825,79.000 us,2 B,,SP,55,Write Transaction,00 00
0,338,0:16.703.174,86.700 us,2 B,,SP,55,Read Transaction,00 08*
0,339,0:16.703.535,79.100 us,2 B,,SP,55,Write Transaction,12 01
0,340,0:16.708.887,659.700 us,25 B,,SP,55,Read Transaction,00 00 00 00 00 02 58 00 00 00 00 01 00 00 00 00 00 00 00 00 00 00 00 02 00*
0,341,0:16.717.352,676.900 us,26 B,,SP,55,Write Transaction,14 00 02 E5 D4 03 AD 41 06 A5 6F 06 68 F0 00 00 00 00 00 00 FF E9 00 5C FC 2D
0,342,0:16.733.292,115.600 us,3 B,,SP,55,Read Transaction,00 00 18*
0,343,0:16.737.684,79.100 us,2 B,,SP,55,Write Transaction,00 00
0,344,0:16.743.035,86.700 us,2 B,,SP,55,Read Transaction,00 08*
0,345,0:16.743.398,79.000 us,2 B,,SP,55,Write Transaction,12 01
0,346,0:16.748.748,659.100 us,25 B,,SP,55,Read Transaction,00 00 00 00 00 02 58 00 00 00 00 01 00 00 00 00 00 00 00 00 00 00 00 02 00*
0,347,0:16.757.340,676.900 us,26 B,,SP,55,Write Transaction,14 00 02 E6 E9 03 AE A7 06 A4 8C 06 68 0A 00 00 00 00 00 00 FF ED 00 5E FC 2F
0,348,0:16.773.281,128.500 us,3 B,,SP,55,Read Transaction,00 00 18*
0,349,0:16.777.695,79.200 us,2 B,,SP,55,Write Transaction,00 00
0,350,0:16.783.047,86.600 us,2 B,,SP,55,Read Transaction,00 08*
0,351,0:16.783.409,79.100 us,2 B,,SP,55,Write Transaction,12 01
0,352,0:16.788.758,659.600 us,25 B,,SP,55,Read Transaction,00 00 00 00 00 02 58 00 00 00 00 01 00 00 00 00 00 00 00 00 00 00 00 02 00*
0,353,0:16.797.222,676.900 us,26 B,,SP,55,Write Transaction,14 00 02 E8 75 03 B0 5E 06 A4 1C 06 67 AE 00 00 00 00 00 00 FF EC 00 5D FC 30
0,354,0:16.813.162,115.600 us,3 B,,SP,55,Read Transaction,00 00 18*
0,355,0:16.817.556,79.200 us,2 B,,SP,55,Write Transaction,00 00
0,356,0:16.822.907,86.700 us,2 B,,SP,55,Read Transaction,00 08*
0,357,0:16.823.269,79.100 us,2 B,,SP,55,Write Transaction,12 01
0,358,0:16.828.622,660.500 us,25 B,,SP,55,Read Transaction,00 00 00 00 00 02 58 00 00 00 00 01 00 00 00 00 00 00 00 00 00 00 00 02 00*
0,359,0:16.837.177,676.900 us,26 B,,SP,55,Write Transaction,14 00 02 EB 74 03 B3 B7 06 A7 8A 06 69 FC 00 00 00 00 00 00 FF EA 00 59 FC 2E
0,360,0:16.853.114,115.600 us,3 B,,SP,55,Read Transaction,00 00 18*
0,361,0:16.857.506,79.100 us,2 B,,SP,55,Write Transaction,00 00
0,362,0:16.862.857,86.700 us,2 B,,SP,55,Read Transaction,00 08*
0,363,0:16.863.220,79.000 us,2 B,,SP,55,Write Transaction,12 01
0,364,0:16.868.568,659.600 us,25 B,,SP,55,Read Transaction,00 00 00 00 00 02 58 00 00 00 00 01 00 00 00 00 00 00 00 00 00 00 00 02 00*
0,365,0:16.877.081,676.900 us,26 B,,SP,55,Write Transaction,14 00 02 EF 73 03 B7 D8 06 AA 5F 06 6B 39 00 00 00 00 00 00 FF EE 00 5F FC 2F
0,366,0:16.893.020,115.700 us,3 B,,SP,55,Read Transaction,00 00 18*
0,367,0:16.897.416,79.100 us,2 B,,SP,55,Write Transaction,00 00
0,368,0:16.902.765,86.700 us,2 B,,SP,55,Read Transaction,00 08*
0,369,0:16.903.126,79.100 us,2 B,,SP,55,Write Transaction,12 01
0,370,0:16.908.476,659.700 us,25 B,,SP,55,Read Transaction,00 00 00 00 00 02 58 00 00 00 00 01 00 00 00 00 00 00 00 00 00 00 00 02 00*
0,371,0:16.917.153,676.900 us,26 B,,SP,55,Write Transaction,14 00 02 F3 10 03 BB 9B 06 AB 61 06 6B 68 00 00 00 00 00 00 FF ED 00 5E FC 2C
0,372,0:16.933.094,116.100 us,3 B,,SP,55,Read Transaction,00 00 18*
0,373,0:16.937.486,79.000 us,2 B,,SP,55,Write Transaction,00 00
0,374,0:16.942.836,86.700 us,2 B,,SP,55,Read Transaction,00 08*
0,375,0:16.943.198,79.100 us,2 B,,SP,55,Write Transaction,12 01
0,376,0:16.948.546,659.600 us,25 B,,SP,55,Read Transaction,00 00 00 00 00 02 58 00 00 00 00 01 00 00 00 00 00 00 00 00 00 00 00 02 00*
0,377,0:16.956.968,676.900 us,26 B,,SP,55,Write Transaction,14 00 02 F6 47 03 BF 16 06 AF 1B 06 6E 1B 00 00 00 00 00 00 FF ED 00 5C FC 2F
0,378,0:16.972.910,115.600 us,3 B,,SP,55,Read Transaction,00 00 18*
0,379,0:16.977.307,79.000 us,2 B,,SP,55,Write Transaction,00 00
0,380,0:16.982.659,86.700 us,2 B,,SP,55,Read Transaction,00 08*
0,381,0:16.983.022,79.100 us,2 B,,SP,55,Write Transaction,12 01
0,382,0:16.988.373,659.500 us,25 B,,SP,55,Read Transaction,00 00 00 00 00 02 58 00 00 00 00 01 00 00 00 00 00 00 00 00 00 00 00 02 00*
0,383,0:16.996.938,676.900 us,26 B,,SP,55,Write Transaction,14 00 02 F9 51 03 C2 85 06 B0 80 06 6E C5 00 00 00 00 00 00 FF EB 00 5A FC 27
0,384,0:17.012.878,115.600 us,3 B,,SP,55,Read Transaction,00 00 18*
0,385,0:17.017.270,79.100 us,2 B,,SP,55,Write Transaction,00 00
0,386,0:17.022.619,86.700 us,2 B,,SP,55,Read Transaction,00 08*
0,387,0:17.022.981,79.000 us,2 B,,SP,55,Write Transaction,12 01
0,388,0:17.028.332,659.500 us,25 B,,SP,55,Read Transaction,00 00 00 00 00 02 58 00 00 00 00 01 00 00 00 00 00 00 00 00 00 00 00 02 00*
0,389,0:17.036.838,677.900 us,26 B,,SP,55,Write Transaction,14 00 02 FC 18 03 C5 94 06 B2 18 06 6F B0 00 00 00 00 00 00 FF EA 00 59 FC 35
0,390,0:17.052.781,115.500 us,3 B,,SP,55,Read Transaction,00 00 18*
0,391,0:17.057.174,79.100 us,2 B,,SP,55,Write Transaction,00 00
0,392,0:17.062.523,86.700 us,2 B,,SP,55,Read Transaction,00 08*
0,393,0:17.062.887,79.000 us,2 B,,SP,55,Write Transaction,12 01
0,394,0:17.068.239,659.500 us,25 B,,SP,55,Read Transaction,00 00 00 00 00 02 58 00 00 00 00 01 00 00 00 00 00 00 00 00 00 00 00 02 00*
0,395,0:17.076.801,677.600 us,26 B,,SP,55,Write Transaction,14 00 02 FF 26 03 C9 03 06 B4 F1 06 71 D7 00 00 00 00 00 00 FF EC 00 5B FC 32
0,396,0:17.092.744,115.600 us,3 B,,SP,55,Read Transaction,00 00 18*
0,397,0:17.097.134,79.100 us,2 B,,SP,55,Write Transaction,00 00
0,398,0:17.102.487,86.700 us,2 B,,SP,55,Read Transaction,00 08*
0,399,0:17.102.850,79.100 us,2 B,,SP,55,Write Transaction,12 01
0,400,0:17.108.200,659.700 us,25 B,,SP,55,Read Transaction,00 00 00 00 00 02 58 00 00 00 00 01 00 00 00 00 00 00 00 00 00 00 00 02 00*
0,401,0:17.116.749,677.000 us,26 B,,SP,55,Write Transaction,14 00 03 01 5C 03 CB BC 06 B6 62 06 72 EE 00 00 00 00 00 00 FF EC 00 58 FC 2F
0,402,0:17.132.709,115.600 us,3 B,,SP,55,Read Transaction,00 00 18*
0,403,0:17.137.101,79.000 us,2 B,,SP,55,Write Transaction,00 00
0,404,0:17.142.452,86.700 us,2 B,,SP,55,Read Transaction,00 08*
0,405,0:17.142.815,79.000 us,2 B,,SP,55,Write Transaction,12 01
0,406,0:17.148.163,659.700 us,25 B,,SP,55,Read Transaction,00 00 00 00 00 02 58 00 00 00 00 01 00 00 00 00 00 00 00 00 00 00 00 02 00*
0,407,0:17.156.683,676.900 us,26 B,,SP,55,Write Transaction,14 00 03 04 82 03 CF 54 06 BA BB 06 76 03 00 00 00 00 00 00 FF F1 00 5F FC 2C
0,408,0:17.172.623,115.600 us,3 B,,SP,55,Read Transaction,00 00 18*
0,409,0:17.177.018,79.200 us,2 B,,SP,55,Write Transaction,00 00
0,410,0:17.182.370,86.800 us,2 B,,SP,55,Read Transaction,00 08*
0,411,0:17.182.731,79.200 us,2 B,,SP,55,Write Transaction,12 01
0,412,0:17.188.086,659.600 us,25 B,,SP,55,Read Transaction,00 00 00 00 00 02 58 00 00 00 00 00 00 00 00 00 00 00 00 00 00 00 00 02 00*
0,413,0:17.196.605,676.900 us,26 B,,SP,55,Write Transaction,14 00 03 07 28 03 D2 80 06 BC EF 06 77 3D 00 00 00 00 00 00 FF ED 00 59 FC 2F
0,414,0:17.212.550,115.600 us,3 B,,SP,55,Read Transaction,00 00 18*
0,415,0:17.216.940,79.000 us,2 B,,SP,55,Write Transaction,00 00
0,416,0:17.222.291,86.700 us,2 B,,SP,55,Read Transaction,00 08*
0,417,0:17.222.652,79.000 us,2 B,,SP,55,Write Transaction,12 01
0,418,0:17.228.001,659.600 us,25 B,,SP,55,Read Transaction,00 00 00 00 00 02 58 00 00 00 00 00 00 00 00 00 00 00 00 00 00 00 00 02 00*
0,419,0:17.236.551,676.900 us,26 B,,SP,55,Write Transaction,14 00 03 0A 4E 03 D6 13 06 BD FE 06 77 86 00 00 00 00 00 00 FF EC 00 5F FC 2E
0,420,0:17.252.491,115.600 us,3 B,,SP,55,Read Transaction,00 00 18*
0,421,0:17.256.883,79.100 us,2 B,,SP,55,Write Transaction,00 00
0,422,0:17.262.232,86.700 us,2 B,,SP,55,Read Transaction,00 08*
0,423,0:17.262.594,79.100 us,2 B,,SP,55,Write Transaction,12 01
0,424,0:17.267.945,659.600 us,25 B,,SP,55,Read Transaction,00 00 00 00 00 02 58 00 00 00 00 00 00 00 00 00 00 00 00 00 00 00 00 02 00*
0,425,0:17.276.541,676.800 us,26 B,,SP,55,Write Transaction,14 00 03 0C 4D 03 D8 1E 06 BB F9 06 75 1E 00 00 00 00 00 00 FF EE 00 5F FC 2F
0,426,0:17.292.481,115.500 us,3 B,,SP,55,Read Transaction,00 00 18*
0,427,0:17.296.873,79.000 us,2 B,,SP,55,Write Transaction,00 00
0,428,0:17.302.223,86.700 us,2 B,,SP,55,Read Transaction,00 08*
0,429,0:17.302.586,79.100 us,2 B,,SP,55,Write Transaction,12 01
0,430,0:17.307.935,659.700 us,25 B,,SP,55,Read Transaction,00 00 00 00 00 02 58 00 00 00 00 00 00 00 00 00 00 00 00 00 00 00 00 02 00*
0,431,0:17.316.436,676.900 us,26 B,,SP,55,Write Transaction,14 00 03 04 79 03 CF 9F 06 B1 4F 06 6F 42 00 00 00 00 00 00 FF EB 00 56 FC 2D
0,432,0:17.332.376,116.100 us,3 B,,SP,55,Read Transaction,00 00 18*
0,433,0:17.336.769,79.100 us,2 B,,SP,55,Write Transaction,00 00
0,434,0:17.342.119,86.600 us,2 B,,SP,55,Read Transaction,00 08*
0,435,0:17.342.504,79.100 us,2 B,,SP,55,Write Transaction,12 01
0,436,0:17.347.855,659.600 us,25 B,,SP,55,Read Transaction,00 00 00 00 00 02 58 00 00 00 00 00 00 00 00 00 00 00 00 00 00 00 00 02 00*
0,437,0:17.356.370,676.900 us,26 B,,SP,55,Write Transaction,14 00 02 F5 08 03 C0 43 06 A6 4B 06 6A 00 00 00 00 00 00 00 FF EF 00 59 FC 2B
0,438,0:17.372.313,116.300 us,3 B,,SP,55,Read Transaction,00 00 18*
0,439,0:17.376.704,79.100 us,2 B,,SP,55,Write Transaction,00 00
0,440,0:17.382.055,86.700 us,2 B,,SP,55,Read Transaction,00 08*
0,441,0:17.382.418,79.000 us,2 B,,SP,55,Write Transaction,12 01
0,442,0:17.387.769,659.600 us,25 B,,SP,55,Read Transaction,00 00 00 00 00 02 58 00 00 00 00 00 00 00 00 00 00 00 00 00 00 00 00 02 00*
0,443,0:17.396.347,676.900 us,26 B,,SP,55,Write Transaction,14 00 02 EB 7D 03 B7 14 06 A1 76 06 68 28 00 00 00 00 00 00 FF EB 00 5C FC 2E
0,444,0:17.412.289,115.500 us,3 B,,SP,55,Read Transaction,00 00 18*
0,445,0:17.416.689,79.100 us,2 B,,SP,55,Write Transaction,00 00
0,446,0:17.422.040,86.700 us,2 B,,SP,55,Read Transaction,00 08*
0,447,0:17.422.403,79.100 us,2 B,,SP,55,Write Transaction,12 01
0,448,0:17.427.751,659.500 us,25 B,,SP,55,Read Transaction,00 00 00 00 00 02 58 00 00 00 00 00 00 00 00 00 00 00 00 00 00 00 00 02 00*
0,449,0:17.436.198,676.900 us,26 B,,SP,55,Write Transaction,14 00 02 E7 80 03 B2 55 06 A0 64 06 68 42 00 00 00 00 00 00 FF EC 00 5C FC 28
0,450,0:17.452.136,115.600 us,3 B,,SP,55,Read Transaction,00 00 18*
0,451,0:17.456.530,79.000 us,2 B,,SP,55,Write Transaction,00 00
0,452,0:17.461.879,86.700 us,2 B,,SP,55,Read Transaction,00 08*
0,453,0:17.462.240,79.100 us,2 B,,SP,55,Write Transaction,12 01
0,454,0:17.467.591,659.700 us,25 B,,SP,55,Read Transaction,00 00 00 00 00 02 58 00 00 00 00 00 00 00 00 00 00 00 00 00 00 00 00 02 00*
0,455,0:17.476.184,676.900 us,26 B,,SP,55,Write Transaction,14 00 02 E5 8A 03 AF 89 06 9E A6 06 66 F9 00 00 00 00 00 00 FF EB 00 5F FC 2E
0,456,0:17.492.129,115.600 us,3 B,,SP,55,Read Transaction,00 00 18*
0,457,0:17.496.519,79.200 us,2 B,,SP,55,Write Transaction,00 00
0,458,0:17.501.873,86.700 us,2 B,,SP,55,Read Transaction,00 08*
0,459,0:17.502.235,79.100 us,2 B,,SP,55,Write Transaction,12 01
0,460,0:17.507.584,659.600 us,25 B,,SP,55,Read Transaction,00 00 00 00 00 02 58 00 00 00 00 00 00 00 00 00 00 00 00 00 00 00 00 02 00*
0,461,0:17.516.066,676.900 us,26 B,,SP,55,Write Transaction,14 00 02 E4 D6 03 AE 2F 06 9D 18 06 65 B7 00 00 00 00 00 00 FF F4 00 5F FC 2C
0,462,0:17.532.005,115.600 us,3 B,,SP,55,Read Transaction,00 00 18*
0,463,0:17.536.399,79.100 us,2 B,,SP,55,Write Transaction,00 00
0,464,0:17.541.748,86.700 us,2 B,,SP,55,Read Transaction,00 08*
0,465,0:17.542.110,79.100 us,2 B,,SP,55,Write Transaction,12 01
0,466,0:17.547.460,659.600 us,25 B,,SP,55,Read Transaction,00 00 00 00 00 02 58 00 00 00 00 00 00 00 00 00 00 00 00 00 00 00 00 02 00*
0,467,0:17.556.070,676.900 us,26 B,,SP,55,Write Transaction,14 00 02 E7 70 03 AF F6 06 9F C9 06 67 8A 00 00 00 00 00 00 FF F0 00 5E FC 2D
0,468,0:17.572.009,115.600 us,3 B,,SP,55,Read Transaction,00 00 18*
0,469,0:17.576.401,79.100 us,2 B,,SP,55,Write Transaction,00 00
0,470,0:17.581.751,86.700 us,2 B,,SP,55,Read Transaction,00 08*
0,471,0:17.582.114,79.000 us,2 B,,SP,55,Write Transaction,12 01
0,472,0:17.587.509,659.600 us,25 B,,SP,55,Read Transaction,00 00 00 00 00 02 58 00 00 00 00 00 00 00 00 00 00 00 00 00 00 00 00 02 00*
0,473,0:17.595.931,677.000 us,26 B,,SP,55,Write Transaction,14 00 02 E9 92 03 B1 ED 06 A3 4A 06 6A AD 00 00 00 00 00 00 FF EF 00 5C FC 2E
0,474,0:17.611.874,115.400 us,3 B,,SP,55,Read Transaction,00 00 18*
0,475,0:17.616.267,79.000 us,2 B,,SP,55,Write Transaction,00 00
0,476,0:17.621.618,86.700 us,2 B,,SP,55,Read Transaction,00 08*
0,477,0:17.621.979,79.100 us,2 B,,SP,55,Write Transaction,12 01
0,478,0:17.627.331,659.600 us,25 B,,SP,55,Read Transaction,00 00 00 00 00 02 58 00 00 00 00 00 00 00 00 00 00 00 00 00 00 00 00 02 00*
0,479,0:17.635.979,677.800 us,26 B,,SP,55,Write Transaction,14 00 02 E9 73 03 B2 00 06 A1 5F 06 68 D8 00 00 00 00 00 00 FF ED 00 5D FC 2E
0,480,0:17.651.930,115.600 us,3 B,,SP,55,Read Transaction,00 00 18*
0,481,0:17.656.321,79.100 us,2 B,,SP,55,Write Transaction,00 00
0,482,0:17.661.673,86.800 us,2 B,,SP,55,Read Transaction,00 08*
0,483,0:17.662.035,79.100 us,2 B,,SP,55,Write Transaction,12 01
0,484,0:17.667.387,659.400 us,25 B,,SP,55,Read Transaction,00 00 00 00 00 02 58 00 00 00 00 00 00 00 00 00 00 00 00 00 00 00 00 02 00*
0,485,0:17.675.853,676.900 us,26 B,,SP,55,Write Transaction,14 00 02 EA 6D 03 B3 03 06 A2 05 06 69 EE 00 00 00 00 00 00 FF E9 00 60 FC 27
0,486,0:17.691.795,115.600 us,3 B,,SP,55,Read Transaction,00 00 18*
0,487,0:17.696.191,79.200 us,2 B,,SP,55,Write Transaction,00 00
0,488,0:17.701.544,86.600 us,2 B,,SP,55,Read Transaction,00 08*
0,489,0:17.701.907,79.100 us,2 B,,SP,55,Write Transaction,12 01
0,490,0:17.707.258,659.600 us,25 B,,SP,55,Read Transaction,00 00 00 00 00 02 58 00 00 00 00 00 00 00 00 00 00 00 00 00 00 00 00 02 00*
0,491,0:17.715.795,676.900 us,26 B,,SP,55,Write Transaction,14 00 02 ED 17 03 B6 09 06 A7 32 06 6D C7 00 00 00 00 00 00 FF EF 00 60 FC 25
0,492,0:17.731.732,116.200 us,3 B,,SP,55,Read Transaction,00 00 18*
0,493,0:17.736.124,79.000 us,2 B,,SP,55,Write Transaction,00 00
0,494,0:17.741.480,86.800 us,2 B,,SP,55,Read Transaction,00 08*
0,495,0:17.741.842,79.000 us,2 B,,SP,55,Write Transaction,12 01
0,496,0:17.747.192,660.200 us,25 B,,SP,55,Read Transaction,00 00 00 00 00 02 58 00 00 00 00 00 00 00 00 00 00 00 00 00 00 00 00 02 00*
0,497,0:17.755.734,676.800 us,26 B,,SP,55,Write Transaction,14 00 02 F0 5F 03 B9 85 06 A7 BD 06 6D 31 00 00 00 00 00 00 FF EF 00 60 FC 31
0,498,0:17.771.675,115.600 us,3 B,,SP,55,Read Transaction,00 00 18*
0,499,0:17.776.068,79.100 us,2 B,,SP,55,Write Transaction,00 00
0,500,0:17.781.419,86.700 us,2 B,,SP,55,Read Transaction,00 08*
0,501,0:17.781.782,79.100 us,2 B,,SP,55,Write Transaction,12 01
0,502,0:17.787.130,659.600 us,25 B,,SP,55,Read Transaction,00 00 00 00 00 02 58 00 00 00 00 00 00 00 00 00 00 00 00 00 00 00 00 02 00*
0,503,0:17.795.663,676.800 us,26 B,,SP,55,Write Transaction,14 00 02 F4 00 03 BD 3D 06 AC 02 06 70 72 00 00 00 00 00 00 FF EA 00 54 FC 2A
0,504,0:17.811.605,115.600 us,3 B,,SP,55,Read Transaction,00 00 18*
0,505,0:17.815.999,79.000 us,2 B,,SP,55,Write Transaction,00 00
0,506,0:17.821.347,86.700 us,2 B,,SP,55,Read Transaction,00 08*
0,507,0:17.821.708,79.100 us,2 B,,SP,55,Write Transaction,12 01
0,508,0:17.827.058,659.700 us,25 B,,SP,55,Read Transaction,00 00 00 00 00 02 58 00 00 00 00 00 00 00 00 00 00 00 00 00 00 00 00 02 00*
0,509,0:17.835.607,676.900 us,26 B,,SP,55,Write Transaction,14 00 02 F7 C2 03 C1 58 06 AF 3D 06 72 83 00 00 00 00 00 00 FF EA 00 56 FC 2E
0,510,0:17.851.554,115.600 us,3 B,,SP,55,Read Transaction,00 00 18*
0,511,0:17.855.947,79.200 us,2 B,,SP,55,Write Transaction,00 00
0,512,0:17.861.299,86.700 us,2 B,,SP,55,Read Transaction,00 08*
0,513,0:17.861.661,79.000 us,2 B,,SP,55,Write Transaction,12 01
0,514,0:17.867.010,659.700 us,25 B,,SP,55,Read Transaction,00 00 00 00 00 02 58 00 00 00 00 00 00 00 00 00 00 00 00 00 00 00 00 02 00*
0,515,0:17.875.542,676.900 us,26 B,,SP,55,Write Transaction,14 00 02 FB 07 03 C5 07 06 B1 93 06 73 FB 00 00 00 00 00 00 FF ED 00 5D FC 2F
0,516,0:17.891.481,115.500 us,3 B,,SP,55,Read Transaction,00 00 18*
0,517,0:17.895.875,79.000 us,2 B,,SP,55,Write Transaction,00 00
0,518,0:17.901.225,86.700 us,2 B,,SP,55,Read Transaction,00 08*
0,519,0:17.901.586,79.100 us,2 B,,SP,55,Write Transaction,12 01
0,520,0:17.906.939,660.400 us,25 B,,SP,55,Read Transaction,00 00 00 00 00 02 58 00 00 00 00 00 00 00 00 00 00 00 00 00 00 00 00 02 00*
0,521,0:17.915.460,676.900 us,26 B,,SP,55,Write Transaction,14 00 02 FD D0 03 C8 25 06 B4 0B 06 75 FE 00 00 00 00 00 00 FF EE 00 61 FC 2E
0,522,0:17.931.400,116.000 us,3 B,,SP,55,Read Transaction,00 00 18*
0,523,0:17.935.794,79.200 us,2 B,,SP,55,Write Transaction,00 00
0,524,0:17.941.146,86.700 us,2 B,,SP,55,Read Transaction,00 08*
0,525,0:17.941.508,79.100 us,2 B,,SP,55,Write Transaction,12 01
0,526,0:17.946.858,659.500 us,25 B,,SP,55,Read Transaction,00 00 00 00 00 02 58 00 00 00 00 00 00 00 00 00 00 00 00 00 00 00 00 02 00*
0,527,0:17.955.625,676.900 us,26 B,,SP,55,Write Transaction,14 00 03 01 08 03 CC 1A 06 B8 FB 06 79 7A 00 00 00 00 00 00 FF E8 00 5B FC 31
0,528,0:17.971.571,115.800 us,3 B,,SP,55,Read Transaction,00 00 18*
0,529,0:17.975.967,79.000 us,2 B,,SP,55,Write Transaction,00 00
0,530,0:17.981.331,86.900 us,2 B,,SP,55,Read Transaction,00 08*
0,531,0:17.981.695,79.200 us,2 B,,SP,55,Write Transaction,12 01
0,532,0:17.987.044,659.600 us,25 B,,SP,55,Read Transaction,00 00 00 00 00 02 58 00 00 00 00 00 00 00 00 00 00 00 00 00 00 00 01 02 00*
0,533,0:17.995.325,676.900 us,26 B,,SP,55,Write Transaction,14 00 03 03 D7 03 CF 32 06 B8 3D 06 78 36 00 00 00 00 00 00 FF EF 00 5A FC 2B
0,534,0:18.011.264,115.600 us,3 B,,SP,55,Read Transaction,00 00 18*
0,535,0:18.015.656,79.000 us,2 B,,SP,55,Write Transaction,00 00
0,536,0:18.021.007,86.700 us,2 B,,SP,55,Read Transaction,00 08*
0,537,0:18.021.369,79.000 us,2 B,,SP,55,Write Transaction,12 01
0,538,0:18.026.718,659.700 us,25 B,,SP,55,Read Transaction,00 00 00 00 00 02 58 00 00 00 00 00 00 00 00 00 00 00 00 00 00 00 01 02 00*
0,539,0:18.035.306,676.900 us,26 B,,SP,55,Write Transaction,14 00 03 06 68 03 D2 4A 06 BA 4A 06 79 B8 00 00 00 00 00 00 FF EC 00 5B FC 2F
0,540,0:18.051.320,115.600 us,3 B,,SP,55,Read Transaction,00 00 18*
0,541,0:18.055.714,79.100 us,2 B,,SP,55,Write Transaction,00 00
0,542,0:18.061.063,86.700 us,2 B,,SP,55,Read Transaction,00 08*
0,543,0:18.061.425,79.000 us,2 B,,SP,55,Write Transaction,12 01
0,544,0:18.066.774,659.700 us,25 B,,SP,55,Read Transaction,00 00 00 00 00 02 58 00 00 00 00 00 00 00 00 00 00 00 00 00 00 00 01 02 00*
0,545,0:18.075.207,677.500 us,26 B,,SP,55,Write Transaction,14 00 03 09 63 03 D5 B4 06 BD 93 06 7C 45 00 00 00 00 00 00 FF EB 00 5C FC 2F
0,546,0:18.091.169,115.800 us,3 B,,SP,55,Read Transaction,00 00 18*
0,547,0:18.095.564,79.100 us,2 B,,SP,55,Write Transaction,00 00
0,548,0:18.100.913,86.700 us,2 B,,SP,55,Read Transaction,00 08*
0,549,0:18.101.275,79.100 us,2 B,,SP,55,Write Transaction,12 01
0,550,0:18.106.625,659.600 us,25 B,,SP,55,Read Transaction,00 00 00 00 00 02 58 00 00 00 00 00 00 00 00 00 00 00 00 00 00 00 01 02 00*
0,551,0:18.115.162,676.500 us,26 B,,SP,55,Write Transaction,14 00 03 0C 9B 03 D9 72 06 C0 C9 06 7E 62 00 00 00 00 00 00 FF EA 00 5D FC 28
0,552,0:18.131.112,116.300 us,3 B,,SP,55,Read Transaction,00 00 18*
0,553,0:18.135.505,79.100 us,2 B,,SP,55,Write Transaction,00 00
0,554,0:18.140.856,86.700 us,2 B,,SP,55,Read Transaction,00 08*
0,555,0:18.141.218,79.100 us,2 B,,SP,55,Write Transaction,12 01
0,556,0:18.146.567,659.700 us,25 B,,SP,55,Read Transaction,00 00 00 00 00 02 58 00 00 00 00 00 00 00 00 00 00 00 00 00 00 00 01 02 00*
0,557,0:18.155.094,677.000 us,26 B,,SP,55,Write Transaction,14 00 03 0F 9E 03 DD 0F 06 C2 83 06 7F 11 00 00 00 00 00 00 FF EC 00 5C FC 30
0,558,0:18.171.033,115.400 us,3 B,,SP,55,Read Transaction,00 00 18*
0,559,0:18.175.427,79.100 us,2 B,,SP,55,Write Transaction,00 00
0,560,0:18.180.776,86.700 us,2 B,,SP,55,Read Transaction,00 08*
0,561,0:18.181.138,79.100 us,2 B,,SP,55,Write Transaction,12 01
0,562,0:18.186.492,660.600 us,25 B,,SP,55,Read Transaction,00 00 00 00 00 02 58 00 00 00 00 00 00 00 00 00 00 00 00 00 00 00 01 02 00*
0,563,0:18.195.027,676.900 us,26 B,,SP,55,Write Transaction,14 00 03 12 E2 03 E0 83 06 C2 06 06 7D 97 00 00 00 00 00 00 FF EF 00 5A FC 2E
0,564,0:18.210.966,115.500 us,3 B,,SP,55,Read Transaction,00 00 18*
0,565,0:18.215.357,79.100 us,2 B,,SP,55,Write Transaction,00 00
0,566,0:18.220.709,86.700 us,2 B,,SP,55,Read Transaction,00 08*
0,567,0:18.221.071,79.100 us,2 B,,SP,55,Write Transaction,12 01
0,568,0:18.226.420,659.600 us,25 B,,SP,55,Read Transaction,00 00 00 00 00 02 58 00 00 00 00 00 00 00 00 00 00 00 00 00 00 00 01 02 00*
0,569,0:18.234.958,677.000 us,26 B,,SP,55,Write Transaction,14 00 03 0E BD 03 DC 16 06 BB 86 06 7A 57 00 00 00 00 00 00 FF EA 00 59 FC 2F
0,570,0:18.250.900,115.900 us,3 B,,SP,55,Read Transaction,00 00 18*
0,571,0:18.255.293,79.100 us,2 B,,SP,55,Write Transaction,00 00
0,572,0:18.260.642,86.700 us,2 B,,SP,55,Read Transaction,00 08*
0,573,0:18.261.002,79.100 us,2 B,,SP,55,Write Transaction,12 01
0,574,0:18.266.374,659.500 us,25 B,,SP,55,Read Transaction,00 00 00 00 00 02 58 00 00 00 00 00 00 00 00 00 00 00 00 00 00 00 01 03 00*
0,575,0:18.274.897,677.900 us,26 B,,SP,55,Write Transaction,14 00 03 00 BD 03 CE 0F 06 B1 BE 06 75 E0 00 00 00 00 00 00 FF EA 00 5A FC 2E
0,576,0:18.290.843,115.900 us,3 B,,SP,55,Read Transaction,00 00 18*
0,577,0:18.295.234,79.100 us,2 B,,SP,55,Write Transaction,00 00
0,578,0:18.300.585,86.700 us,2 B,,SP,55,Read Transaction,00 08*
0,579,0:18.300.949,79.100 us,2 B,,SP,55,Write Transaction,12 01
0,580,0:18.306.297,659.600 us,25 B,,SP,55,Read Transaction,00 00 00 00 00 02 58 00 00 00 00 00 00 00 00 00 00 00 00 00 00 00 01 03 00*
0,581,0:18.314.887,676.900 us,26 B,,SP,55,Write Transaction,14 00 02 F4 00 03 C1 D5 06 AA 97 06 72 CD 00 00 00 00 00 00 FF EF 00 5E FC 30
0,582,0:18.330.831,115.900 us,3 B,,SP,55,Read Transaction,00 00 18*
0,583,0:18.335.225,79.100 us,2 B,,SP,55,Write Transaction,00 00
0,584,0:18.340.576,86.700 us,2 B,,SP,55,Read Transaction,00 08*
0,585,0:18.340.938,79.100 us,2 B,,SP,55,Write Transaction,12 01
0,586,0:18.346.287,659.500 us,25 B,,SP,55,Read Transaction,00 00 00 00 00 02 58 00 00 00 00 00 00 00 00 00 00 00 00 00 00 00 01 03 00*
0,587,0:18.354.754,676.800 us,26 B,,SP,55,Write Transaction,14 00 02 ED CD 03 BB 75 06 A6 12 06 70 18 00 00 00 00 00 00 FF F1 00 5A FC 2D
0,588,0:18.370.693,116.300 us,3 B,,SP,55,Read Transaction,00 00 18*
0,589,0:18.375.115,79.100 us,2 B,,SP,55,Write Transaction,00 00
0,590,0:18.380.465,86.700 us,2 B,,SP,55,Read Transaction,00 08*
0,591,0:18.380.826,79.100 us,2 B,,SP,55,Write Transaction,12 01
0,592,0:18.386.177,659.700 us,25 B,,SP,55,Read Transaction,00 00 00 00 00 02 58 00 00 00 00 00 00 00 00 00 00 00 00 00 00 00 01 03 00*
0,593,0:18.394.786,676.900 us,26 B,,SP,55,Write Transaction,14 00 02 EA 7A 03 B7 61 06 A1 AC 06 6D 05 00 00 00 00 00 00 FF EE 00 5C FC 2C
0,594,0:18.410.726,115.900 us,3 B,,SP,55,Read Transaction,00 00 18*
0,595,0:18.415.119,79.000 us,2 B,,SP,55,Write Transaction,00 00
0,596,0:18.420.470,86.700 us,2 B,,SP,55,Read Transaction,00 08*
0,597,0:18.420.832,79.100 us,2 B,,SP,55,Write Transaction,12 01
0,598,0:18.426.180,659.600 us,25 B,,SP,55,Read Transaction,00 00 00 00 00 02 58 00 00 00 00 00 00 00 00 00 00 00 00 00 00 00 01 03 00*
0,599,0:18.434.631,676.800 us,26 B,,SP,55,Write Transaction,14 00 02 E8 20 03 B4 83 06 A0 8A 06 6C F6 00 00 00 00 00 00 FF EC 00 5D FC 32
0,600,0:18.450.576,115.900 us,3 B,,SP,55,Read Transaction,00 00 18*
0,601,0:18.454.969,79.100 us,2 B,,SP,55,Write Transaction,00 00
0,602,0:18.460.318,86.700 us,2 B,,SP,55,Read Transaction,00 08*
0,603,0:18.460.680,79.000 us,2 B,,SP,55,Write Transaction,12 01
0,604,0:18.466.029,659.600 us,25 B,,SP,55,Read Transaction,00 00 00 00 00 02 58 00 00 00 00 00 00 00 00 00 00 00 00 00 00 00 01 03 00*
0,605,0:18.474.632,676.800 us,26 B,,SP,55,Write Transaction,14 00 02 E9 71 03 B5 2F 06 A2 DD 06 6E 1B 00 00 00 00 00 00 FF F0 00 57 FC 2D
0,606,0:18.490.574,115.800 us,3 B,,SP,55,Read Transaction,00 00 18*
0,607,0:18.494.967,79.000 us,2 B,,SP,55,Write Transaction,00 00
0,608,0:18.500.319,86.700 us,2 B,,SP,55,Read Transaction,00 08*
0,609,0:18.500.682,79.100 us,2 B,,SP,55,Write Transaction,12 01
0,610,0:18.506.029,659.600 us,25 B,,SP,55,Read Transaction,00 00 00 00 00 02 58 00 00 00 00 00 00 00 00 00 00 00 00 00 00 00 01 03 00*
0,611,0:18.514.512,676.900 us,26 B,,SP,55,Write Transaction,14 00 02 EC 5A 03 B7 75 06 A6 AC 06 70 AB 00 00 00 00 00 00 FF EE 00 57 FC 32
0,612,0:18.530.451,116.100 us,3 B,,SP,55,Read Transaction,00 00 18*
0,613,0:18.534.845,79.000 us,2 B,,SP,55,Write Transaction,00 00
0,614,0:18.540.195,86.700 us,2 B,,SP,55,Read Transaction,00 08*
0,615,0:18.540.556,79.100 us,2 B,,SP,55,Write Transaction,12 01
0,616,0:18.545.906,659.700 us,25 B,,SP,55,Read Transaction,00 00 00 00 00 02 4E 00 00 00 00 00 00 00 00 00 00 00 00 00 00 00 01 03 00*
0,617,0:18.554.481,676.900 us,26 B,,SP,55,Write Transaction,14 00 02 ED 80 03 B8 8C 06 A8 62 06 71 DA 00 00 00 00 00 00 FF EC 00 5B FC 2E
0,618,0:18.570.423,115.900 us,3 B,,SP,55,Read Transaction,00 00 18*
0,619,0:18.574.816,79.200 us,2 B,,SP,55,Write Transaction,00 00
0,620,0:18.580.175,86.900 us,2 B,,SP,55,Read Transaction,00 08*
0,621,0:18.580.538,79.100 us,2 B,,SP,55,Write Transaction,12 01
0,622,0:18.585.893,659.700 us,25 B,,SP,55,Read Transaction,00 00 00 00 00 02 4E 00 00 00 00 00 00 00 00 00 00 00 00 00 00 00 01 03 00*
0,623,0:18.594.435,677.000 us,26 B,,SP,55,Write Transaction,14 00 02 EE E0 03 B9 DC 06 A8 EB 06 71 E8 00 00 00 00 00 00 FF ED 00 5A FC 27
0,624,0:18.610.381,116.000 us,3 B,,SP,55,Read Transaction,00 00 18*
0,625,0:18.614.776,79.100 us,2 B,,SP,55,Write Transaction,00 00
0,626,0:18.620.146,86.700 us,2 B,,SP,55,Read Transaction,00 08*
0,627,0:18.620.510,79.000 us,2 B,,SP,55,Write Transaction,12 01
0,628,0:18.625.858,659.500 us,25 B,,SP,55,Read Transaction,00 00 00 00 00 02 4E 00 00 00 00 00 00 00 00 00 00 00 00 00 00 00 01 03 00*
0,629,0:18.634.889,676.900 us,26 B,,SP,55,Write Transaction,14 00 02 F1 3A 03 BC 1E 06 AA 22 06 72 56 00 00 00 00 00 00 FF ED 00 61 FC 2F
0,630,0:18.650.829,115.900 us,3 B,,SP,55,Read Transaction,00 00 18*
0,631,0:18.655.238,79.100 us,2 B,,SP,55,Write Transaction,00 00
0,632,0:18.660.588,86.700 us,2 B,,SP,55,Read Transaction,00 08*
0,633,0:18.660.951,79.100 us,2 B,,SP,55,Write Transaction,12 01
0,634,0:18.666.304,659.500 us,25 B,,SP,55,Read Transaction,00 00 00 00 00 02 4E 00 00 00 00 00 00 00 00 00 00 00 00 00 00 00 01 03 00*
0,635,0:18.674.272,676.900 us,26 B,,SP,55,Write Transaction,14 00 02 F5 20 03 C0 05 06 B0 13 06 77 27 00 00 00 00 00 00 FF F3 00 5B FC 2D
0,636,0:18.690.217,115.900 us,3 B,,SP,55,Read Transaction,00 00 18*
0,637,0:18.694.610,79.100 us,2 B,,SP,55,Write Transaction,00 00
0,638,0:18.699.959,86.700 us,2 B,,SP,55,Read Transaction,00 08*
0,639,0:18.700.321,79.000 us,2 B,,SP,55,Write Transaction,12 01
0,640,0:18.705.669,659.500 us,25 B,,SP,55,Read Transaction,00 00 00 00 00 02 4E 00 00 00 00 00 00 00 00 00 00 00 00 00 00 00 01 03 00*
0,641,0:18.714.227,677.800 us,26 B,,SP,55,Write Transaction,14 00 02 F8 E5 03 C4 59 06 B5 8B 06 7B 1D 00 00 00 00 00 00 FF EB 00 5B FC 30
0,642,0:18.730.166,115.900 us,3 B,,SP,55,Read Transaction,00 00 18*
0,643,0:18.734.559,79.100 us,2 B,,SP,55,Write Transaction,00 00
0,644,0:18.739.907,86.700 us,2 B,,SP,55,Read Transaction,00 08*
0,645,0:18.740.269,79.100 us,2 B,,SP,55,Write Transaction,12 01
0,646,0:18.745.617,659.500 us,25 B,,SP,55,Read Transaction,00 00 00 00 00 02 4E 00 21 87 19 00 00 00 00 00 00 00 00 00 00 00 01 03 00*
0,647,0:18.754.199,676.700 us,26 B,,SP,55,Write Transaction,14 00 02 FD 03 03 C9 00 06 BA 6D 06 7E 6D 00 00 00 00 00 00 FF EA 00 5B FC 28
0,648,0:18.770.137,115.900 us,3 B,,SP,55,Read Transaction,00 00 18*
0,649,0:18.774.528,79.000 us,2 B,,SP,55,Write Transaction,00 00
0,650,0:18.779.882,86.700 us,2 B,,SP,55,Read Transaction,00 08*
0,651,0:18.780.249,79.000 us,2 B,,SP,55,Write Transaction,12 01
0,652,0:18.785.596,659.600 us,25 B,,SP,55,Read Transaction,00 00 00 00 00 02 4E 00 00 00 00 00 00 00 00 00 00 00 00 00 00 00 01 03 00*
0,653,0:18.794.111,676.400 us,26 B,,SP,55,Write Transaction,14 00 03 00 70 03 CC DE 06 BC A1 06 7F B0 00 00 00 00 00 00 FF ED 00 5A FC 2A
0,654,0:18.810.047,115.900 us,3 B,,SP,55,Read Transaction,00 00 18*
0,655,0:18.814.441,79.000 us,2 B,,SP,55,Write Transaction,00 00
0,656,0:18.819.790,86.700 us,2 B,,SP,55,Read Transaction,00 08*
0,657,0:18.820.151,79.100 us,2 B,,SP,55,Write Transaction,12 01
0,658,0:18.825.501,659.700 us,25 B,,SP,55,Read Transaction,00 00 00 00 00 02 4E 00 00 00 00 00 00 00 00 00 00 00 00 00 00 00 01 03 00*
0,659,0:18.834.056,677.800 us,26 B,,SP,55,Write Transaction,14 00 03 03 47 03 D0 2A 06 BF AD 06 82 3E 00 00 00 00 00 00 FF EC 00 57 FC 2A
0,660,0:18.850.002,115.900 us,3 B,,SP,55,Read Transaction,00 00 18*
0,661,0:18.854.394,79.000 us,2 B,,SP,55,Write Transaction,00 00
0,662,0:18.859.745,86.700 us,2 B,,SP,55,Read Transaction,00 08*
0,663,0:18.860.107,79.100 us,2 B,,SP,55,Write Transaction,12 01
0,664,0:18.865.457,659.100 us,25 B,,SP,55,Read Transaction,00 00 00 00 00 02 4E 00 00 00 00 00 00 00 00 00 00 00 00 00 00 00 01 03 00*
0,665,0:18.874.021,676.800 us,26 B,,SP,55,Write Transaction,14 00 03 06 17 03 D3 A5 06 C3 61 06 84 ED 00 00 00 00 00 00 FF EA 00 59 FC 30
0,666,0:18.889.961,115.900 us,3 B,,SP,55,Read Transaction,00 00 18*
0,667,0:18.894.354,79.100 us,2 B,,SP,55,Write Transaction,00 00
0,668,0:18.899.704,86.700 us,2 B,,SP,55,Read Transaction,00 08*
0,669,0:18.900.065,79.100 us,2 B,,SP,55,Write Transaction,12 01
0,670,0:18.905.417,659.600 us,25 B,,SP,55,Read Transaction,00 00 00 00 00 02 4E 00 00 00 00 00 00 00 00 00 00 00 00 00 00 00 01 03 00*
0,671,0:18.913.899,676.900 us,26 B,,SP,55,Write Transaction,14 00 03 08 F3 03 D7 62 06 C6 CA 06 87 C8 00 00 00 00 00 00 FF ED 00 5B FC 30
0,672,0:18.929.839,116.300 us,3 B,,SP,55,Read Transaction,00 00 18*
0,673,0:18.934.230,79.100 us,2 B,,SP,55,Write Transaction,00 00
0,674,0:18.939.581,86.600 us,2 B,,SP,55,Read Transaction,00 08*
0,675,0:18.939.943,79.100 us,2 B,,SP,55,Write Transaction,12 01
0,676,0:18.945.294,659.600 us,25 B,,SP,55,Read Transaction,00 00 00 00 00 02 4E 00 00 00 00 00 00 00 00 00 00 00 00 00 00 00 01 03 00*
0,677,0:18.953.893,676.900 us,26 B,,SP,55,Write Transaction,14 00 03 0B 5F 03 DA A1 06 C8 3C 06 88 49 00 00 00 00 00 00 FF EC 00 60 FC 2E
0,678,0:18.969.834,118.400 us,3 B,,SP,55,Read Transaction,00 00 18*
0,679,0:18.974.230,79.100 us,2 B,,SP,55,Write Transaction,00 00
0,680,0:18.979.582,86.800 us,2 B,,SP,55,Read Transaction,00 08*
0,681,0:18.979.944,79.000 us,2 B,,SP,55,Write Transaction,12 01
0,682,0:18.985.293,660.500 us,25 B,,SP,55,Read Transaction,00 00 00 00 00 02 4E 00 00 00 00 00 00 00 00 00 00 00 00 00 00 00 01 03 00*
0,683,0:18.993.757,676.900 us,26 B,,SP,55,Write Transaction,14 00 03 0E 68 03 DE 36 06 CA F5 06 8A 6B 00 00 00 00 00 00 FF EE 00 5E FC 32
0,684,0:19.009.696,115.900 us,3 B,,SP,55,Read Transaction,00 00 18*
0,685,0:19.014.089,79.100 us,2 B,,SP,55,Write Transaction,00 00
0,686,0:19.019.439,86.700 us,2 B,,SP,55,Read Transaction,00 08*
0,687,0:19.019.800,79.000 us,2 B,,SP,55,Write Transaction,12 01
0,688,0:19.025.151,659.400 us,25 B,,SP,55,Read Transaction,00 00 00 00 00 02 4E 00 00 00 00 00 00 00 00 00 00 00 00 00 00 00 01 03 00*
0,689,0:19.033.738,676.800 us,26 B,,SP,55,Write Transaction,14 00 03 11 7D 03 E2 20 06 CF E4 06 8E 39 00 00 00 00 00 00 FF EE 00 5B FC 24
0,690,0:19.049.684,115.900 us,3 B,,SP,55,Read Transaction,00 00 18*
0,691,0:19.054.077,79.100 us,2 B,,SP,55,Write Transaction,00 00
0,692,0:19.059.428,86.700 us,2 B,,SP,55,Read Transaction,00 08*
0,693,0:19.059.790,79.000 us,2 B,,SP,55,Write Transaction,12 01
0,694,0:19.065.138,659.600 us,25 B,,SP,55,Read Transaction,00 00 00 00 00 02 4E 00 00 00 00 00 00 00 00 00 00 00 00 00 00 00 01 03 00*
0,695,0:19.073.647,676.900 us,26 B,,SP,55,Write Transaction,14 00 03 14 20 03 E5 71 06 D0 72 06 8E 0B 00 00 00 00 00 00 FF E9 00 5A FC 2E
0,696,0:19.089.587,115.900 us,3 B,,SP,55,Read Transaction,00 00 18*
0,697,0:19.093.983,79.200 us,2 B,,SP,55,Write Transaction,00 00
0,698,0:19.099.334,86.700 us,2 B,,SP,55,Read Transaction,00 08*
0,699,0:19.099.696,79.000 us,2 B,,SP,55,Write Transaction,12 01
0,700,0:19.105.052,659.700 us,25 B,,SP,55,Read Transaction,00 00 00 00 00 02 4E 00 00 00 00 00 00 00 00 00 00 00 00 00 00 00 01 03 00*
0,701,0:19.113.694,677.000 us,26 B,,SP,55,Write Transaction,14 00 03 17 67 03 E9 3E 06 D4 67 06 90 84 00 00 00 00 00 00 FF EB 00 59 FC 31
0,702,0:19.129.636,115.900 us,3 B,,SP,55,Read Transaction,00 00 18*
0,703,0:19.134.027,79.100 us,2 B,,SP,55,Write Transaction,00 00
0,704,0:19.139.378,86.700 us,2 B,,SP,55,Read Transaction,00 08*
0,705,0:19.139.741,79.000 us,2 B,,SP,55,Write Transaction,12 01
0,706,0:19.145.089,659.700 us,25 B,,SP,55,Read Transaction,00 00 00 00 00 02 4E 00 00 00 00 00 00 00 00 00 00 00 00 00 00 00 01 03 00*
0,707,0:19.153.500,676.900 us,26 B,,SP,55,Write Transaction,14 00 03 19 94 03 EB AF 06 D1 B4 06 8D 88 00 00 00 00 00 00 FF EB 00 5E FC 2F
0,708,0:19.169.443,116.100 us,3 B,,SP,55,Read Transaction,00 00 18*
0,709,0:19.173.843,79.200 us,2 B,,SP,55,Write Transaction,00 00
0,710,0:19.179.194,86.700 us,2 B,,SP,55,Read Transaction,00 08*
0,711,0:19.179.555,79.000 us,2 B,,SP,55,Write Transaction,12 01
0,712,0:19.184.905,660.200 us,25 B,,SP,55,Read Transaction,00 00 00 00 00 02 4E 00 00 00 00 00 00 00 00 00 00 00 00 00 00 00 01 03 00*
0,713,0:19.193.452,677.000 us,26 B,,SP,55,Write Transaction,14 00 03 11 98 03 E3 4D 06 C7 1C 06 87 AF 00 00 00 00 00 00 FF EC 00 5E FC 31
0,714,0:19.209.401,115.900 us,3 B,,SP,55,Read Transaction,00 00 18*
0,715,0:19.213.791,79.100 us,2 B,,SP,55,Write Transaction,00 00
0,716,0:19.219.140,86.700 us,2 B,,SP,55,Read Transaction,00 08*
0,717,0:19.219.503,79.000 us,2 B,,SP,55,Write Transaction,12 01
0,718,0:19.224.852,659.600 us,25 B,,SP,55,Read Transaction,00 00 00 00 00 02 4E 00 00 00 00 00 00 00 00 00 00 00 00 00 00 00 01 03 00*
0,719,0:19.233.453,677.900 us,26 B,,SP,55,Write Transaction,14 00 03 02 9A 03 D4 25 06 BD 34 06 83 4E 00 00 00 00 00 00 FF EF 00 59 FC 30
0,720,0:19.249.394,115.700 us,3 B,,SP,55,Read Transaction,00 00 18*
0,721,0:19.253.788,79.100 us,2 B,,SP,55,Write Transaction,00 00
0,722,0:19.259.137,86.700 us,2 B,,SP,55,Read Transaction,00 08*
0,723,0:19.259.501,79.000 us,2 B,,SP,55,Write Transaction,12 01
0,724,0:19.264.849,659.600 us,25 B,,SP,55,Read Transaction,00 00 00 00 00 02 4E 00 00 00 00 00 00 00 00 00 00 00 00 00 00 00 01 03 00*
0,725,0:19.273.337,676.900 us,26 B,,SP,55,Write Transaction,14 00 02 F8 62 03 CA 28 06 B8 EA 06 82 14 00 00 00 00 00 00 FF EC 00 5C FC 26
0,726,0:19.289.279,116.000 us,3 B,,SP,55,Read Transaction,00 00 18*
0,727,0:19.293.670,79.100 us,2 B,,SP,55,Write Transaction,00 00
0,728,0:19.299.022,86.700 us,2 B,,SP,55,Read Transaction,00 08*
0,729,0:19.299.384,79.100 us,2 B,,SP,55,Write Transaction,12 01
0,730,0:19.304.735,659.600 us,25 B,,SP,55,Read Transaction,00 00 00 00 00 02 4E 00 00 00 00 00 00 00 00 00 00 00 00 00 00 00 01 03 00*
0,731,0:19.313.312,676.700 us,26 B,,SP,55,Write Transaction,14 00 02 F4 4A 03 C5 92 06 B4 C6 06 7E F1 00 00 00 00 00 00 FF F2 00 5A FC 2D
0,732,0:19.329.253,116.400 us,3 B,,SP,55,Read Transaction,00 00 18*
0,733,0:19.333.644,79.100 us,2 B,,SP,55,Write Transaction,00 00
0,734,0:19.338.994,86.600 us,2 B,,SP,55,Read Transaction,00 08*
0,735,0:19.339.357,79.100 us,2 B,,SP,55,Write Transaction,12 01
0,736,0:19.344.705,659.500 us,25 B,,SP,55,Read Transaction,00 00 00 00 00 02 4E 00 00 00 00 00 00 00 00 00 00 00 00 00 00 00 01 03 00*
0,737,0:19.353.194,677.700 us,26 B,,SP,55,Write Transaction,14 00 02 F1 01 03 C1 78 06 B0 D6 06 7C D5 00 00 00 00 00 00 FF ED 00 5B FC 33
0,738,0:19.369.136,116.300 us,3 B,,SP,55,Read Transaction,00 00 18*
0,739,0:19.373.532,79.100 us,2 B,,SP,55,Write Transaction,00 00
0,740,0:19.378.880,86.700 us,2 B,,SP,55,Read Transaction,00 08*
0,741,0:19.379.241,79.100 us,2 B,,SP,55,Write Transaction,12 01
0,742,0:19.384.595,659.500 us,25 B,,SP,55,Read Transaction,00 00 00 00 00 02 4E 00 00 00 00 00 00 00 00 00 00 00 00 00 00 00 01 03 00*
0,743,0:19.393.201,677.900 us,26 B,,SP,55,Write Transaction,14 00 02 EF 58 03 BF A0 06 B1 93 06 7D 72 00 00 00 00 00 00 FF F0 00 62 FC 2B
0,744,0:19.409.143,115.800 us,3 B,,SP,55,Read Transaction,00 00 18*
0,745,0:19.413.532,79.100 us,2 B,,SP,55,Write Transaction,00 00
0,746,0:19.418.887,86.800 us,2 B,,SP,55,Read Transaction,00 08*
0,747,0:19.419.250,79.200 us,2 B,,SP,55,Write Transaction,12 01
0,748,0:19.424.600,659.600 us,25 B,,SP,55,Read Transaction,00 00 00 00 00 02 4E 00 00 00 00 00 00 00 00 00 00 00 00 00 00 00 01 03 00*
0,749,0:19.433.082,677.900 us,26 B,,SP,55,Write Transaction,14 00 02 F2 91 03 C2 00 06 B4 45 06 7E A9 00 00 00 00 00 00 FF EE 00 5F FC 2D
0,750,0:19.449.035,115.900 us,3 B,,SP,55,Read Transaction,00 00 18*
0,751,0:19.453.429,79.100 us,2 B,,SP,55,Write Transaction,00 00
0,752,0:19.458.778,86.600 us,2 B,,SP,55,Read Transaction,00 08*
0,753,0:19.459.139,79.100 us,2 B,,SP,55,Write Transaction,12 01
0,754,0:19.464.490,659.500 us,25 B,,SP,55,Read Transaction,00 00 00 00 00 02 4E 00 00 00 00 00 00 00 00 00 00 00 00 00 00 00 01 03 00*
0,755,0:19.473.160,676.600 us,26 B,,SP,55,Write Transaction,14 00 02 F5 44 03 C4 11 06 B8 BE 06 82 4C 00 00 00 00 00 00 FF E9 00 5D FC 31
0,756,0:19.489.097,115.900 us,3 B,,SP,55,Read Transaction,00 00 18*
0,757,0:19.493.489,79.100 us,2 B,,SP,55,Write Transaction,00 00
0,758,0:19.498.839,86.700 us,2 B,,SP,55,Read Transaction,00 08*
0,759,0:19.499.202,79.000 us,2 B,,SP,55,Write Transaction,12 01
0,760,0:19.504.555,660.500 us,25 B,,SP,55,Read Transaction,00 00 00 00 00 02 4E 00 00 00 00 00 00 00 00 00 00 00 00 00 00 00 01 03 00*
0,761,0:19.512.998,676.900 us,26 B,,SP,55,Write Transaction,14 00 02 F6 79 03 C5 34 06 B9 F4 06 82 EE 00 00 00 00 00 00 FF EB 00 57 FC 2C
0,762,0:19.528.936,115.900 us,3 B,,SP,55,Read Transaction,00 00 18*
0,763,0:19.533.330,79.100 us,2 B,,SP,55,Write Transaction,00 00
0,764,0:19.538.678,97.100 us,2 B,,SP,55,Read Transaction,00 08*
0,765,0:19.539.051,79.000 us,2 B,,SP,55,Write Transaction,12 01
0,766,0:19.544.400,659.500 us,25 B,,SP,55,Read Transaction,00 00 00 00 00 02 4E 00 00 00 00 00 00 00 00 00 00 00 00 00 00 00 01 03 00*
0,767,0:19.552.952,676.800 us,26 B,,SP,55,Write Transaction,14 00 02 F7 70 03 C6 5C 06 B9 C4 06 82 EF 00 00 00 00 00 00 FF EE 00 5D FC 2E
0,768,0:19.568.887,115.900 us,3 B,,SP,55,Read Transaction,00 00 18*
0,769,0:19.573.279,79.000 us,2 B,,SP,55,Write Transaction,00 00
0,770,0:19.578.632,86.800 us,2 B,,SP,55,Read Transaction,00 08*
0,771,0:19.578.995,79.200 us,2 B,,SP,55,Write Transaction,12 01
0,772,0:19.584.352,659.900 us,25 B,,SP,55,Read Transaction,00 00 00 00 00 02 4E 00 00 00 00 00 00 00 00 00 00 00 00 00 00 00 01 03 00*
0,773,0:19.592.913,676.800 us,26 B,,SP,55,Write Transaction,14 00 02 F9 90 03 C8 C9 06 BC F7 06 85 68 00 00 00 00 00 00 FF ED 00 56 FC 26
0,774,0:19.608.864,116.300 us,3 B,,SP,55,Read Transaction,00 00 18*
0,775,0:19.613.259,79.000 us,2 B,,SP,55,Write Transaction,00 00
0,776,0:19.618.610,86.700 us,2 B,,SP,55,Read Transaction,00 08*
0,777,0:19.618.973,79.100 us,2 B,,SP,55,Write Transaction,12 01
0,778,0:19.624.321,659.500 us,25 B,,SP,55,Read Transaction,00 00 00 00 00 02 8A 64 23 8F 32 00 00 00 00 00 00 00 00 00 00 00 01 03 00*
0,779,0:19.632.824,676.800 us,26 B,,SP,55,Write Transaction,14 00 02 FD 5F 03 CC CB 06 C1 10 06 88 25 00 00 00 00 00 00 FF EA 00 58 FC 2F
0,780,0:19.648.760,115.900 us,3 B,,SP,55,Read Transaction,00 00 18*
0,781,0:19.653.154,79.000 us,2 B,,SP,55,Write Transaction,00 00
0,782,0:19.658.501,86.700 us,2 B,,SP,55,Read Transaction,00 08*
0,783,0:19.658.863,79.100 us,2 B,,SP,55,Write Transaction,12 01
0,784,0:19.664.213,659.500 us,25 B,,SP,55,Read Transaction,00 00 00 00 00 02 8A 64 00 00 00 00 00 00 00 00 00 00 00 00 00 00 01 03 00*
0,785,0:19.672.750,676.800 us,26 B,,SP,55,Write Transaction,14 00 03 01 04 03 D0 D5 06 C6 10 06 8C 05 00 00 00 00 00 00 FF EB 00 56 FC 2D
0,786,0:19.688.694,116.000 us,3 B,,SP,55,Read Transaction,00 00 18*
0,787,0:19.693.088,79.000 us,2 B,,SP,55,Write Transaction,00 00
0,788,0:19.698.439,86.700 us,2 B,,SP,55,Read Transaction,00 08*
0,789,0:19.698.802,79.100 us,2 B,,SP,55,Write Transaction,12 01
0,790,0:19.704.149,659.600 us,25 B,,SP,55,Read Transaction,00 00 00 00 00 02 8A 64 00 00 00 00 00 00 00 00 00 00 00 00 00 00 01 03 00*
0,791,0:19.712.683,676.800 us,26 B,,SP,55,Write Transaction,14 00 03 04 E1 03 D5 1E 06 CA D2 06 8F 0A 00 00 00 00 00 00 FF EF 00 5E FC 2C
0,792,0:19.728.635,115.900 us,3 B,,SP,55,Read Transaction,00 00 18*
0,793,0:19.733.028,79.000 us,2 B,,SP,55,Write Transaction,00 00
0,794,0:19.738.378,86.700 us,2 B,,SP,55,Read Transaction,00 08*
0,795,0:19.738.739,79.100 us,2 B,,SP,55,Write Transaction,12 01
0,796,0:19.744.090,659.600 us,25 B,,SP,55,Read Transaction,00 00 00 00 00 02 8A 64 00 00 00 00 00 00 00 00 00 00 00 00 00 00 01 03 00*
0,797,0:19.752.620,676.900 us,26 B,,SP,55,Write Transaction,14 00 03 08 40 03 D9 28 06 CF 37 06 92 8C 00 00 00 00 00 00 FF EA 00 5A FC 2D
0,798,0:19.768.559,115.700 us,3 B,,SP,55,Read Transaction,00 00 18*
0,799,0:19.772.950,79.100 us,2 B,,SP,55,Write Transaction,00 00
0,800,0:19.778.300,86.700 us,2 B,,SP,55,Read Transaction,00 08*
0,801,0:19.778.662,79.000 us,2 B,,SP,55,Write Transaction,12 01
0,802,0:19.784.050,659.600 us,25 B,,SP,55,Read Transaction,00 00 00 00 00 02 8A 64 00 00 00 00 00 00 00 00 00 00 00 00 00 00 01 03 00*
0,803,0:19.792.579,676.400 us,26 B,,SP,55,Write Transaction,14 00 03 0B 6B 03 DD 09 06 D1 2C 06 93 51 00 00 00 00 00 00 FF EE 00 59 FC 30
0,804,0:19.808.516,115.900 us,3 B,,SP,55,Read Transaction,00 00 18*
0,805,0:19.812.909,79.100 us,2 B,,SP,55,Write Transaction,00 00
0,806,0:19.818.260,86.700 us,2 B,,SP,55,Read Transaction,00 08*
0,807,0:19.818.621,79.000 us,2 B,,SP,55,Write Transaction,12 01
0,808,0:19.823.972,659.600 us,25 B,,SP,55,Read Transaction,00 00 00 00 00 02 8A 64 00 00 00 00 00 00 00 00 00 00 00 00 00 00 01 03 00*
0,809,0:19.832.504,676.900 us,26 B,,SP,55,Write Transaction,14 00 03 0E C5 03 E0 C9 06 D2 9E 06 93 F8 00 00 00 00 00 00 FF EC 00 5E FC 31
0,810,0:19.848.443,115.900 us,3 B,,SP,55,Read Transaction,00 00 18*
0,811,0:19.852.839,79.200 us,2 B,,SP,55,Write Transaction,00 00
0,812,0:19.858.195,86.800 us,2 B,,SP,55,Read Transaction,00 08*
0,813,0:19.858.558,79.200 us,2 B,,SP,55,Write Transaction,12 01
0,814,0:19.863.914,659.600 us,25 B,,SP,55,Read Transaction,00 00 00 00 00 02 8A 64 00 00 00 00 00 00 00 00 00 00 00 00 00 00 01 03 00*
0,815,0:19.872.462,677.000 us,26 B,,SP,55,Write Transaction,14 00 03 12 32 03 E4 F6 06 D6 94 06 96 F7 00 00 00 00 00 00 FF EA 00 57 FC 31
0,816,0:19.888.404,115.700 us,3 B,,SP,55,Read Transaction,00 00 18*
0,817,0:19.892.800,79.000 us,2 B,,SP,55,Write Transaction,00 00
0,818,0:19.898.151,86.700 us,2 B,,SP,55,Read Transaction,00 08*
0,819,0:19.898.514,79.000 us,2 B,,SP,55,Write Transaction,12 01
0,820,0:19.903.862,659.600 us,25 B,,SP,55,Read Transaction,00 00 00 00 00 02 8A 64 00 00 00 00 00 00 00 00 00 00 00 00 00 00 01 03 00*
0,821,0:19.912.368,676.900 us,26 B,,SP,55,Write Transaction,14 00 03 15 10 03 E8 CD 06 D8 79 06 98 12 00 00 00 00 00 00 FF EB 00 59 FC 2A
0,822,0:19.928.307,115.900 us,3 B,,SP,55,Read Transaction,00 00 18*
0,823,0:19.932.698,79.000 us,2 B,,SP,55,Write Transaction,00 00
0,824,0:19.938.050,86.700 us,2 B,,SP,55,Read Transaction,00 08*
0,825,0:19.938.413,79.100 us,2 B,,SP,55,Write Transaction,12 01
0,826,0:19.943.765,660.500 us,25 B,,SP,55,Read Transaction,00 00 00 00 00 02 8A 64 00 00 00 00 00 00 00 00 00 00 00 00 00 00 01 03 00*
0,827,0:19.952.362,676.600 us,26 B,,SP,55,Write Transaction,14 00 03 18 00 03 EC 48 06 DA 57 06 99 25 00 00 00 00 00 00 FF ED 00 5C FC 2F
0,828,0:19.968.302,115.900 us,3 B,,SP,55,Read Transaction,00 00 18*
0,829,0:19.972.694,79.000 us,2 B,,SP,55,Write Transaction,00 00
0,830,0:19.978.044,86.700 us,2 B,,SP,55,Read Transaction,00 08*
0,831,0:19.978.407,79.000 us,2 B,,SP,55,Write Transaction,12 01
0,832,0:19.983.755,659.600 us,25 B,,SP,55,Read Transaction,00 00 00 00 00 02 8A 64 00 00 00 00 00 00 00 00 00 00 00 00 00 00 01 03 00*
0,833,0:19.992.223,677.700 us,26 B,,SP,55,Write Transaction,14 00 03 1B 3C 03 EF F5 06 DC 20 06 99 F4 00 00 00 00 00 00 FF EA 00 59 FC 2C
0,834,0:20.008.164,115.900 us,3 B,,SP,55,Read Transaction,00 00 18*
0,835,0:20.012.560,79.200 us,2 B,,SP,55,Write Transaction,00 00
0,836,0:20.017.914,86.700 us,2 B,,SP,55,Read Transaction,00 08*
0,837,0:20.018.276,79.000 us,2 B,,SP,55,Write Transaction,12 01
0,838,0:20.023.626,660.300 us,25 B,,SP,55,Read Transaction,00 00 00 00 00 02 8A 64 00 00 00 00 00 00 00 00 00 00 00 00 00 00 01 03 00*
0,839,0:20.032.224,676.900 us,26 B,,SP,55,Write Transaction,14 00 03 1D A0 03 F2 C1 06 DC B5 06 9A 79 00 00 00 00 00 00 FF F0 00 5B FC 2D
0,840,0:20.048.165,116.000 us,3 B,,SP,55,Read Transaction,00 00 18*
0,841,0:20.052.560,79.200 us,2 B,,SP,55,Write Transaction,00 00
0,842,0:20.057.913,86.700 us,2 B,,SP,55,Read Transaction,00 08*
0,843,0:20.058.276,79.100 us,2 B,,SP,55,Write Transaction,12 01
0,844,0:20.063.625,659.700 us,25 B,,SP,55,Read Transaction,00 00 00 00 00 02 8A 64 00 00 00 00 00 00 00 00 00 00 00 00 00 00 01 03 00*
0,845,0:20.072.105,676.900 us,26 B,,SP,55,Write Transaction,14 00 03 21 48 03 F6 BD 06 DF 6E 06 9B 63 00 00 00 00 00 00 FF EF 00 5E FC 32
0,846,0:20.088.045,115.800 us,3 B,,SP,55,Read Transaction,00 00 18*
0,847,0:20.092.438,79.100 us,2 B,,SP,55,Write Transaction,00 00
0,848,0:20.097.788,86.700 us,2 B,,SP,55,Read Transaction,00 08*
0,849,0:20.098.149,79.100 us,2 B,,SP,55,Write Transaction,12 01
0,850,0:20.103.499,659.600 us,25 B,,SP,55,Read Transaction,00 00 00 00 00 02 8A 64 00 00 00 00 00 00 00 00 00 00 00 00 00 00 01 03 00*
0,851,0:20.112.113,676.800 us,26 B,,SP,55,Write Transaction,14 00 03 20 C6 03 F6 3F 06 DB B0 06 99 0D 00 00 00 00 00 00 FF E8 00 5D FC 33
0,852,0:20.128.065,116.000 us,3 B,,SP,55,Read Transaction,00 00 18*
0,853,0:20.132.462,79.200 us,2 B,,SP,55,Write Transaction,00 00
0,854,0:20.137.814,86.700 us,2 B,,SP,55,Read Transaction,00 08*
0,855,0:20.138.177,79.100 us,2 B,,SP,55,Write Transaction,12 01
0,856,0:20.143.527,659.600 us,25 B,,SP,55,Read Transaction,00 00 00 00 00 02 8A 64 00 00 00 00 00 00 00 00 00 00 00 00 00 00 01 03 00*
0,857,0:20.152.034,676.900 us,26 B,,SP,55,Write Transaction,14 00 03 13 8D 03 E8 9D 06 CE F3 06 92 D7 00 00 00 00 00 00 FF EE 00 5D FC 2E
0,858,0:20.167.981,115.500 us,3 B,,SP,55,Read Transaction,00 00 18*
0,859,0:20.172.374,79.100 us,2 B,,SP,55,Write Transaction,00 00
0,860,0:20.177.727,86.800 us,2 B,,SP,55,Read Transaction,00 08*
0,861,0:20.178.090,79.200 us,2 B,,SP,55,Write Transaction,12 01
0,862,0:20.183.443,659.700 us,25 B,,SP,55,Read Transaction,00 00 00 00 00 02 8A 64 00 00 00 00 00 00 00 00 00 00 00 00 00 00 01 03 00*
0,863,0:20.191.953,676.900 us,26 B,,SP,55,Write Transaction,14 00 03 04 48 03 D9 2B 06 C5 D8 06 8E 4B 00 00 00 00 00 00 FF EE 00 5D FC 2F
0,864,0:20.207.893,115.400 us,3 B,,SP,55,Read Transaction,00 00 18*
0,865,0:20.212.284,79.100 us,2 B,,SP,55,Write Transaction,00 00
0,866,0:20.217.635,86.700 us,2 B,,SP,55,Read Transaction,00 08*
0,867,0:20.217.998,79.200 us,2 B,,SP,55,Write Transaction,12 01
0,868,0:20.223.350,659.500 us,25 B,,SP,55,Read Transaction,00 00 00 00 00 02 8A 64 00 00 00 00 00 00 00 00 00 00 00 00 00 00 01 03 00*
0,869,0:20.231.887,676.900 us,26 B,,SP,55,Write Transaction,14 00 02 FB F5 03 D0 EA 06 C0 6D 06 8B 56 00 00 00 00 00 00 FF F3 00 63 FC 2A
0,870,0:20.247.862,115.600 us,3 B,,SP,55,Read Transaction,00 00 18*
0,871,0:20.252.255,79.000 us,2 B,,SP,55,Write Transaction,00 00
0,872,0:20.257.605,86.700 us,2 B,,SP,55,Read Transaction,00 08*
0,873,0:20.257.967,79.000 us,2 B,,SP,55,Write Transaction,12 01
0,874,0:20.263.316,659.400 us,25 B,,SP,55,Read Transaction,00 00 00 00 00 02 8A 64 00 00 00 00 00 00 00 00 00 00 00 00 00 00 01 03 00*
0,875,0:20.271.821,677.800 us,26 B,,SP,55,Write Transaction,14 00 02 F7 DE 03 CC 14 06 BD 30 06 89 45 00 00 00 00 00 00 FF F0 00 5E FC 2D
0,876,0:20.287.771,115.700 us,3 B,,SP,55,Read Transaction,00 00 18*
0,877,0:20.292.164,79.100 us,2 B,,SP,55,Write Transaction,00 00
0,878,0:20.297.512,86.700 us,2 B,,SP,55,Read Transaction,00 08*
0,879,0:20.297.874,79.100 us,2 B,,SP,55,Write Transaction,12 01
0,880,0:20.303.223,659.800 us,25 B,,SP,55,Read Transaction,00 00 00 00 00 02 8A 64 00 00 00 00 00 00 00 00 00 00 00 00 00 00 01 03 00*
0,881,0:20.311.960,676.800 us,26 B,,SP,55,Write Transaction,14 00 02 F5 A1 03 C8 E7 06 BA B7 06 87 E1 00 00 00 00 00 00 FF F1 00 5E FC 30
0,882,0:20.327.901,115.700 us,3 B,,SP,55,Read Transaction,00 00 18*
0,883,0:20.332.292,79.100 us,2 B,,SP,55,Write Transaction,00 00
0,884,0:20.337.643,86.700 us,2 B,,SP,55,Read Transaction,00 08*
0,885,0:20.338.005,79.000 us,2 B,,SP,55,Write Transaction,12 01
0,886,0:20.343.353,659.500 us,25 B,,SP,55,Read Transaction,00 00 00 00 00 02 8A 64 00 00 00 00 00 00 00 00 00 00 00 00 00 00 01 03 00*
0,887,0:20.351.712,677.800 us,26 B,,SP,55,Write Transaction,14 00 02 F5 DA 03 C8 6D 06 BA 8E 06 87 44 00 00 00 00 00 00 FF F6 00 5C FC 2B
0,888,0:20.367.650,116.100 us,3 B,,SP,55,Read Transaction,00 00 18*
0,889,0:20.372.044,79.000 us,2 B,,SP,55,Write Transaction,00 00
0,890,0:20.377.393,86.700 us,2 B,,SP,55,Read Transaction,00 08*
0,891,0:20.377.754,79.000 us,2 B,,SP,55,Write Transaction,12 01
0,892,0:20.383.105,660.000 us,25 B,,SP,55,Read Transaction,00 00 00 00 00 02 8A 64 00 00 00 00 00 00 00 00 00 00 00 00 00 00 01 03 00*
0,893,0:20.391.652,676.900 us,26 B,,SP,55,Write Transaction,14 00 02 F7 ED 03 C9 F8 06 BD 3D 06 89 55 00 00 00 00 00 00 FF F3 00 5A FC 2C
0,894,0:20.407.596,116.000 us,3 B,,SP,55,Read Transaction,00 00 18*
0,895,0:20.411.988,79.100 us,2 B,,SP,55,Write Transaction,00 00
0,896,0:20.417.339,86.700 us,2 B,,SP,55,Read Transaction,00 08*
0,897,0:20.417.702,79.100 us,2 B,,SP,55,Write Transaction,12 01
0,898,0:20.423.051,659.900 us,25 B,,SP,55,Read Transaction,00 00 00 00 00 02 80 64 00 00 00 00 00 00 00 00 00 00 00 00 00 00 01 03 00*
0,899,0:20.431.597,676.800 us,26 B,,SP,55,Write Transaction,14 00 02 F8 7F 03 CA 4F 06 BE 4C 06 8A 3D 00 00 00 00 00 00 FF F7 00 5F FC 2F
0,900,0:20.447.536,115.600 us,3 B,,SP,55,Read Transaction,00 00 18*
0,901,0:20.451.929,79.100 us,2 B,,SP,55,Write Transaction,00 00
0,902,0:20.457.278,86.700 us,2 B,,SP,55,Read Transaction,00 08*
0,903,0:20.457.648,79.000 us,2 B,,SP,55,Write Transaction,12 01
0,904,0:20.463.000,660.500 us,25 B,,SP,55,Read Transaction,00 00 00 00 00 02 80 64 00 00 00 00 00 00 00 00 00 00 00 00 00 00 01 03 00*
0,905,0:20.471.500,676.800 us,26 B,,SP,55,Write Transaction,14 00 02 F8 B2 03 CA 61 06 BF 43 06 8B 26 00 00 00 00 00 00 FF F6 00 62 FC 2A
0,906,0:20.487.449,115.600 us,3 B,,SP,55,Read Transaction,00 00 18*
0,907,0:20.491.844,79.200 us,2 B,,SP,55,Write Transaction,00 00
0,908,0:20.497.196,86.700 us,2 B,,SP,55,Read Transaction,00 08*
0,909,0:20.497.558,79.000 us,2 B,,SP,55,Write Transaction,12 01
0,910,0:20.502.908,659.600 us,25 B,,SP,55,Read Transaction,00 00 00 00 00 02 80 64 00 00 00 00 00 00 00 00 00 00 00 00 00 00 01 03 00*
0,911,0:20.511.772,676.800 us,26 B,,SP,55,Write Transaction,14 00 02 FA D7 03 CC 79 06 C3 CC 06 8E 88 00 00 00 00 00 00 FF EE 00 5D FC 2E
0,912,0:20.527.726,115.600 us,3 B,,SP,55,Read Transaction,00 00 18*
0,913,0:20.532.121,79.100 us,2 B,,SP,55,Write Transaction,00 00
0,914,0:20.537.470,86.700 us,2 B,,SP,55,Read Transaction,00 08*
0,915,0:20.537.833,79.100 us,2 B,,SP,55,Write Transaction,12 01
0,916,0:20.543.181,659.600 us,25 B,,SP,55,Read Transaction,00 00 00 00 00 02 80 64 00 00 00 00 00 00 00 00 00 00 00 00 00 00 01 03 00*
0,917,0:20.551.386,676.900 us,26 B,,SP,55,Write Transaction,14 00 02 FE 47 03 CF D7 06 C6 49 06 8F 95 00 00 00 00 00 00 FF F4 00 5B FC 30
0,918,0:20.567.325,115.800 us,3 B,,SP,55,Read Transaction,00 00 18*
0,919,0:20.571.717,79.100 us,2 B,,SP,55,Write Transaction,00 00
0,920,0:20.577.070,86.700 us,2 B,,SP,55,Read Transaction,00 08*
0,921,0:20.577.431,79.100 us,2 B,,SP,55,Write Transaction,12 01
0,922,0:20.582.782,659.700 us,25 B,,SP,55,Read Transaction,00 00 00 00 00 02 80 64 00 00 00 00 00 00 00 00 00 00 00 00 00 00 01 03 00*
0,923,0:20.591.343,676.800 us,26 B,,SP,55,Write Transaction,14 00 03 01 DF 03 D3 A9 06 CA 31 06 92 85 00 00 00 00 00 00 FF F5 00 61 FC 30
0,924,0:20.607.286,115.700 us,3 B,,SP,55,Read Transaction,00 00 18*
0,925,0:20.611.677,79.200 us,2 B,,SP,55,Write Transaction,00 00
0,926,0:20.617.029,86.700 us,2 B,,SP,55,Read Transaction,00 08*
0,927,0:20.617.392,79.100 us,2 B,,SP,55,Write Transaction,12 01
0,928,0:20.622.739,659.600 us,25 B,,SP,55,Read Transaction,00 00 00 00 00 02 80 64 00 00 00 00 00 00 00 00 00 00 00 00 00 00 01 03 00*
0,929,0:20.631.286,676.900 us,26 B,,SP,55,Write Transaction,14 00 03 06 04 03 D8 0D 06 CE 01 06 94 99 00 00 00 00 00 00 FF F3 00 5A FC 32
0,930,0:20.647.234,115.800 us,3 B,,SP,55,Read Transaction,00 00 18*
0,931,0:20.651.633,79.000 us,2 B,,SP,55,Write Transaction,00 00
0,932,0:20.656.984,86.800 us,2 B,,SP,55,Read Transaction,00 08*
0,933,0:20.657.345,79.200 us,2 B,,SP,55,Write Transaction,12 01
0,934,0:20.662.696,659.500 us,25 B,,SP,55,Read Transaction,00 00 00 00 00 02 80 64 00 00 00 00 00 00 00 00 00 00 00 00 00 00 01 03 00*
0,935,0:20.671.234,676.400 us,26 B,,SP,55,Write Transaction,14 00 03 0A 1E 03 DC 81 06 D1 A7 06 97 09 00 00 00 00 00 00 FF ED 00 5F FC 2E
0,936,0:20.687.171,115.600 us,3 B,,SP,55,Read Transaction,00 00 18*
0,937,0:20.691.563,79.000 us,2 B,,SP,55,Write Transaction,00 00
0,938,0:20.696.914,86.700 us,2 B,,SP,55,Read Transaction,00 08*
0,939,0:20.697.276,79.000 us,2 B,,SP,55,Write Transaction,12 01
0,940,0:20.702.623,659.600 us,25 B,,SP,55,Read Transaction,00 00 00 00 00 02 80 64 00 00 00 00 00 00 00 00 00 00 00 00 00 00 01 03 00*
0,941,0:20.711.536,676.900 us,26 B,,SP,55,Write Transaction,14 00 03 0E 19 03 E0 EA 06 D5 C0 06 99 AC 00 00 00 00 00 00 FF EC 00 59 FC 2C
0,942,0:20.727.487,115.700 us,3 B,,SP,55,Read Transaction,00 00 18*
0,943,0:20.731.880,79.000 us,2 B,,SP,55,Write Transaction,00 00
0,944,0:20.737.234,86.700 us,2 B,,SP,55,Read Transaction,00 08*
0,945,0:20.737.594,79.100 us,2 B,,SP,55,Write Transaction,12 01
0,946,0:20.742.953,659.600 us,25 B,,SP,55,Read Transaction,00 00 00 00 00 02 80 64 00 00 00 00 00 00 00 00 00 00 00 00 00 00 01 03 00*
0,947,0:20.751.079,676.900 us,26 B,,SP,55,Write Transaction,14 00 03 11 07 03 E4 6C 06 D6 3B 06 99 B5 00 00 00 00 00 00 FF EE 00 5B FC 2D
0,948,0:20.767.021,115.600 us,3 B,,SP,55,Read Transaction,00 00 18*
0,949,0:20.771.414,79.100 us,2 B,,SP,55,Write Transaction,00 00
0,950,0:20.776.765,86.700 us,2 B,,SP,55,Read Transaction,00 08*
0,951,0:20.777.128,79.100 us,2 B,,SP,55,Write Transaction,12 01
0,952,0:20.782.479,659.600 us,25 B,,SP,55,Read Transaction,00 00 00 00 00 02 80 64 00 00 00 00 00 00 00 00 00 00 00 00 00 00 01 03 00*
0,953,0:20.791.700,676.900 us,26 B,,SP,55,Write Transaction,14 00 03 13 F6 03 E8 0E 06 D9 13 06 9B EC 00 00 00 00 00 00 FF F2 00 5C FC 30
0,954,0:20.807.649,115.800 us,3 B,,SP,55,Read Transaction,00 00 18*
0,955,0:20.812.044,79.200 us,2 B,,SP,55,Write Transaction,00 00
0,956,0:20.817.398,86.600 us,2 B,,SP,55,Read Transaction,00 08*
0,957,0:20.817.761,79.100 us,2 B,,SP,55,Write Transaction,12 01
0,958,0:20.823.108,659.600 us,25 B,,SP,55,Read Transaction,00 00 00 00 00 02 80 64 00 00 00 00 00 00 00 00 00 00 00 00 00 00 01 03 00*
0,959,0:20.830.946,676.900 us,26 B,,SP,55,Write Transaction,14 00 03 16 E5 03 EB 70 06 DC 1C 06 9D FE 00 00 00 00 00 00 FF EE 00 5F FC 30
0,960,0:20.846.885,115.600 us,3 B,,SP,55,Read Transaction,00 00 18*
0,961,0:20.851.276,79.100 us,2 B,,SP,55,Write Transaction,00 00
0,962,0:20.856.631,86.800 us,2 B,,SP,55,Read Transaction,00 08*
0,963,0:20.856.994,79.200 us,2 B,,SP,55,Write Transaction,12 01
0,964,0:20.862.350,659.600 us,25 B,,SP,55,Read Transaction,00 00 00 00 00 02 80 64 00 00 00 00 00 00 00 00 00 00 00 00 00 00 01 03 00*
0,965,0:20.870.964,676.900 us,26 B,,SP,55,Write Transaction,14 00 03 19 F5 03 EF 2E 06 DF 17 06 A0 1E 00 00 00 00 00 00 FF F0 00 5D FC 2E
0,966,0:20.886.956,115.600 us,3 B,,SP,55,Read Transaction,00 00 18*
0,967,0:20.891.348,79.100 us,2 B,,SP,55,Write Transaction,00 00
0,968,0:20.896.699,86.700 us,2 B,,SP,55,Read Transaction,00 08*
0,969,0:20.897.061,79.000 us,2 B,,SP,55,Write Transaction,12 01
0,970,0:20.902.411,659.600 us,25 B,,SP,55,Read Transaction,00 00 00 00 00 02 80 64 00 00 00 00 00 00 00 00 00 00 00 00 00 00 01 03 00*
0,971,0:20.911.347,676.700 us,26 B,,SP,55,Write Transaction,14 00 03 1D AE 03 F3 7E 06 E3 48 06 A2 EB 00 00 00 00 00 00 FF EE 00 5A FC 2E
0,972,0:20.927.285,115.600 us,3 B,,SP,55,Read Transaction,00 00 18*
0,973,0:20.931.679,79.100 us,2 B,,SP,55,Write Transaction,00 00
0,974,0:20.937.028,86.700 us,2 B,,SP,55,Read Transaction,00 08*
0,975,0:20.937.389,79.100 us,2 B,,SP,55,Write Transaction,12 01
0,976,0:20.942.740,659.700 us,25 B,,SP,55,Read Transaction,00 00 00 00 00 02 80 64 00 00 00 00 00 00 00 00 00 00 00 00 00 00 01 03 00*
0,977,0:20.950.825,676.900 us,26 B,,SP,55,Write Transaction,14 00 03 21 53 03 F7 D5 06 E6 76 06 A5 29 00 00 00 00 00 00 FF ED 00 62 FC 2B
0,978,0:20.966.765,115.700 us,3 B,,SP,55,Read Transaction,00 00 18*
0,979,0:20.971.156,79.000 us,2 B,,SP,55,Write Transaction,00 00
0,980,0:20.976.509,86.700 us,2 B,,SP,55,Read Transaction,00 08*
0,981,0:20.976.872,79.000 us,2 B,,SP,55,Write Transaction,12 01
0,982,0:20.982.221,659.600 us,25 B,,SP,55,Read Transaction,00 00 00 00 00 02 80 64 00 00 00 00 00 00 00 00 00 00 00 00 00 00 01 03 00*
0,983,0:20.990.732,677.800 us,26 B,,SP,55,Write Transaction,14 00 03 25 54 03 FC 72 06 EA B2 06 A7 84 00 00 00 00 00 00 FF F3 00 5C FC 29
0,984,0:21.006.674,115.700 us,3 B,,SP,55,Read Transaction,00 00 18*
0,985,0:21.011.068,79.100 us,2 B,,SP,55,Write Transaction,00 00
0,986,0:21.016.418,86.700 us,2 B,,SP,55,Read Transaction,00 08*
0,987,0:21.016.779,79.000 us,2 B,,SP,55,Write Transaction,12 01
0,988,0:21.022.134,659.500 us,25 B,,SP,55,Read Transaction,00 00 00 00 00 02 80 64 00 00 00 00 00 00 00 00 00 00 00 00 00 00 01 03 00*
0,989,0:21.030.765,677.000 us,26 B,,SP,55,Write Transaction,14 00 03 24 37 03 FB BB 06 E4 EE 06 A4 12 00 00 00 00 00 00 FF F4 00 5D FC 31
0,990,0:21.046.711,115.700 us,3 B,,SP,55,Read Transaction,00 00 18*
0,991,0:21.051.101,79.100 us,2 B,,SP,55,Write Transaction,00 00
0,992,0:21.056.450,86.700 us,2 B,,SP,55,Read Transaction,00 08*
0,993,0:21.056.813,79.100 us,2 B,,SP,55,Write Transaction,12 01
0,994,0:21.062.162,659.700 us,25 B,,SP,55,Read Transaction,00 00 00 00 00 02 80 64 00 00 00 00 00 00 00 00 00 00 00 00 00 00 01 03 00*
0,995,0:21.070.643,677.000 us,26 B,,SP,55,Write Transaction,14 00 03 17 AF 03 EE DA 06 D8 BF 06 9D C9 00 00 00 00 00 00 FF EF 00 59 FC 29
0,996,0:21.086.590,115.600 us,3 B,,SP,55,Read Transaction,00 00 18*
0,997,0:21.090.983,79.000 us,2 B,,SP,55,Write Transaction,00 00
0,998,0:21.096.331,86.700 us,2 B,,SP,55,Read Transaction,00 08*
0,999,0:21.096.725,79.100 us,2 B,,SP,55,Write Transaction,12 01
0,1000,0:21.102.075,659.500 us,25 B,,SP,55,Read Transaction,00 00 00 00 00 02 80 64 00 00 00 00 00 00 00 00 00 00 00 00 00 00 01 03 00*
0,1001,0:21.111.196,676.900 us,26 B,,SP,55,Write Transaction,14 00 03 08 9E 03 DF 86 06 CE 7C 06 98 F8 00 00 00 00 00 00 FF EC 00 5C FC 2F
0,1002,0:21.127.132,115.700 us,3 B,,SP,55,Read Transaction,00 00 18*
0,1003,0:21.131.523,79.000 us,2 B,,SP,55,Write Transaction,00 00
0,1004,0:21.136.874,86.600 us,2 B,,SP,55,Read Transaction,00 08*
0,1005,0:21.137.236,79.100 us,2 B,,SP,55,Write Transaction,12 01
0,1006,0:21.142.586,659.600 us,25 B,,SP,55,Read Transaction,00 00 00 00 00 02 80 64 00 00 00 00 00 00 00 00 00 00 00 00 00 00 01 03 00*
0,1007,0:21.150.539,676.900 us,26 B,,SP,55,Write Transaction,14 00 02 FF CE 03 D6 C2 06 C9 56 06 96 8D 00 00 00 00 00 00 FF F0 00 5A FC 2F
0,1008,0:21.166.492,115.700 us,3 B,,SP,55,Read Transaction,00 00 18*
0,1009,0:21.170.885,79.000 us,2 B,,SP,55,Write Transaction,00 00
0,1010,0:21.176.236,86.700 us,2 B,,SP,55,Read Transaction,00 08*
0,1011,0:21.176.599,79.000 us,2 B,,SP,55,Write Transaction,12 01
0,1012,0:21.181.947,659.600 us,25 B,,SP,55,Read Transaction,00 00 00 00 00 02 80 64 00 00 00 00 00 00 00 00 00 00 00 00 00 00 01 03 00*
0,1013,0:21.190.456,676.900 us,26 B,,SP,55,Write Transaction,14 00 02 FC D0 03 D3 37 06 C9 52 06 97 0D 00 00 00 00 00 00 FF EF 00 5C FC 30
0,1014,0:21.206.396,115.900 us,3 B,,SP,55,Read Transaction,00 00 18*
0,1015,0:21.210.789,79.100 us,2 B,,SP,55,Write Transaction,00 00
0,1016,0:21.216.137,86.700 us,2 B,,SP,55,Read Transaction,00 08*
0,1017,0:21.216.499,79.100 us,2 B,,SP,55,Write Transaction,12 01
0,1018,0:21.221.850,659.700 us,25 B,,SP,55,Read Transaction,00 00 00 00 00 02 80 64 00 00 00 00 00 00 00 00 00 00 00 00 00 00 01 03 00*
0,1019,0:21.230.386,677.900 us,26 B,,SP,55,Write Transaction,14 00 02 FB 01 03 D0 93 06 C7 94 06 95 EF 00 00 00 00 00 00 FF ED 00 61 FC 31
0,1020,0:21.246.355,115.800 us,3 B,,SP,55,Read Transaction,00 00 18*
0,1021,0:21.250.746,79.100 us,2 B,,SP,55,Write Transaction,00 00
0,1022,0:21.256.096,86.700 us,2 B,,SP,55,Read Transaction,00 08*
0,1023,0:21.256.459,79.100 us,2 B,,SP,55,Write Transaction,12 01
0,1024,0:21.261.812,660.600 us,25 B,,SP,55,Read Transaction,00 00 00 00 00 02 80 64 00 00 00 00 00 00 00 00 00 00 00 00 00 00 01 03 00*
0,1025,0:21.270.323,677.500 us,26 B,,SP,55,Write Transaction,14 00 02 FB E2 03 D0 A6 06 C7 D6 06 95 6E 00 00 00 00 00 00 FF F3 00 63 FC 2E
0,1026,0:21.286.263,115.600 us,3 B,,SP,55,Read Transaction,00 00 18*
0,1027,0:21.290.656,79.100 us,2 B,,SP,55,Write Transaction,00 00
0,1028,0:21.296.006,86.800 us,2 B,,SP,55,Read Transaction,00 08*
0,1029,0:21.296.368,79.100 us,2 B,,SP,55,Write Transaction,12 01
0,1030,0:21.301.718,659.600 us,25 B,,SP,55,Read Transaction,00 00 00 00 00 02 80 64 00 00 00 00 00 00 00 00 00 00 00 00 00 00 01 03 00*
0,1031,0:21.310.936,677.000 us,26 B,,SP,55,Write Transaction,14 00 02 FF 11 03 D3 1D 06 CA 86 06 97 19 00 00 00 00 00 00 FF F7 00 5D FC 32
0,1032,0:21.326.896,116.000 us,3 B,,SP,55,Read Transaction,00 00 18*
0,1033,0:21.331.292,79.100 us,2 B,,SP,55,Write Transaction,00 00
0,1034,0:21.336.643,86.700 us,2 B,,SP,55,Read Transaction,00 08*
0,1035,0:21.337.006,79.000 us,2 B,,SP,55,Write Transaction,12 01
0,1036,0:21.342.356,659.600 us,25 B,,SP,55,Read Transaction,00 00 00 00 00 02 80 64 00 00 00 00 00 00 00 00 00 00 00 00 00 00 01 03 00*
0,1037,0:21.350.206,677.000 us,26 B,,SP,55,Write Transaction,14 00 03 02 16 03 D5 98 06 CF 10 06 9A 76 00 00 00 00 00 00 FF F1 00 64 FC 2D
0,1038,0:21.366.147,116.300 us,3 B,,SP,55,Read Transaction,00 00 18*
0,1039,0:21.370.540,79.000 us,2 B,,SP,55,Write Transaction,00 00
0,1040,0:21.375.890,86.700 us,2 B,,SP,55,Read Transaction,00 08*
0,1041,0:21.376.252,79.000 us,2 B,,SP,55,Write Transaction,12 01
0,1042,0:21.381.602,659.600 us,25 B,,SP,55,Read Transaction,00 00 00 00 00 02 80 64 00 00 00 00 00 00 00 00 00 00 00 00 00 00 01 03 00*
0,1043,0:21.390.154,676.800 us,26 B,,SP,55,Write Transaction,14 00 03 03 CD 03 D7 1B 06 CF 9E 06 9A 3F 00 00 00 00 00 00 FF F1 00 58 FC 2C
0,1044,0:21.406.093,115.800 us,3 B,,SP,55,Read Transaction,00 00 18*
0,1045,0:21.410.485,79.000 us,2 B,,SP,55,Write Transaction,00 00
0,1046,0:21.415.836,86.700 us,2 B,,SP,55,Read Transaction,00 08*
0,1047,0:21.416.198,79.000 us,2 B,,SP,55,Write Transaction,12 01
0,1048,0:21.421.550,659.600 us,25 B,,SP,55,Read Transaction,00 00 00 00 00 02 80 64 00 00 00 00 00 00 00 00 00 00 00 00 00 00 01 03 00*
0,1049,0:21.430.131,677.000 us,26 B,,SP,55,Write Transaction,14 00 03 06 71 03 D9 77 06 D0 39 06 9A 6E 00 00 00 00 00 00 FF F0 00 62 FC 2C
0,1050,0:21.446.077,115.700 us,3 B,,SP,55,Read Transaction,00 00 18*
0,1051,0:21.450.473,79.100 us,2 B,,SP,55,Write Transaction,00 00
0,1052,0:21.455.825,86.900 us,2 B,,SP,55,Read Transaction,00 08*
0,1053,0:21.456.188,79.200 us,2 B,,SP,55,Write Transaction,12 01
0,1054,0:21.461.541,659.700 us,25 B,,SP,55,Read Transaction,00 00 00 00 00 02 80 64 00 00 00 00 00 00 00 00 00 00 00 00 00 00 01 03 00*
0,1055,0:21.470.992,676.700 us,26 B,,SP,55,Write Transaction,14 00 03 0B D2 03 DE A6 06 D6 56 06 9E 86 00 00 00 00 00 00 FF F5 00 5E FC 2C
0,1056,0:21.486.933,115.800 us,3 B,,SP,55,Read Transaction,00 00 18*
0,1057,0:21.491.329,79.200 us,2 B,,SP,55,Write Transaction,00 00
0,1058,0:21.496.680,86.800 us,2 B,,SP,55,Read Transaction,00 08*
0,1059,0:21.497.042,79.200 us,2 B,,SP,55,Write Transaction,12 01
0,1060,0:21.502.400,659.600 us,25 B,,SP,55,Read Transaction,00 00 00 00 00 02 80 64 25 00 19 00 00 00 00 00 00 00 00 00 00 00 01 03 00*
0,1061,0:21.510.771,677.900 us,26 B,,SP,55,Write Transaction,14 00 03 10 CF 03 E3 D6 06 D8 D5 06 9F 5A 00 00 00 00 00 00 FF ED 00 5C FC 2D
0,1062,0:21.526.715,115.800 us,3 B,,SP,55,Read Transaction,00 00 18*
0,1063,0:21.531.107,79.100 us,2 B,,SP,55,Write Transaction,00 00
0,1064,0:21.536.458,86.700 us,2 B,,SP,55,Read Transaction,00 08*
0,1065,0:21.536.821,79.100 us,2 B,,SP,55,Write Transaction,12 01
0,1066,0:21.542.170,659.500 us,25 B,,SP,55,Read Transaction,00 00 00 00 00 02 80 64 00 00 00 00 00 00 00 00 00 00 00 00 00 00 01 03 00*
0,1067,0:21.549.893,676.900 us,26 B,,SP,55,Write Transaction,14 00 03 15 92 03 E8 E4 06 DA BC 06 A0 26 00 00 00 00 00 00 FF F0 00 5C FC 2E
0,1068,0:21.565.834,115.800 us,3 B,,SP,55,Read Transaction,00 00 18*
0,1069,0:21.570.228,79.000 us,2 B,,SP,55,Write Transaction,00 00
0,1070,0:21.575.578,86.700 us,2 B,,SP,55,Read Transaction,00 08*
0,1071,0:21.575.939,79.000 us,2 B,,SP,55,Write Transaction,12 01
0,1072,0:21.581.289,659.700 us,25 B,,SP,55,Read Transaction,00 00 00 00 00 02 80 64 00 00 00 00 00 00 00 00 00 00 00 00 00 00 01 03 00*
0,1073,0:21.589.894,677.700 us,26 B,,SP,55,Write Transaction,14 00 03 1A 98 03 EE 4F 06 DE DC 06 A2 A6 00 00 00 00 00 00 FF EF 00 58 FC 30
0,1074,0:21.605.838,115.900 us,3 B,,SP,55,Read Transaction,00 00 18*
0,1075,0:21.610.236,79.200 us,2 B,,SP,55,Write Transaction,00 00
0,1076,0:21.615.591,86.700 us,2 B,,SP,55,Read Transaction,00 08*
0,1077,0:21.615.953,79.100 us,2 B,,SP,55,Write Transaction,12 01
0,1078,0:21.621.301,659.600 us,25 B,,SP,55,Read Transaction,00 00 00 00 00 02 80 64 00 00 00 00 00 00 00 00 00 00 00 00 00 00 01 03 00*
0,1079,0:21.629.771,677.000 us,26 B,,SP,55,Write Transaction,14 00 03 1E 30 03 F2 81 06 E1 54 06 A4 2C 00 00 00 00 00 00 FF F0 00 62 FC 2F
0,1080,0:21.645.714,115.600 us,3 B,,SP,55,Read Transaction,00 00 18*
0,1081,0:21.650.108,79.100 us,2 B,,SP,55,Write Transaction,00 00
0,1082,0:21.655.456,86.700 us,2 B,,SP,55,Read Transaction,00 08*
0,1083,0:21.655.818,79.100 us,2 B,,SP,55,Write Transaction,12 01
0,1084,0:21.661.168,659.700 us,25 B,,SP,55,Read Transaction,00 00 00 00 00 02 80 64 00 00 00 00 00 00 00 00 00 00 00 00 00 00 01 03 00*
0,1085,0:21.669.740,676.900 us,26 B,,SP,55,Write Transaction,14 00 03 21 79 03 F6 56 06 E4 09 06 A6 2A 00 00 00 00 00 00 FF ED 00 5F FC 2D
0,1086,0:21.685.679,115.800 us,3 B,,SP,55,Read Transaction,00 00 18*
0,1087,0:21.690.071,79.100 us,2 B,,SP,55,Write Transaction,00 00
0,1088,0:21.695.422,86.700 us,2 B,,SP,55,Read Transaction,00 08*
0,1089,0:21.695.784,79.000 us,2 B,,SP,55,Write Transaction,12 01
0,1090,0:21.701.136,659.600 us,25 B,,SP,55,Read Transaction,00 00 00 00 00 02 80 64 00 00 00 00 00 00 00 00 00 00 00 00 00 00 01 03 00*
0,1091,0:21.710.579,676.900 us,26 B,,SP,55,Write Transaction,14 00 03 24 6D 03 F9 F8 06 E4 93 06 A6 16 00 00 00 00 00 00 FF F0 00 61 FC 32
0,1092,0:21.726.519,115.700 us,3 B,,SP,55,Read Transaction,00 00 18*
0,1093,0:21.730.912,79.100 us,2 B,,SP,55,Write Transaction,00 00
0,1094,0:21.736.268,86.800 us,2 B,,SP,55,Read Transaction,00 08*
0,1095,0:21.736.631,79.200 us,2 B,,SP,55,Write Transaction,12 01
0,1096,0:21.741.986,659.600 us,25 B,,SP,55,Read Transaction,00 00 00 00 00 02 80 64 00 00 00 00 00 00 00 00 00 00 00 00 00 00 01 03 00*
0,1097,0:21.749.583,676.900 us,26 B,,SP,55,Write Transaction,14 00 03 26 9A 03 FC C4 06 E6 63 06 A8 1A 00 00 00 00 00 00 FF F3 00 5D FC 2C
0,1098,0:21.765.523,115.800 us,3 B,,SP,55,Read Transaction,00 00 18*
0,1099,0:21.769.915,79.100 us,2 B,,SP,55,Write Transaction,00 00
0,1100,0:21.775.267,86.800 us,2 B,,SP,55,Read Transaction,00 08*
0,1101,0:21.775.630,79.000 us,2 B,,SP,55,Write Transaction,12 01
0,1102,0:21.780.981,659.700 us,25 B,,SP,55,Read Transaction,00 00 00 00 00 02 80 64 00 00 00 00 00 00 00 00 00 00 00 00 00 00 01 03 00*
0,1103,0:21.789.605,676.900 us,26 B,,SP,55,Write Transaction,14 00 03 29 0C 04 00 24 06 EA 9F 06 AB 62 00 00 00 00 00 00 FF EE 00 5A FC 2F
0,1104,0:21.805.567,115.800 us,3 B,,SP,55,Read Transaction,00 00 18*
0,1105,0:21.809.961,79.000 us,2 B,,SP,55,Write Transaction,00 00
0,1106,0:21.815.311,86.700 us,2 B,,SP,55,Read Transaction,00 08*
0,1107,0:21.815.674,79.100 us,2 B,,SP,55,Write Transaction,12 01
0,1108,0:21.821.021,659.600 us,25 B,,SP,55,Read Transaction,00 00 00 00 00 02 80 64 00 00 00 00 00 00 00 00 00 00 00 00 00 00 01 03 00*
0,1109,0:21.829.472,676.800 us,26 B,,SP,55,Write Transaction,14 00 03 2B C2 04 03 86 06 EB D4 06 AB BC 00 00 00 00 00 00 FF F2 00 60 FC 2A
0,1110,0:21.845.410,115.700 us,3 B,,SP,55,Read Transaction,00 00 18*
0,1111,0:21.849.804,79.100 us,2 B,,SP,55,Write Transaction,00 00
0,1112,0:21.855.152,86.700 us,2 B,,SP,55,Read Transaction,00 08*
0,1113,0:21.855.513,79.100 us,2 B,,SP,55,Write Transaction,12 01
0,1114,0:21.860.868,660.600 us,25 B,,SP,55,Read Transaction,00 00 00 00 00 02 80 64 00 00 00 00 00 00 00 00 00 00 00 00 00 00 01 03 00*
0,1115,0:21.869.519,676.900 us,26 B,,SP,55,Write Transaction,14 00 03 2E 29 04 06 8D 06 EC 6D 06 AC 0D 00 00 00 00 00 00 FF EE 00 61 FC 2D
0,1116,0:21.885.459,115.800 us,3 B,,SP,55,Read Transaction,00 00 18*
0,1117,0:21.889.851,79.100 us,2 B,,SP,55,Write Transaction,00 00
0,1118,0:21.895.202,86.600 us,2 B,,SP,55,Read Transaction,00 08*
0,1119,0:21.895.564,79.000 us,2 B,,SP,55,Write Transaction,12 01
0,1120,0:21.900.912,676.300 us,25 B,,SP,55,Read Transaction,00 00 00 00 00 02 80 64 00 00 00 00 00 00 00 00 00 00 00 00 00 00 01 03 00*
0,1121,0:21.910.356,676.800 us,26 B,,SP,55,Write Transaction,14 00 03 31 2C 04 0A 1E 06 ED 7C 06 AB BE 00 00 00 00 00 00 FF EB 00 5F FC 3F
0,1122,0:21.926.297,115.600 us,3 B,,SP,55,Read Transaction,00 00 18*
0,1123,0:21.930.695,79.200 us,2 B,,SP,55,Write Transaction,00 00
0,1124,0:21.936.050,86.700 us,2 B,,SP,55,Read Transaction,00 08*
0,1125,0:21.936.412,79.000 us,2 B,,SP,55,Write Transaction,12 01
0,1126,0:21.941.762,659.600 us,25 B,,SP,55,Read Transaction,00 00 00 00 00 02 80 64 00 00 00 00 00 00 00 00 00 00 00 00 00 00 01 03 00*
0,1127,0:21.949.356,676.900 us,26 B,,SP,55,Write Transaction,14 00 03 30 8E 04 09 81 06 E8 98 06 A8 95 00 00 00 00 00 00 FF F3 00 5A FC 2A
0,1128,0:21.965.296,115.800 us,3 B,,SP,55,Read Transaction,00 00 18*
0,1129,0:21.969.688,79.000 us,2 B,,SP,55,Write Transaction,00 00
0,1130,0:21.975.037,86.800 us,2 B,,SP,55,Read Transaction,00 08*
0,1131,0:21.975.400,79.000 us,2 B,,SP,55,Write Transaction,12 01
0,1132,0:21.980.754,659.600 us,25 B,,SP,55,Read Transaction,00 00 00 00 00 02 80 64 00 00 00 00 00 00 00 00 00 00 00 00 00 00 01 03 00*
0,1133,0:21.989.254,676.900 us,26 B,,SP,55,Write Transaction,14 00 03 23 CA 03 FC 06 06 DB C8 06 A2 0C 00 00 00 00 00 00 FF EF 00 60 FC 32
0,1134,0:22.005.196,116.000 us,3 B,,SP,55,Read Transaction,00 00 18*
0,1135,0:22.009.591,79.100 us,2 B,,SP,55,Write Transaction,00 00
0,1136,0:22.014.939,86.700 us,2 B,,SP,55,Read Transaction,00 08*
0,1137,0:22.015.301,79.000 us,2 B,,SP,55,Write Transaction,12 01
0,1138,0:22.020.653,659.600 us,25 B,,SP,55,Read Transaction,00 00 00 00 00 02 80 64 00 00 00 00 00 00 00 00 00 00 00 00 00 00 01 03 00*
0,1139,0:22.029.213,676.800 us,26 B,,SP,55,Write Transaction,14 00 03 13 9C 03 EB 3C 06 CF 8D 06 9B DE 00 00 00 00 00 00 FF F2 00 5D FC 2D
0,1140,0:22.045.153,115.800 us,3 B,,SP,55,Read Transaction,00 00 18*
0,1141,0:22.049.544,79.000 us,2 B,,SP,55,Write Transaction,00 00
0,1142,0:22.054.895,86.700 us,2 B,,SP,55,Read Transaction,00 08*
0,1143,0:22.055.257,79.100 us,2 B,,SP,55,Write Transaction,12 01
0,1144,0:22.060.608,659.600 us,25 B,,SP,55,Read Transaction,00 00 00 00 00 02 80 64 00 00 00 00 00 00 00 00 00 00 00 00 00 00 01 03 00*
0,1145,0:22.069.149,676.900 us,26 B,,SP,55,Write Transaction,14 00 03 09 A8 03 E1 14 06 CA E3 06 99 E4 00 00 00 00 00 00 FF ED 00 60 FC 2D
0,1146,0:22.085.116,115.900 us,3 B,,SP,55,Read Transaction,00 00 18*
0,1147,0:22.089.510,79.100 us,2 B,,SP,55,Write Transaction,00 00
0,1148,0:22.094.861,86.700 us,2 B,,SP,55,Read Transaction,00 08*
0,1149,0:22.095.223,79.000 us,2 B,,SP,55,Write Transaction,12 01
0,1150,0:22.100.571,659.500 us,25 B,,SP,55,Read Transaction,00 00 00 00 00 02 80 64 00 00 00 00 00 00 00 00 00 00 00 00 00 00 01 03 00*
0,1151,0:22.110.142,676.900 us,26 B,,SP,55,Write Transaction,14 00 03 04 5E 03 DB 67 06 C8 80 06 98 F4 00 00 00 00 00 00 FF E9 00 5A FC 2D
0,1152,0:22.126.082,116.300 us,3 B,,SP,55,Read Transaction,00 00 18*
0,1153,0:22.130.475,79.100 us,2 B,,SP,55,Write Transaction,00 00
0,1154,0:22.135.825,86.700 us,2 B,,SP,55,Read Transaction,00 08*
0,1155,0:22.136.186,79.100 us,2 B,,SP,55,Write Transaction,12 01
0,1156,0:22.141.536,659.500 us,25 B,,SP,55,Read Transaction,00 00 00 00 00 02 80 64 00 00 00 00 00 00 00 00 00 00 00 00 00 00 01 03 00*
0,1157,0:22.149.032,676.800 us,26 B,,SP,55,Write Transaction,14 00 03 00 D0 03 D6 E5 06 C5 47 06 96 EB 00 00 00 00 00 00 FF F2 00 63 FC 2C
0,1158,0:22.164.971,116.300 us,3 B,,SP,55,Read Transaction,00 00 18*
0,1159,0:22.169.370,79.100 us,2 B,,SP,55,Write Transaction,00 00
0,1160,0:22.174.722,86.800 us,2 B,,SP,55,Read Transaction,00 08*
0,1161,0:22.175.085,79.000 us,2 B,,SP,55,Write Transaction,12 01
0,1162,0:22.180.432,659.400 us,25 B,,SP,55,Read Transaction,00 00 00 00 00 02 80 64 00 00 00 00 00 00 00 00 00 00 00 00 00 00 01 03 00*
0,1163,0:22.188.989,676.600 us,26 B,,SP,55,Write Transaction,14 00 02 FF EB 03 D5 09 06 C8 D4 06 9A AE 00 00 00 00 00 00 FF F0 00 5C FC 2C
0,1164,0:22.204.933,116.300 us,3 B,,SP,55,Read Transaction,00 00 18*
0,1165,0:22.209.331,79.100 us,2 B,,SP,55,Write Transaction,00 00
0,1166,0:22.214.681,86.700 us,2 B,,SP,55,Read Transaction,00 08*
0,1167,0:22.215.042,79.100 us,2 B,,SP,55,Write Transaction,12 01
0,1168,0:22.220.392,659.600 us,25 B,,SP,55,Read Transaction,00 00 00 00 00 02 80 64 00 00 00 00 00 00 00 00 00 00 00 00 00 00 01 03 00*
0,1169,0:22.228.938,676.900 us,26 B,,SP,55,Write Transaction,14 00 03 03 1B 03 D7 48 06 CA A0 06 9A 86 00 00 00 00 00 00 FF EF 00 5A FC 2B
0,1170,0:22.244.882,116.000 us,3 B,,SP,55,Read Transaction,00 00 18*
0,1171,0:22.249.273,79.000 us,2 B,,SP,55,Write Transaction,00 00
0,1172,0:22.254.629,86.700 us,2 B,,SP,55,Read Transaction,00 08*
0,1173,0:22.254.992,79.100 us,2 B,,SP,55,Write Transaction,12 01
0,1174,0:22.260.343,659.600 us,25 B,,SP,55,Read Transaction,00 00 00 00 00 02 80 64 00 00 00 00 00 00 00 00 00 00 00 00 00 00 01 03 00*
0,1175,0:22.269.207,676.800 us,26 B,,SP,55,Write Transaction,14 00 03 04 43 03 D7 A5 06 CA 07 06 9A 05 00 00 00 00 00 00 FF F3 00 5C FC 2F
0,1176,0:22.285.150,116.100 us,3 B,,SP,55,Read Transaction,00 00 18*
0,1177,0:22.289.546,79.200 us,2 B,,SP,55,Write Transaction,00 00
0,1178,0:22.294.897,86.600 us,2 B,,SP,55,Read Transaction,00 08*
0,1179,0:22.295.258,79.100 us,2 B,,SP,55,Write Transaction,12 01
0,1180,0:22.300.608,659.600 us,25 B,,SP,55,Read Transaction,00 00 00 00 00 02 80 64 00 00 00 00 00 00 00 00 00 00 00 00 00 00 01 03 00*
0,1181,0:22.310.010,677.000 us,26 B,,SP,55,Write Transaction,14 00 03 04 85 03 D7 2F 06 C7 E1 06 97 D1 00 00 00 00 00 00 FF F0 00 61 FC 2E
0,1182,0:22.325.953,115.900 us,3 B,,SP,55,Read Transaction,00 00 18*
0,1183,0:22.330.344,79.100 us,2 B,,SP,55,Write Transaction,00 00
0,1184,0:22.335.696,86.700 us,2 B,,SP,55,Read Transaction,00 08*
0,1185,0:22.336.058,79.100 us,2 B,,SP,55,Write Transaction,12 01
0,1186,0:22.341.410,660.200 us,25 B,,SP,55,Read Transaction,00 00 00 00 00 02 80 64 00 00 00 00 00 00 00 00 00 00 00 00 00 00 01 03 00*
0,1187,0:22.348.752,676.900 us,26 B,,SP,55,Write Transaction,14 00 03 05 C2 03 D7 DC 06 C8 BD 06 99 00 00 00 00 00 00 00 FF EE 00 5B FC 32
0,1188,0:22.364.699,116.300 us,3 B,,SP,55,Read Transaction,00 00 18*
0,1189,0:22.369.092,79.100 us,2 B,,SP,55,Write Transaction,00 00
0,1190,0:22.374.441,86.700 us,2 B,,SP,55,Read Transaction,00 08*
0,1191,0:22.374.804,79.100 us,2 B,,SP,55,Write Transaction,12 01
0,1192,0:22.380.154,660.500 us,25 B,,SP,55,Read Transaction,00 00 00 00 00 02 80 64 00 00 00 00 00 00 00 00 00 00 00 00 00 00 01 03 00*
0,1193,0:22.388.669,676.800 us,26 B,,SP,55,Write Transaction,14 00 03 08 A0 03 DA 9E 06 CD 3F 06 9B C0 00 00 00 00 00 00 FF F0 00 5C FC 2D
0,1194,0:22.404.607,116.300 us,3 B,,SP,55,Read Transaction,00 00 18*
0,1195,0:22.409.000,79.100 us,2 B,,SP,55,Write Transaction,00 00
0,1196,0:22.414.351,86.700 us,2 B,,SP,55,Read Transaction,00 08*
0,1197,0:22.414.714,79.100 us,2 B,,SP,55,Write Transaction,12 01
0,1198,0:22.420.065,659.600 us,25 B,,SP,55,Read Transaction,00 00 00 00 00 02 80 64 00 00 00 00 00 00 00 00 00 00 00 00 00 00 01 03 00*
0,1199,0:22.428.671,676.900 us,26 B,,SP,55,Write Transaction,14 00 03 0C ED 03 DE 5B 06 CC E9 06 99 C1 00 00 00 00 00 00 FF F5 00 5D FC 39
0,1200,0:22.444.663,116.200 us,3 B,,SP,55,Read Transaction,00 00 18*
0,1201,0:22.449.055,79.100 us,2 B,,SP,55,Write Transaction,00 00
0,1202,0:22.454.405,86.700 us,2 B,,SP,55,Read Transaction,00 08*
0,1203,0:22.454.769,79.100 us,2 B,,SP,55,Write Transaction,12 01
0,1204,0:22.460.118,660.600 us,25 B,,SP,55,Read Transaction,00 00 00 00 00 02 80 64 24 DA 32 00 00 00 00 00 00 00 00 00 00 00 01 03 00*
0,1205,0:22.468.559,677.900 us,26 B,,SP,55,Write Transaction,14 00 03 11 70 03 E2 67 06 D0 A2 06 9C 69 00 00 00 00 00 00 FF EE 00 5F FC 2C
0,1206,0:22.484.498,116.100 us,3 B,,SP,55,Read Transaction,00 00 18*
0,1207,0:22.488.892,79.100 us,2 B,,SP,55,Write Transaction,00 00
0,1208,0:22.494.242,86.700 us,2 B,,SP,55,Read Transaction,00 08*
0,1209,0:22.494.603,79.000 us,2 B,,SP,55,Write Transaction,12 01
0,1210,0:22.499.953,659.600 us,25 B,,SP,55,Read Transaction,00 00 00 00 00 02 80 64 00 00 00 00 00 00 00 00 00 00 00 00 00 00 01 03 00*
0,1211,0:22.509.807,676.800 us,26 B,,SP,55,Write Transaction,14 00 03 16 74 03 E7 3E 06 D4 A0 06 9E 4C 00 00 00 00 00 00 FF EA 00 5F FC 2F
0,1212,0:22.525.746,116.200 us,3 B,,SP,55,Read Transaction,00 00 18*
0,1213,0:22.530.138,78.900 us,2 B,,SP,55,Write Transaction,00 00
0,1214,0:22.535.489,86.700 us,2 B,,SP,55,Read Transaction,00 08*
0,1215,0:22.535.851,79.100 us,2 B,,SP,55,Write Transaction,12 01
0,1216,0:22.541.201,659.700 us,25 B,,SP,55,Read Transaction,00 00 00 00 00 02 80 64 00 00 00 00 00 00 00 00 00 00 00 00 00 00 01 03 00*
0,1217,0:22.548.421,676.800 us,26 B,,SP,55,Write Transaction,14 00 03 1A 37 03 EB 33 06 D5 19 06 9E 6D 00 00 00 00 00 00 FF E8 00 5D FC 2D
0,1218,0:22.564.357,116.100 us,3 B,,SP,55,Read Transaction,00 00 18*
0,1219,0:22.568.750,79.100 us,2 B,,SP,55,Write Transaction,00 00
0,1220,0:22.574.099,86.700 us,2 B,,SP,55,Read Transaction,00 08*
0,1221,0:22.574.461,79.000 us,2 B,,SP,55,Write Transaction,12 01
0,1222,0:22.579.814,659.600 us,25 B,,SP,55,Read Transaction,00 00 00 00 00 02 80 64 00 00 00 00 00 00 00 00 00 00 00 00 00 00 01 03 00*
0,1223,0:22.588.442,676.800 us,26 B,,SP,55,Write Transaction,14 00 03 1D DA 03 EF 1E 06 D8 8C 06 A0 91 00 00 00 00 00 00 FF EE 00 60 FC 2F
0,1224,0:22.604.381,116.100 us,3 B,,SP,55,Read Transaction,00 00 18*
0,1225,0:22.608.777,79.200 us,2 B,,SP,55,Write Transaction,00 00
0,1226,0:22.614.136,86.700 us,2 B,,SP,55,Read Transaction,00 08*
0,1227,0:22.614.498,79.100 us,2 B,,SP,55,Write Transaction,12 01
0,1228,0:22.619.849,659.600 us,25 B,,SP,55,Read Transaction,00 00 00 00 00 02 80 64 00 00 00 00 00 00 00 00 00 00 00 00 00 00 01 03 00*
0,1229,0:22.628.350,676.900 us,26 B,,SP,55,Write Transaction,14 00 03 21 BA 03 F3 4C 06 DB FE 06 A3 16 00 00 00 00 00 00 FF ED 00 5C FC 2E
0,1230,0:22.644.292,116.100 us,3 B,,SP,55,Read Transaction,00 00 18*
0,1231,0:22.648.686,79.000 us,2 B,,SP,55,Write Transaction,00 00
0,1232,0:22.654.036,86.700 us,2 B,,SP,55,Read Transaction,00 08*
0,1233,0:22.654.431,79.100 us,2 B,,SP,55,Write Transaction,12 01
0,1234,0:22.659.782,659.600 us,25 B,,SP,55,Read Transaction,00 00 00 00 00 02 80 64 00 00 00 00 00 00 00 00 00 00 00 00 00 00 01 03 00*
0,1235,0:22.668.274,676.900 us,26 B,,SP,55,Write Transaction,14 00 03 25 F9 03 F8 19 06 DE C4 06 A4 11 00 00 00 00 00 00 FF F1 00 58 FC 29
0,1236,0:22.684.221,116.400 us,3 B,,SP,55,Read Transaction,00 00 18*
0,1237,0:22.688.614,79.000 us,2 B,,SP,55,Write Transaction,00 00
0,1238,0:22.693.965,86.700 us,2 B,,SP,55,Read Transaction,00 08*
0,1239,0:22.694.327,79.100 us,2 B,,SP,55,Write Transaction,12 01
0,1240,0:22.699.678,659.300 us,25 B,,SP,55,Read Transaction,00 00 00 00 00 02 80 64 00 00 00 00 00 00 00 00 00 00 00 00 00 00 01 03 00*
0,1241,0:22.708.242,676.900 us,26 B,,SP,55,Write Transaction,14 00 03 29 87 03 FC 25 06 E0 05 06 A4 F8 00 00 00 00 00 00 FF EE 00 5A FC 30
0,1242,0:22.724.198,116.200 us,3 B,,SP,55,Read Transaction,00 00 18*
0,1243,0:22.728.593,79.100 us,2 B,,SP,55,Write Transaction,00 00
0,1244,0:22.733.945,86.700 us,2 B,,SP,55,Read Transaction,00 08*
0,1245,0:22.734.308,79.100 us,2 B,,SP,55,Write Transaction,12 01
0,1246,0:22.739.657,659.700 us,25 B,,SP,55,Read Transaction,00 00 00 00 00 02 80 64 00 00 00 00 00 00 00 00 00 00 00 00 00 00 01 03 00*
0,1247,0:22.748.159,677.000 us,26 B,,SP,55,Write Transaction,14 00 03 2C A6 03 FF DF 06 E4 39 06 A8 B7 00 00 00 00 00 00 FF F2 00 5C FC 2E
0,1248,0:22.764.103,116.300 us,3 B,,SP,55,Read Transaction,00 00 18*
0,1249,0:22.768.499,79.100 us,2 B,,SP,55,Write Transaction,00 00
0,1250,0:22.773.850,86.700 us,2 B,,SP,55,Read Transaction,00 08*
0,1251,0:22.774.211,79.000 us,2 B,,SP,55,Write Transaction,12 01
0,1252,0:22.779.562,659.700 us,25 B,,SP,55,Read Transaction,00 00 00 00 00 02 80 64 00 00 00 00 00 00 00 00 00 00 00 00 00 00 01 03 00*
0,1253,0:22.788.136,676.900 us,26 B,,SP,55,Write Transaction,14 00 03 2F 54 04 03 4C 06 E6 BC 06 AA 9E 00 00 00 00 00 00 FF F3 00 5C FC 2C
0,1254,0:22.804.084,116.300 us,3 B,,SP,55,Read Transaction,00 00 18*
0,1255,0:22.808.480,79.200 us,2 B,,SP,55,Write Transaction,00 00
0,1256,0:22.813.838,86.700 us,2 B,,SP,55,Read Transaction,00 08*
0,1257,0:22.814.200,79.100 us,2 B,,SP,55,Write Transaction,12 01
0,1258,0:22.819.549,659.600 us,25 B,,SP,55,Read Transaction,00 00 00 00 00 02 80 64 00 00 00 00 00 00 00 00 00 00 00 00 00 00 01 03 00*
0,1259,0:22.828.038,676.900 us,26 B,,SP,55,Write Transaction,14 00 03 34 01 04 08 8B 06 EC 0E 06 AD B4 00 00 00 00 00 00 FF EF 00 59 FC 33
0,1260,0:22.843.983,116.200 us,3 B,,SP,55,Read Transaction,00 00 18*
0,1261,0:22.848.377,79.100 us,2 B,,SP,55,Write Transaction,00 00
0,1262,0:22.853.726,86.700 us,2 B,,SP,55,Read Transaction,00 08*
0,1263,0:22.854.087,79.100 us,2 B,,SP,55,Write Transaction,12 01
0,1264,0:22.859.439,659.600 us,25 B,,SP,55,Read Transaction,00 00 00 00 00 02 80 64 00 00 00 00 00 00 00 00 00 00 00 00 00 00 01 03 00*
0,1265,0:22.867.997,677.000 us,26 B,,SP,55,Write Transaction,14 00 03 33 F1 04 08 BD 06 E5 07 06 A8 17 00 00 00 00 00 00 FF F5 00 5E FC 2A
0,1266,0:22.883.943,116.100 us,3 B,,SP,55,Read Transaction,00 00 18*
0,1267,0:22.888.336,79.100 us,2 B,,SP,55,Write Transaction,00 00
0,1268,0:22.893.687,86.700 us,2 B,,SP,55,Read Transaction,00 08*
0,1269,0:22.894.049,79.100 us,2 B,,SP,55,Write Transaction,12 01
0,1270,0:22.899.463,660.500 us,25 B,,SP,55,Read Transaction,00 00 00 00 00 02 80 64 00 00 00 00 00 00 00 00 00 00 00 00 00 00 01 03 00*
0,1271,0:22.907.982,676.800 us,26 B,,SP,55,Write Transaction,14 00 03 27 1E 03 FA ED 06 D4 AE 06 9F 88 00 00 00 00 00 00 FF F5 00 62 FC 2F
0,1272,0:22.923.933,116.200 us,3 B,,SP,55,Read Transaction,00 00 18*
0,1273,0:22.928.332,79.000 us,2 B,,SP,55,Write Transaction,00 00
0,1274,0:22.933.681,86.700 us,2 B,,SP,55,Read Transaction,00 08*
0,1275,0:22.934.043,79.100 us,2 B,,SP,55,Write Transaction,12 01
0,1276,0:22.939.393,659.700 us,25 B,,SP,55,Read Transaction,00 00 00 00 00 02 80 64 00 00 00 00 00 00 00 00 00 00 00 00 00 00 01 03 00*
0,1277,0:22.947.878,677.500 us,26 B,,SP,55,Write Transaction,14 00 03 16 06 03 E9 77 06 C9 FD 06 9A E9 00 00 00 00 00 00 FF F0 00 5E FC 2A
0,1278,0:22.963.819,116.200 us,3 B,,SP,55,Read Transaction,00 00 18*
0,1279,0:22.968.212,79.000 us,2 B,,SP,55,Write Transaction,00 00
0,1280,0:22.973.562,86.700 us,2 B,,SP,55,Read Transaction,00 08*
0,1281,0:22.973.924,79.000 us,2 B,,SP,55,Write Transaction,12 01
0,1282,0:22.979.276,660.200 us,25 B,,SP,55,Read Transaction,00 00 00 00 00 02 80 64 00 00 00 00 00 00 00 00 00 00 00 00 00 00 01 03 00*
0,1283,0:22.987.845,676.900 us,26 B,,SP,55,Write Transaction,14 00 03 0A 92 03 DE 52 06 C3 4B 06 97 51 00 00 00 00 00 00 FF F2 00 5F FC 37
0,1284,0:23.003.793,116.100 us,3 B,,SP,55,Read Transaction,00 00 18*
0,1285,0:23.008.187,79.100 us,2 B,,SP,55,Write Transaction,00 00
0,1286,0:23.013.538,86.700 us,2 B,,SP,55,Read Transaction,00 08*
0,1287,0:23.013.901,79.000 us,2 B,,SP,55,Write Transaction,12 01
0,1288,0:23.019.250,659.600 us,25 B,,SP,55,Read Transaction,00 00 00 00 00 02 80 64 00 00 00 00 00 00 00 00 00 00 00 00 00 00 01 03 00*
0,1289,0:23.027.722,676.900 us,26 B,,SP,55,Write Transaction,14 00 03 04 64 03 D7 FE 06 BE 24 06 93 86 00 00 00 00 00 00 FF F1 00 64 FC 30
0,1290,0:23.043.662,116.200 us,3 B,,SP,55,Read Transaction,00 00 18*
0,1291,0:23.048.054,79.000 us,2 B,,SP,55,Write Transaction,00 00
0,1292,0:23.053.405,86.700 us,2 B,,SP,55,Read Transaction,00 08*
0,1293,0:23.053.767,79.100 us,2 B,,SP,55,Write Transaction,12 01
0,1294,0:23.059.117,659.600 us,25 B,,SP,55,Read Transaction,00 00 00 00 00 02 80 64 00 00 00 00 00 00 00 00 00 00 00 00 00 00 01 03 00*
0,1295,0:23.067.706,676.800 us,26 B,,SP,55,Write Transaction,14 00 03 00 9C 03 D3 50 06 B9 2A 06 90 13 00 00 00 00 00 00 FF ED 00 5F FC 23
0,1296,0:23.083.642,116.200 us,3 B,,SP,55,Read Transaction,00 00 18*
0,1297,0:23.088.035,79.100 us,2 B,,SP,55,Write Transaction,00 00
0,1298,0:23.093.385,86.800 us,2 B,,SP,55,Read Transaction,00 08*
0,1299,0:23.093.748,79.100 us,2 B,,SP,55,Write Transaction,12 01
0,1300,0:23.099.096,659.600 us,25 B,,SP,55,Read Transaction,00 00 00 00 00 02 80 64 00 00 00 00 00 00 00 00 00 00 00 00 00 00 01 03 00*
0,1301,0:23.107.656,676.900 us,26 B,,SP,55,Write Transaction,14 00 02 FF 90 03 D1 B3 06 BA 42 06 91 6F 00 00 00 00 00 00 FF F5 00 62 FC 21
0,1302,0:23.123.595,116.300 us,3 B,,SP,55,Read Transaction,00 00 18*
0,1303,0:23.127.988,79.100 us,2 B,,SP,55,Write Transaction,00 00
0,1304,0:23.133.345,86.800 us,2 B,,SP,55,Read Transaction,00 08*
0,1305,0:23.133.707,79.100 us,2 B,,SP,55,Write Transaction,12 01
0,1306,0:23.139.059,659.700 us,25 B,,SP,55,Read Transaction,00 00 00 00 00 02 80 64 00 00 00 00 00 00 00 00 00 00 00 00 00 00 01 03 00*
0,1307,0:23.147.601,677.000 us,26 B,,SP,55,Write Transaction,14 00 03 03 24 03 D4 7D 06 BE FA 06 93 C6 00 00 00 00 00 00 FF F2 00 5D FC 33
0,1308,0:23.163.540,116.300 us,3 B,,SP,55,Read Transaction,00 00 18*
0,1309,0:23.167.932,79.000 us,2 B,,SP,55,Write Transaction,00 00
0,1310,0:23.173.282,86.700 us,2 B,,SP,55,Read Transaction,00 08*
0,1311,0:23.173.645,79.000 us,2 B,,SP,55,Write Transaction,12 01
0,1312,0:23.178.997,660.500 us,25 B,,SP,55,Read Transaction,00 00 00 00 00 02 80 64 00 00 00 00 00 00 00 00 00 00 00 00 00 00 01 03 00*
0,1313,0:23.187.534,676.900 us,26 B,,SP,55,Write Transaction,14 00 03 05 00 03 D5 C1 06 BF CB 06 94 55 00 00 00 00 00 00 FF F0 00 61 FC 2E
0,1314,0:23.203.473,116.300 us,3 B,,SP,55,Read Transaction,00 00 18*
0,1315,0:23.207.867,79.000 us,2 B,,SP,55,Write Transaction,00 00
0,1316,0:23.213.216,86.700 us,2 B,,SP,55,Read Transaction,00 08*
0,1317,0:23.213.577,79.100 us,2 B,,SP,55,Write Transaction,12 01
0,1318,0:23.218.933,659.600 us,25 B,,SP,55,Read Transaction,00 00 00 00 00 02 80 64 00 00 00 00 00 00 00 00 00 00 00 00 00 00 01 03 00*
0,1319,0:23.227.457,677.900 us,26 B,,SP,55,Write Transaction,14 00 03 05 8D 03 D6 47 06 C0 9F 06 95 33 00 00 00 00 00 00 FF F3 00 60 FC 2D
0,1320,0:23.243.404,116.300 us,3 B,,SP,55,Read Transaction,00 00 18*
0,1321,0:23.247.799,79.200 us,2 B,,SP,55,Write Transaction,00 00
0,1322,0:23.253.150,86.700 us,2 B,,SP,55,Read Transaction,00 08*
0,1323,0:23.253.513,79.100 us,2 B,,SP,55,Write Transaction,12 01
0,1324,0:23.258.863,659.600 us,25 B,,SP,55,Read Transaction,00 00 00 00 00 02 80 64 00 00 00 00 00 00 00 00 00 00 00 00 00 00 01 03 00*
0,1325,0:23.267.461,677.000 us,26 B,,SP,55,Write Transaction,14 00 03 07 34 03 D8 4B 06 C3 F4 06 97 A0 00 00 00 00 00 00 FF F1 00 5F FC 32
0,1326,0:23.283.402,116.400 us,3 B,,SP,55,Read Transaction,00 00 18*
0,1327,0:23.287.800,79.100 us,2 B,,SP,55,Write Transaction,00 00
0,1328,0:23.293.149,86.700 us,2 B,,SP,55,Read Transaction,00 08*
0,1329,0:23.293.512,79.000 us,2 B,,SP,55,Write Transaction,12 01
0,1330,0:23.298.862,659.600 us,25 B,,SP,55,Read Transaction,00 00 00 00 00 02 80 64 00 00 00 00 00 00 00 00 00 00 00 00 00 00 01 03 00*
0,1331,0:23.307.325,676.900 us,26 B,,SP,55,Write Transaction,14 00 03 0A A7 03 DB FD 06 C7 27 06 99 2C 00 00 00 00 00 00 FF F1 00 60 FC 2A
0,1332,0:23.323.266,116.300 us,3 B,,SP,55,Read Transaction,00 00 18*
0,1333,0:23.327.658,79.100 us,2 B,,SP,55,Write Transaction,00 00
0,1334,0:23.333.008,86.700 us,2 B,,SP,55,Read Transaction,00 08*
0,1335,0:23.333.371,79.100 us,2 B,,SP,55,Write Transaction,12 01
0,1336,0:23.338.719,659.500 us,25 B,,SP,55,Read Transaction,00 00 00 00 00 02 80 64 00 00 00 00 00 00 00 00 00 00 00 00 00 00 01 03 00*
0,1337,0:23.347.311,676.900 us,26 B,,SP,55,Write Transaction,14 00 03 0E FC 03 E0 A1 06 CB 3A 06 9B E0 00 00 00 00 00 00 FF EC 00 58 FC 2C
0,1338,0:23.363.273,116.300 us,3 B,,SP,55,Read Transaction,00 00 18*
0,1339,0:23.367.667,79.100 us,2 B,,SP,55,Write Transaction,00 00
0,1340,0:23.373.017,86.700 us,2 B,,SP,55,Read Transaction,00 08*
0,1341,0:23.373.380,79.000 us,2 B,,SP,55,Write Transaction,12 01
0,1342,0:23.378.728,659.600 us,25 B,,SP,55,Read Transaction,00 00 00 00 00 02 80 64 23 FE 64 00 00 00 00 00 00 00 00 00 00 00 01 03 00*
0,1343,0:23.387.214,677.000 us,26 B,,SP,55,Write Transaction,14 00 03 13 90 03 E5 C8 06 D0 FE 06 A0 55 00 00 00 00 00 00 FF F3 00 5D FC 2D
0,1344,0:23.403.154,116.200 us,3 B,,SP,55,Read Transaction,00 00 18*
0,1345,0:23.407.547,79.100 us,2 B,,SP,55,Write Transaction,00 00
0,1346,0:23.412.896,86.700 us,2 B,,SP,55,Read Transaction,00 08*
0,1347,0:23.413.258,79.000 us,2 B,,SP,55,Write Transaction,12 01
0,1348,0:23.418.609,659.500 us,25 B,,SP,55,Read Transaction,00 00 00 00 00 02 80 64 00 00 00 00 00 00 00 00 00 00 00 00 00 00 01 03 00*
0,1349,0:23.427.242,676.900 us,26 B,,SP,55,Write Transaction,14 00 03 18 95 03 EB 6A 06 D7 44 06 A4 65 00 00 00 00 00 00 FF F5 00 5D FC 2A
0,1350,0:23.443.188,116.300 us,3 B,,SP,55,Read Transaction,00 00 18*
0,1351,0:23.447.580,79.100 us,2 B,,SP,55,Write Transaction,00 00
0,1352,0:23.452.931,86.700 us,2 B,,SP,55,Read Transaction,00 08*
0,1353,0:23.453.294,79.000 us,2 B,,SP,55,Write Transaction,12 01
0,1354,0:23.458.645,660.600 us,25 B,,SP,55,Read Transaction,00 00 00 00 00 02 80 64 00 00 00 00 00 00 00 00 00 00 00 00 00 00 01 03 00*
0,1355,0:23.467.117,677.900 us,26 B,,SP,55,Write Transaction,14 00 03 1D 74 03 F0 EF 06 D9 DD 06 A5 5A 00 00 00 00 00 00 FF F4 00 5B FC 2A
0,1356,0:23.483.064,116.300 us,3 B,,SP,55,Read Transaction,00 00 18*
0,1357,0:23.487.459,79.100 us,2 B,,SP,55,Write Transaction,00 00
0,1358,0:23.492.807,86.700 us,2 B,,SP,55,Read Transaction,00 08*
0,1359,0:23.493.169,79.100 us,2 B,,SP,55,Write Transaction,12 01
0,1360,0:23.498.520,659.600 us,25 B,,SP,55,Read Transaction,00 00 00 00 00 02 80 64 00 00 00 00 00 00 00 00 00 00 00 00 00 00 01 03 00*
0,1361,0:23.507.106,676.900 us,26 B,,SP,55,Write Transaction,14 00 03 22 3D 03 F6 34 06 DC F1 06 A7 2D 00 00 00 00 00 00 FF F4 00 5B FC 30
0,1362,0:23.523.050,116.300 us,3 B,,SP,55,Read Transaction,00 00 18*
0,1363,0:23.527.443,79.100 us,2 B,,SP,55,Write Transaction,00 00
0,1364,0:23.532.793,86.700 us,2 B,,SP,55,Read Transaction,00 08*
0,1365,0:23.533.156,79.000 us,2 B,,SP,55,Write Transaction,12 01
0,1366,0:23.538.557,660.600 us,25 B,,SP,55,Read Transaction,00 00 00 00 00 02 80 64 00 00 00 00 00 00 00 00 00 00 00 00 00 00 01 03 00*
0,1367,0:23.547.002,676.900 us,26 B,,SP,55,Write Transaction,14 00 03 26 F1 03 FB 76 06 E1 A5 06 AA 5C 00 00 00 00 00 00 FF F0 00 60 FC 2C
0,1368,0:23.562.944,116.500 us,3 B,,SP,55,Read Transaction,00 00 18*
0,1369,0:23.567.341,79.100 us,2 B,,SP,55,Write Transaction,00 00
0,1370,0:23.572.691,86.800 us,2 B,,SP,55,Read Transaction,00 08*
0,1371,0:23.573.060,79.000 us,2 B,,SP,55,Write Transaction,12 01
0,1372,0:23.578.412,659.400 us,25 B,,SP,55,Read Transaction,00 00 00 00 00 02 80 64 00 00 00 00 00 00 00 00 00 00 00 00 00 00 01 03 00*
0,1373,0:23.586.959,676.900 us,26 B,,SP,55,Write Transaction,14 00 03 2B 84 04 00 E6 06 E3 6D 06 AA E1 00 00 00 00 00 00 FF EE 00 60 FC 30
0,1374,0:23.602.898,116.100 us,3 B,,SP,55,Read Transaction,00 00 18*
0,1375,0:23.607.294,79.200 us,2 B,,SP,55,Write Transaction,00 00
0,1376,0:23.612.650,86.900 us,2 B,,SP,55,Read Transaction,00 08*
0,1377,0:23.613.013,79.200 us,2 B,,SP,55,Write Transaction,12 01
0,1378,0:23.618.367,659.600 us,25 B,,SP,55,Read Transaction,00 00 00 00 00 02 80 64 00 00 00 00 00 00 00 00 00 00 00 00 00 00 01 03 00*
0,1379,0:23.626.913,678.000 us,26 B,,SP,55,Write Transaction,14 00 03 2F 8E 04 05 C4 06 E6 0A 06 AC C5 00 00 00 00 00 00 FF EE 00 5E FC 2F
0,1380,0:23.642.861,116.100 us,3 B,,SP,55,Read Transaction,00 00 18*
0,1381,0:23.647.256,79.000 us,2 B,,SP,55,Write Transaction,00 00
0,1382,0:23.652.606,86.700 us,2 B,,SP,55,Read Transaction,00 08*
0,1383,0:23.652.969,79.000 us,2 B,,SP,55,Write Transaction,12 01
0,1384,0:23.658.320,660.500 us,25 B,,SP,55,Read Transaction,00 00 00 00 00 02 80 64 00 00 00 00 00 00 00 00 00 00 00 00 00 00 01 03 00*
0,1385,0:23.666.848,677.000 us,26 B,,SP,55,Write Transaction,14 00 03 33 25 04 0A 24 06 E3 E9 06 A9 B2 00 00 00 00 00 00 FF F2 00 5C FC 28
0,1386,0:23.682.790,116.400 us,3 B,,SP,55,Read Transaction,00 00 18*
0,1387,0:23.687.186,79.000 us,2 B,,SP,55,Write Transaction,00 00
0,1388,0:23.692.536,86.800 us,2 B,,SP,55,Read Transaction,00 08*
0,1389,0:23.692.898,79.000 us,2 B,,SP,55,Write Transaction,12 01
0,1390,0:23.698.248,659.200 us,25 B,,SP,55,Read Transaction,00 00 00 00 00 02 80 64 00 00 00 00 00 00 00 00 00 00 00 00 00 00 01 03 00*
0,1391,0:23.706.799,677.000 us,26 B,,SP,55,Write Transaction,14 00 03 35 72 04 0D 36 06 E3 23 06 A9 82 00 00 00 00 00 00 FF F3 00 62 FC 2C
0,1392,0:23.722.741,116.300 us,3 B,,SP,55,Read Transaction,00 00 18*
0,1393,0:23.727.133,79.100 us,2 B,,SP,55,Write Transaction,00 00
0,1394,0:23.732.485,86.700 us,2 B,,SP,55,Read Transaction,00 08*
0,1395,0:23.732.847,79.100 us,2 B,,SP,55,Write Transaction,12 01
0,1396,0:23.738.196,659.700 us,25 B,,SP,55,Read Transaction,00 00 00 00 00 02 80 64 00 00 00 00 00 00 00 00 00 00 00 00 00 00 01 03 00*
0,1397,0:23.746.746,677.000 us,26 B,,SP,55,Write Transaction,14 00 03 39 92 04 11 C3 06 E6 F7 06 AB 59 00 00 00 00 00 00 FF F2 00 5D FC 2E
0,1398,0:23.762.686,116.300 us,3 B,,SP,55,Read Transaction,00 00 18*
0,1399,0:23.767.081,79.100 us,2 B,,SP,55,Write Transaction,00 00
0,1400,0:23.772.431,86.700 us,2 B,,SP,55,Read Transaction,00 08*
0,1401,0:23.772.792,79.000 us,2 B,,SP,55,Write Transaction,12 01
0,1402,0:23.778.143,659.700 us,25 B,,SP,55,Read Transaction,00 00 00 00 00 02 80 64 00 00 00 00 00 00 00 00 00 00 00 00 00 00 01 03 00*
0,1403,0:23.786.720,676.900 us,26 B,,SP,55,Write Transaction,14 00 03 38 75 04 10 C1 06 E0 D5 06 A7 80 00 00 00 00 00 00 FF EF 00 5F FC 30
0,1404,0:23.802.660,116.300 us,3 B,,SP,55,Read Transaction,00 00 18*
0,1405,0:23.807.050,79.100 us,2 B,,SP,55,Write Transaction,00 00
0,1406,0:23.812.401,86.700 us,2 B,,SP,55,Read Transaction,00 08*
0,1407,0:23.812.763,79.100 us,2 B,,SP,55,Write Transaction,12 01
0,1408,0:23.818.111,659.700 us,25 B,,SP,55,Read Transaction,00 00 00 00 00 02 80 64 00 00 00 00 00 00 00 00 00 00 00 00 00 00 01 03 00*
0,1409,0:23.826.630,676.900 us,26 B,,SP,55,Write Transaction,14 00 03 2A F0 04 03 46 06 D4 2E 06 A2 0A 00 00 00 00 00 00 FF F5 00 5F FC 32
0,1410,0:23.842.574,116.300 us,3 B,,SP,55,Read Transaction,00 00 18*
0,1411,0:23.846.968,79.000 us,2 B,,SP,55,Write Transaction,00 00
0,1412,0:23.852.317,86.700 us,2 B,,SP,55,Read Transaction,00 08*
0,1413,0:23.852.678,79.100 us,2 B,,SP,55,Write Transaction,12 01
0,1414,0:23.858.029,659.600 us,25 B,,SP,55,Read Transaction,00 00 00 00 00 02 80 64 00 00 00 00 00 00 00 00 00 00 00 00 00 00 01 03 00*
0,1415,0:23.866.591,676.900 us,26 B,,SP,55,Write Transaction,14 00 03 1B F4 03 F4 A1 06 CB 91 06 9E DD 00 00 00 00 00 00 FF F2 00 61 FC 2E
0,1416,0:23.882.531,116.300 us,3 B,,SP,55,Read Transaction,00 00 18*
0,1417,0:23.886.924,79.100 us,2 B,,SP,55,Write Transaction,00 00
0,1418,0:23.892.278,86.700 us,2 B,,SP,55,Read Transaction,00 08*
0,1419,0:23.892.641,79.100 us,2 B,,SP,55,Write Transaction,12 01
0,1420,0:23.897.991,659.600 us,25 B,,SP,55,Read Transaction,00 00 00 00 00 02 80 64 00 00 00 00 00 00 00 00 00 00 00 00 00 00 01 03 00*
0,1421,0:23.906.544,676.900 us,26 B,,SP,55,Write Transaction,14 00 03 13 13 03 EC 9D 06 CA AF 06 9F D3 00 00 00 00 00 00 FF EF 00 5F FC 28
0,1422,0:23.922.486,116.300 us,3 B,,SP,55,Read Transaction,00 00 18*
0,1423,0:23.926.880,79.200 us,2 B,,SP,55,Write Transaction,00 00
0,1424,0:23.932.238,86.800 us,2 B,,SP,55,Read Transaction,00 08*
0,1425,0:23.932.602,79.100 us,2 B,,SP,55,Write Transaction,12 01
0,1426,0:23.937.951,659.600 us,25 B,,SP,55,Read Transaction,00 00 00 00 00 02 80 64 00 00 00 00 00 00 00 00 00 00 00 00 00 00 01 03 00*
0,1427,0:23.946.444,676.900 us,26 B,,SP,55,Write Transaction,14 00 03 0F 39 03 E9 B8 06 C9 A5 06 9F 19 00 00 00 00 00 00 FF F1 00 5F FC 34
0,1428,0:23.962.382,116.400 us,3 B,,SP,55,Read Transaction,00 00 18*
0,1429,0:23.966.773,79.100 us,2 B,,SP,55,Write Transaction,00 00
0,1430,0:23.972.135,86.700 us,2 B,,SP,55,Read Transaction,00 08*
0,1431,0:23.972.498,79.100 us,2 B,,SP,55,Write Transaction,12 01
0,1432,0:23.977.848,659.600 us,25 B,,SP,55,Read Transaction,00 00 00 00 00 02 80 64 00 00 00 00 00 00 00 00 00 00 00 00 00 00 01 03 00*
0,1433,0:23.986.428,676.900 us,26 B,,SP,55,Write Transaction,14 00 03 0C 86 03 E7 5E 06 C7 52 06 9D CE 00 00 00 00 00 00 FF EB 00 5F FC 30
0,1434,0:24.002.379,116.400 us,3 B,,SP,55,Read Transaction,00 00 18*
0,1435,0:24.006.771,79.100 us,2 B,,SP,55,Write Transaction,00 00
0,1436,0:24.012.121,86.700 us,2 B,,SP,55,Read Transaction,00 08*
0,1437,0:24.012.484,79.100 us,2 B,,SP,55,Write Transaction,12 01
0,1438,0:24.017.836,659.900 us,25 B,,SP,55,Read Transaction,00 00 00 00 00 02 80 64 00 00 00 00 00 00 00 00 00 00 00 00 00 00 01 03 00*
0,1439,0:24.026.327,677.900 us,26 B,,SP,55,Write Transaction,14 00 03 0C 84 03 E7 C5 06 C8 4B 06 9E 89 00 00 00 00 00 00 FF ED 00 5D FC 24
0,1440,0:24.042.271,116.300 us,3 B,,SP,55,Read Transaction,00 00 18*
0,1441,0:24.046.665,79.000 us,2 B,,SP,55,Write Transaction,00 00
0,1442,0:24.052.014,86.700 us,2 B,,SP,55,Read Transaction,00 08*
0,1443,0:24.052.375,79.100 us,2 B,,SP,55,Write Transaction,12 01
0,1444,0:24.057.729,659.600 us,25 B,,SP,55,Read Transaction,00 00 00 00 00 02 80 64 00 00 00 00 00 00 00 00 00 00 00 00 00 00 01 03 00*
0,1445,0:24.066.323,676.800 us,26 B,,SP,55,Write Transaction,14 00 03 0D EC 03 E9 9F 06 C8 56 06 9D DF 00 00 00 00 00 00 FF F2 00 59 FC 2F
0,1446,0:24.082.275,116.400 us,3 B,,SP,55,Read Transaction,00 00 18*
0,1447,0:24.086.671,79.000 us,2 B,,SP,55,Write Transaction,00 00
0,1448,0:24.092.021,86.600 us,2 B,,SP,55,Read Transaction,00 08*
0,1449,0:24.092.383,79.000 us,2 B,,SP,55,Write Transaction,12 01
0,1450,0:24.097.731,660.500 us,25 B,,SP,55,Read Transaction,00 00 00 00 00 02 80 64 00 00 00 00 00 00 00 00 00 00 00 00 00 00 01 03 00*
0,1451,0:24.106.209,676.900 us,26 B,,SP,55,Write Transaction,14 00 03 0E 87 03 EA 38 06 C8 B8 06 9E 46 00 00 00 00 00 00 FF EE 00 5D FC 31
0,1452,0:24.122.159,116.300 us,3 B,,SP,55,Read Transaction,00 00 18*
0,1453,0:24.126.553,79.100 us,2 B,,SP,55,Write Transaction,00 00
0,1454,0:24.131.903,86.700 us,2 B,,SP,55,Read Transaction,00 08*
0,1455,0:24.132.264,79.100 us,2 B,,SP,55,Write Transaction,12 01
0,1456,0:24.137.615,659.600 us,25 B,,SP,55,Read Transaction,00 00 00 00 00 02 80 64 00 00 00 00 00 00 00 00 00 00 00 00 00 00 01 03 00*
0,1457,0:24.146.205,677.000 us,26 B,,SP,55,Write Transaction,14 00 03 0F 4D 03 EB 39 06 CB 01 06 A0 3B 00 00 00 00 00 00 FF F1 00 5C FC 2F
0,1458,0:24.162.151,116.300 us,3 B,,SP,55,Read Transaction,00 00 18*
0,1459,0:24.166.544,79.100 us,2 B,,SP,55,Write Transaction,00 00
0,1460,0:24.171.895,86.700 us,2 B,,SP,55,Read Transaction,00 08*
0,1461,0:24.172.258,79.100 us,2 B,,SP,55,Write Transaction,12 01
0,1462,0:24.177.608,659.500 us,25 B,,SP,55,Read Transaction,00 00 00 00 00 02 80 64 00 00 00 00 00 00 00 00 00 00 00 00 00 00 01 03 00*
0,1463,0:24.186.127,676.900 us,26 B,,SP,55,Write Transaction,14 00 03 11 BC 03 ED C9 06 CF 48 06 A3 51 00 00 00 00 00 00 FF EE 00 62 FC 2E
0,1464,0:24.202.069,116.400 us,3 B,,SP,55,Read Transaction,00 00 18*
0,1465,0:24.206.469,79.200 us,2 B,,SP,55,Write Transaction,00 00
0,1466,0:24.211.819,86.700 us,2 B,,SP,55,Read Transaction,00 08*
0,1467,0:24.212.182,79.000 us,2 B,,SP,55,Write Transaction,12 01
0,1468,0:24.217.531,659.600 us,25 B,,SP,55,Read Transaction,00 00 00 00 00 02 80 64 00 00 00 00 00 00 00 00 00 00 00 00 00 00 01 03 00*
0,1469,0:24.226.060,676.900 us,26 B,,SP,55,Write Transaction,14 00 03 15 78 03 F1 CD 06 D2 20 06 A4 83 00 00 00 00 00 00 FF EF 00 60 FC 30
0,1470,0:24.241.996,116.200 us,3 B,,SP,55,Read Transaction,00 00 18*
0,1471,0:24.246.387,79.100 us,2 B,,SP,55,Write Transaction,00 00
0,1472,0:24.251.737,86.600 us,2 B,,SP,55,Read Transaction,00 08*
0,1473,0:24.252.099,79.100 us,2 B,,SP,55,Write Transaction,12 01
0,1474,0:24.257.450,659.500 us,25 B,,SP,55,Read Transaction,00 00 00 00 00 02 80 64 00 00 00 00 00 00 00 00 00 00 00 00 00 00 01 03 00*
0,1475,0:24.266.052,676.800 us,26 B,,SP,55,Write Transaction,14 00 03 19 D3 03 F6 11 06 D4 10 06 A5 38 00 00 00 00 00 00 FF F2 00 62 FC 2D
0,1476,0:24.281.989,116.300 us,3 B,,SP,55,Read Transaction,00 00 18*
0,1477,0:24.286.383,79.100 us,2 B,,SP,55,Write Transaction,00 00
0,1478,0:24.291.735,86.700 us,2 B,,SP,55,Read Transaction,00 08*
0,1479,0:24.292.097,79.000 us,2 B,,SP,55,Write Transaction,12 01
0,1480,0:24.297.445,659.500 us,25 B,,SP,55,Read Transaction,00 00 00 00 00 02 80 64 23 ED 64 00 00 00 00 00 00 00 00 00 00 00 01 03 00*
0,1481,0:24.305.935,676.900 us,26 B,,SP,55,Write Transaction,14 00 03 1E DC 03 FB 18 06 D9 56 06 A8 D8 00 00 00 00 00 00 FF F1 00 5F FC 30
0,1482,0:24.321.872,116.300 us,3 B,,SP,55,Read Transaction,00 00 18*
0,1483,0:24.326.266,79.000 us,2 B,,SP,55,Write Transaction,00 00
0,1484,0:24.331.614,86.700 us,2 B,,SP,55,Read Transaction,00 08*
0,1485,0:24.331.975,79.000 us,2 B,,SP,55,Write Transaction,12 01
0,1486,0:24.337.326,659.500 us,25 B,,SP,55,Read Transaction,00 00 00 00 00 02 80 64 00 00 00 00 00 00 00 00 00 00 00 00 00 00 01 03 00*
0,1487,0:24.345.952,676.900 us,26 B,,SP,55,Write Transaction,14 00 03 23 80 04 00 29 06 DD 2F 06 AA E4 00 00 00 00 00 00 FF EE 00 61 FC 2F
0,1488,0:24.361.904,116.300 us,3 B,,SP,55,Read Transaction,00 00 18*
0,1489,0:24.366.296,79.000 us,2 B,,SP,55,Write Transaction,00 00
0,1490,0:24.371.648,86.800 us,2 B,,SP,55,Read Transaction,00 08*
0,1491,0:24.372.010,79.100 us,2 B,,SP,55,Write Transaction,12 01
0,1492,0:24.377.359,660.100 us,25 B,,SP,55,Read Transaction,00 00 00 00 00 02 80 64 00 00 00 00 00 00 00 00 00 00 00 00 00 00 01 03 00*
0,1493,0:24.385.822,677.900 us,26 B,,SP,55,Write Transaction,14 00 03 27 70 04 04 84 06 E0 0D 06 AC B4 00 00 00 00 00 00 FF F3 00 5E FC 30
0,1494,0:24.401.772,116.400 us,3 B,,SP,55,Read Transaction,00 00 18*
0,1495,0:24.406.169,79.200 us,2 B,,SP,55,Write Transaction,00 00
0,1496,0:24.411.520,86.700 us,2 B,,SP,55,Read Transaction,00 08*
0,1497,0:24.411.882,79.000 us,2 B,,SP,55,Write Transaction,12 01
0,1498,0:24.417.231,659.600 us,25 B,,SP,55,Read Transaction,00 00 00 00 00 02 80 64 00 00 00 00 00 00 00 00 00 00 00 00 00 00 01 03 00*
0,1499,0:24.426.219,676.900 us,26 B,,SP,55,Write Transaction,14 00 03 2B 10 04 08 A9 06 E3 07 06 AE B0 00 00 00 00 00 00 FF F1 00 5E FC 2F
0,1500,0:24.442.170,116.300 us,3 B,,SP,55,Read Transaction,00 00 18*
0,1501,0:24.446.564,79.100 us,2 B,,SP,55,Write Transaction,00 00
0,1502,0:24.451.915,86.700 us,2 B,,SP,55,Read Transaction,00 08*
0,1503,0:24.452.277,79.100 us,2 B,,SP,55,Write Transaction,12 01
0,1504,0:24.457.629,659.600 us,25 B,,SP,55,Read Transaction,00 00 00 00 00 02 80 64 00 00 00 00 00 00 00 00 00 00 00 00 00 00 01 03 00*
0,1505,0:24.465.701,676.800 us,26 B,,SP,55,Write Transaction,14 00 03 2F 37 04 0D 24 06 E5 00 06 AF 43 00 00 00 00 00 00 FF F1 00 62 FC 2D
0,1506,0:24.481.640,116.300 us,3 B,,SP,55,Read Transaction,00 00 18*
0,1507,0:24.486.035,79.100 us,2 B,,SP,55,Write Transaction,00 00
0,1508,0:24.491.383,86.700 us,2 B,,SP,55,Read Transaction,00 08*
0,1509,0:24.491.745,79.100 us,2 B,,SP,55,Write Transaction,12 01
0,1510,0:24.497.094,659.700 us,25 B,,SP,55,Read Transaction,00 00 00 00 00 02 80 64 00 00 00 00 00 00 00 00 00 00 00 00 00 00 01 03 00*
0,1511,0:24.505.714,676.900 us,26 B,,SP,55,Write Transaction,14 00 03 32 BB 04 10 F7 06 E6 AA 06 B0 65 00 00 00 00 00 00 FF F1 00 60 FC 2F
0,1512,0:24.521.654,116.500 us,3 B,,SP,55,Read Transaction,00 00 18*
0,1513,0:24.526.046,79.100 us,2 B,,SP,55,Write Transaction,00 00
0,1514,0:24.531.397,86.700 us,2 B,,SP,55,Read Transaction,00 08*
0,1515,0:24.531.759,79.000 us,2 B,,SP,55,Write Transaction,12 01
0,1516,0:24.537.110,659.600 us,25 B,,SP,55,Read Transaction,00 00 00 00 00 02 80 64 00 00 00 00 00 00 00 00 00 00 00 00 00 00 01 03 00*
0,1517,0:24.545.630,676.900 us,26 B,,SP,55,Write Transaction,14 00 03 36 1E 04 14 A9 06 E8 A1 06 B1 1C 00 00 00 00 00 00 FF EF 00 5C FC 30
0,1518,0:24.561.573,116.300 us,3 B,,SP,55,Read Transaction,00 00 18*
0,1519,0:24.565.968,79.100 us,2 B,,SP,55,Write Transaction,00 00
0,1520,0:24.571.320,86.700 us,2 B,,SP,55,Read Transaction,00 08*
0,1521,0:24.571.681,79.000 us,2 B,,SP,55,Write Transaction,12 01
0,1522,0:24.577.034,659.300 us,25 B,,SP,55,Read Transaction,00 00 00 00 00 02 80 64 00 00 00 00 00 00 00 00 00 00 00 00 00 00 01 03 00*
0,1523,0:24.585.566,676.900 us,26 B,,SP,55,Write Transaction,14 00 03 3A D7 04 19 B4 06 ED 05 06 B3 C3 00 00 00 00 00 00 FF F1 00 60 FC 30
0,1524,0:24.601.512,116.300 us,3 B,,SP,55,Read Transaction,00 00 18*
0,1525,0:24.605.940,79.100 us,2 B,,SP,55,Write Transaction,00 00
0,1526,0:24.611.290,86.800 us,2 B,,SP,55,Read Transaction,00 08*
0,1527,0:24.611.651,79.100 us,2 B,,SP,55,Write Transaction,12 01
0,1528,0:24.617.002,659.600 us,25 B,,SP,55,Read Transaction,00 00 00 00 00 02 80 64 00 00 00 00 00 00 00 00 00 00 00 00 00 00 01 03 00*
0,1529,0:24.625.537,676.900 us,26 B,,SP,55,Write Transaction,14 00 03 3E D9 04 1E 3D 06 F2 3C 06 B7 B4 00 00 00 00 00 00 FF F7 00 5C FC 31
0,1530,0:24.641.479,116.300 us,3 B,,SP,55,Read Transaction,00 00 18*
0,1531,0:24.645.871,79.100 us,2 B,,SP,55,Write Transaction,00 00
0,1532,0:24.651.221,86.700 us,2 B,,SP,55,Read Transaction,00 08*
0,1533,0:24.651.584,79.000 us,2 B,,SP,55,Write Transaction,12 01
0,1534,0:24.656.932,659.700 us,25 B,,SP,55,Read Transaction,00 00 00 00 00 02 80 64 00 00 00 00 00 00 00 00 00 00 00 00 00 00 01 03 00*
0,1535,0:24.665.455,676.900 us,26 B,,SP,55,Write Transaction,14 00 03 42 11 04 21 F3 06 F1 C4 06 B5 FF 00 00 00 00 00 00 FF F3 00 62 FC 30
0,1536,0:24.681.394,116.300 us,3 B,,SP,55,Read Transaction,00 00 18*
0,1537,0:24.685.789,79.100 us,2 B,,SP,55,Write Transaction,00 00
0,1538,0:24.691.140,86.700 us,2 B,,SP,55,Read Transaction,00 08*
0,1539,0:24.691.501,79.100 us,2 B,,SP,55,Write Transaction,12 01
0,1540,0:24.696.851,659.600 us,25 B,,SP,55,Read Transaction,00 00 00 00 00 02 80 64 00 00 00 00 00 00 00 00 00 00 00 00 00 00 01 03 00*
0,1541,0:24.705.402,678.000 us,26 B,,SP,55,Write Transaction,14 00 03 3B 7C 04 1A C4 06 E6 EF 06 B0 22 00 00 00 00 00 00 FF EB 00 60 FC 29
0,1542,0:24.721.346,116.300 us,3 B,,SP,55,Read Transaction,00 00 18*
0,1543,0:24.725.739,79.000 us,2 B,,SP,55,Write Transaction,00 00
0,1544,0:24.731.091,86.700 us,2 B,,SP,55,Read Transaction,00 08*
0,1545,0:24.731.453,79.100 us,2 B,,SP,55,Write Transaction,12 01
0,1546,0:24.736.801,659.600 us,25 B,,SP,55,Read Transaction,00 00 00 00 00 02 80 64 00 00 00 00 00 00 00 00 00 00 00 00 00 00 01 03 00*
0,1547,0:24.745.350,676.900 us,26 B,,SP,55,Write Transaction,14 00 03 2C EB 04 0B C9 06 D8 F1 06 A8 D4 00 00 00 00 00 00 FF F0 00 62 FC 2A
0,1548,0:24.761.293,116.300 us,3 B,,SP,55,Read Transaction,00 00 18*
0,1549,0:24.765.687,79.000 us,2 B,,SP,55,Write Transaction,00 00
0,1550,0:24.771.039,86.700 us,2 B,,SP,55,Read Transaction,00 08*
0,1551,0:24.771.400,79.100 us,2 B,,SP,55,Write Transaction,12 01
0,1552,0:24.776.751,659.700 us,25 B,,SP,55,Read Transaction,00 00 00 00 00 02 80 64 00 00 00 00 00 00 00 00 00 00 00 00 00 00 01 03 00*
0,1553,0:24.785.270,676.400 us,26 B,,SP,55,Write Transaction,14 00 03 20 D2 03 FF 59 06 CF 12 06 A2 E9 00 00 00 00 00 00 FF F2 00 61 FC 35
0,1554,0:24.801.209,116.300 us,3 B,,SP,55,Read Transaction,00 00 18*
0,1555,0:24.805.601,79.100 us,2 B,,SP,55,Write Transaction,00 00
0,1556,0:24.810.952,86.700 us,2 B,,SP,55,Read Transaction,00 08*
0,1557,0:24.811.314,79.100 us,2 B,,SP,55,Write Transaction,12 01
0,1558,0:24.816.666,659.600 us,25 B,,SP,55,Read Transaction,00 00 00 00 00 02 80 64 00 00 00 00 00 00 00 00 00 00 00 00 00 00 01 03 00*
0,1559,0:24.825.266,677.000 us,26 B,,SP,55,Write Transaction,14 00 03 19 96 03 F7 D2 06 CB 51 06 A0 F8 00 00 00 00 00 00 FF EE 00 5C FC 2E
0,1560,0:24.841.212,116.200 us,3 B,,SP,55,Read Transaction,00 00 18*
0,1561,0:24.845.605,79.100 us,2 B,,SP,55,Write Transaction,00 00
0,1562,0:24.850.970,86.700 us,2 B,,SP,55,Read Transaction,00 08*
0,1563,0:24.851.334,79.100 us,2 B,,SP,55,Write Transaction,12 01
0,1564,0:24.856.685,660.500 us,25 B,,SP,55,Read Transaction,00 00 00 00 00 02 80 64 00 00 00 00 00 00 00 00 00 00 00 00 00 00 01 03 00*
0,1565,0:24.865.152,677.800 us,26 B,,SP,55,Write Transaction,14 00 03 15 B7 03 F4 02 06 CA AA 06 A1 65 00 00 00 00 00 00 FF F4 00 63 FC 2E
0,1566,0:24.881.098,116.300 us,3 B,,SP,55,Read Transaction,00 00 18*
0,1567,0:24.885.490,79.100 us,2 B,,SP,55,Write Transaction,00 00
0,1568,0:24.890.846,86.800 us,2 B,,SP,55,Read Transaction,00 08*
0,1569,0:24.891.209,79.200 us,2 B,,SP,55,Write Transaction,12 01
0,1570,0:24.896.568,660.000 us,25 B,,SP,55,Read Transaction,00 00 00 00 00 02 80 64 00 00 00 00 00 00 00 00 00 00 00 00 00 00 01 03 00*
0,1571,0:24.905.153,677.900 us,26 B,,SP,55,Write Transaction,14 00 03 12 5D 03 F0 CA 06 CA 3B 06 A1 E6 00 00 00 00 00 00 FF F5 00 5F FC 2D
0,1572,0:24.921.094,116.300 us,3 B,,SP,55,Read Transaction,00 00 18*
0,1573,0:24.925.489,79.100 us,2 B,,SP,55,Write Transaction,00 00
0,1574,0:24.930.841,86.700 us,2 B,,SP,55,Read Transaction,00 08*
0,1575,0:24.931.203,79.000 us,2 B,,SP,55,Write Transaction,12 01
0,1576,0:24.936.552,659.200 us,25 B,,SP,55,Read Transaction,00 00 00 00 00 02 80 64 00 00 00 00 00 00 00 00 00 00 00 00 00 00 01 03 00*
0,1577,0:24.945.046,676.900 us,26 B,,SP,55,Write Transaction,14 00 03 14 6C 03 F2 C4 06 CF 54 06 A5 17 00 00 00 00 00 00 FF F0 00 5A FC 2E
0,1578,0:24.960.985,116.400 us,3 B,,SP,55,Read Transaction,00 00 18*
0,1579,0:24.965.381,79.100 us,2 B,,SP,55,Write Transaction,00 00
0,1580,0:24.970.733,86.700 us,2 B,,SP,55,Read Transaction,00 08*
0,1581,0:24.971.095,79.100 us,2 B,,SP,55,Write Transaction,12 01
0,1582,0:24.976.446,659.700 us,25 B,,SP,55,Read Transaction,00 00 00 00 00 02 80 64 00 00 00 00 00 00 00 00 00 00 00 00 00 00 01 03 00*
0,1583,0:24.985.068,677.000 us,26 B,,SP,55,Write Transaction,14 00 03 18 7F 03 F6 59 06 D3 5C 06 A7 64 00 00 00 00 00 00 FF F1 00 5E FC 34
0,1584,0:25.001.009,116.400 us,3 B,,SP,55,Read Transaction,00 00 18*
0,1585,0:25.005.403,79.100 us,2 B,,SP,55,Write Transaction,00 00
0,1586,0:25.010.754,86.700 us,2 B,,SP,55,Read Transaction,00 08*
0,1587,0:25.011.116,79.100 us,2 B,,SP,55,Write Transaction,12 01
0,1588,0:25.016.466,659.700 us,25 B,,SP,55,Read Transaction,00 00 00 00 00 02 80 64 00 00 00 00 00 00 00 00 00 00 00 00 00 00 01 03 00*
0,1589,0:25.024.922,676.900 us,26 B,,SP,55,Write Transaction,14 00 03 1B 10 03 F8 78 06 D5 75 06 A8 6B 00 00 00 00 00 00 FF F6 00 61 FC 28
0,1590,0:25.040.867,116.400 us,3 B,,SP,55,Read Transaction,00 00 18*
0,1591,0:25.045.262,79.100 us,2 B,,SP,55,Write Transaction,00 00
0,1592,0:25.050.612,86.700 us,2 B,,SP,55,Read Transaction,00 08*
0,1593,0:25.050.974,79.100 us,2 B,,SP,55,Write Transaction,12 01
0,1594,0:25.056.325,659.700 us,25 B,,SP,55,Read Transaction,00 00 00 00 00 02 80 64 00 00 00 00 00 00 00 00 00 00 00 00 00 00 01 03 00*
0,1595,0:25.064.938,676.900 us,26 B,,SP,55,Write Transaction,14 00 03 1D 44 03 FA 88 06 D5 43 06 A7 DB 00 00 00 00 00 00 FF F0 00 5B FC 31
0,1596,0:25.080.879,116.300 us,3 B,,SP,55,Read Transaction,00 00 18*
0,1597,0:25.085.274,79.200 us,2 B,,SP,55,Write Transaction,00 00
0,1598,0:25.090.630,86.700 us,2 B,,SP,55,Read Transaction,00 08*
0,1599,0:25.090.994,79.000 us,2 B,,SP,55,Write Transaction,12 01
0,1600,0:25.096.344,659.700 us,25 B,,SP,55,Read Transaction,00 00 00 00 00 02 80 64 00 00 00 00 00 00 00 00 00 00 00 00 00 00 01 03 00*
0,1601,0:25.104.852,676.900 us,26 B,,SP,55,Write Transaction,14 00 03 1F 8C 03 FC C2 06 D6 C5 06 A9 45 00 00 00 00 00 00 FF F4 00 5F FC 2E
0,1602,0:25.120.802,116.500 us,3 B,,SP,55,Read Transaction,00 00 18*
0,1603,0:25.125.203,79.100 us,2 B,,SP,55,Write Transaction,00 00
0,1604,0:25.130.552,86.800 us,2 B,,SP,55,Read Transaction,00 08*
0,1605,0:25.130.915,79.000 us,2 B,,SP,55,Write Transaction,12 01
0,1606,0:25.136.267,659.700 us,25 B,,SP,55,Read Transaction,00 00 00 00 00 02 80 64 00 00 00 00 00 00 00 00 00 00 00 00 00 00 01 03 00*
0,1607,0:25.144.785,677.000 us,26 B,,SP,55,Write Transaction,14 00 03 23 D3 04 01 02 06 DA 67 06 AA C8 00 00 00 00 00 00 FF F2 00 5F FC 2B
0,1608,0:25.160.726,116.300 us,3 B,,SP,55,Read Transaction,00 00 18*
0,1609,0:25.165.119,79.000 us,2 B,,SP,55,Write Transaction,00 00
0,1610,0:25.170.468,86.600 us,2 B,,SP,55,Read Transaction,00 08*
0,1611,0:25.170.830,79.000 us,2 B,,SP,55,Write Transaction,12 01
0,1612,0:25.176.189,659.600 us,25 B,,SP,55,Read Transaction,00 00 00 00 00 02 80 64 00 00 00 00 00 00 00 00 00 00 00 00 00 00 01 03 00*
0,1613,0:25.184.743,677.000 us,26 B,,SP,55,Write Transaction,14 00 03 28 99 04 05 D0 06 DE FE 06 AE 06 00 00 00 00 00 00 FF EE 00 62 FC 2A
0,1614,0:25.200.684,116.300 us,3 B,,SP,55,Read Transaction,00 00 18*
0,1615,0:25.205.079,79.100 us,2 B,,SP,55,Write Transaction,00 00
0,1616,0:25.210.432,86.800 us,2 B,,SP,55,Read Transaction,00 08*
0,1617,0:25.210.795,79.200 us,2 B,,SP,55,Write Transaction,12 01
0,1618,0:25.216.147,659.700 us,25 B,,SP,55,Read Transaction,00 00 00 00 00 02 80 64 24 48 64 00 00 00 00 00 00 00 00 00 00 00 01 03 00*
0,1619,0:25.224.681,677.000 us,26 B,,SP,55,Write Transaction,14 00 03 2C BB 04 0A 40 06 E0 E7 06 AE 4D 00 00 00 00 00 00 FF F1 00 5E FC 2E
0,1620,0:25.240.621,116.300 us,3 B,,SP,55,Read Transaction,00 00 18*
0,1621,0:25.245.038,79.100 us,2 B,,SP,55,Write Transaction,00 00
0,1622,0:25.250.391,86.700 us,2 B,,SP,55,Read Transaction,00 08*
0,1623,0:25.250.753,79.100 us,2 B,,SP,55,Write Transaction,12 01
0,1624,0:25.256.104,659.700 us,25 B,,SP,55,Read Transaction,00 00 00 00 00 02 80 64 00 00 00 00 00 00 00 00 00 00 00 00 00 00 01 03 00*
0,1625,0:25.264.646,677.000 us,26 B,,SP,55,Write Transaction,14 00 03 30 BB 04 0E 41 06 E1 D3 06 AE 64 00 00 00 00 00 00 FF EC 00 5F FC 2B
0,1626,0:25.280.587,116.300 us,3 B,,SP,55,Read Transaction,00 00 18*
0,1627,0:25.284.979,79.100 us,2 B,,SP,55,Write Transaction,00 00
0,1628,0:25.290.329,86.700 us,2 B,,SP,55,Read Transaction,00 08*
0,1629,0:25.290.692,79.100 us,2 B,,SP,55,Write Transaction,12 01
0,1630,0:25.296.040,659.500 us,25 B,,SP,55,Read Transaction,00 00 00 00 00 02 80 64 00 00 00 00 00 00 00 00 00 00 00 00 00 00 01 03 00*
0,1631,0:25.304.570,677.000 us,26 B,,SP,55,Write Transaction,14 00 03 33 D2 04 11 8E 06 E3 71 06 AF A4 00 00 00 00 00 00 FF EC 00 5E FC 2E
0,1632,0:25.320.509,116.300 us,3 B,,SP,55,Read Transaction,00 00 18*
0,1633,0:25.324.902,79.100 us,2 B,,SP,55,Write Transaction,00 00
0,1634,0:25.330.252,86.700 us,2 B,,SP,55,Read Transaction,00 08*
0,1635,0:25.330.613,79.100 us,2 B,,SP,55,Write Transaction,12 01
0,1636,0:25.335.964,659.100 us,25 B,,SP,55,Read Transaction,00 00 00 00 00 02 80 64 00 00 00 00 00 00 00 00 00 00 00 00 00 00 01 03 00*
0,1637,0:25.344.538,676.800 us,26 B,,SP,55,Write Transaction,14 00 03 37 78 04 15 86 06 E6 49 06 B1 32 00 00 00 00 00 00 FF F6 00 60 FC 30
0,1638,0:25.360.476,116.300 us,3 B,,SP,55,Read Transaction,00 00 18*
0,1639,0:25.364.869,79.100 us,2 B,,SP,55,Write Transaction,00 00
0,1640,0:25.370.219,86.700 us,2 B,,SP,55,Read Transaction,00 08*
0,1641,0:25.370.582,79.000 us,2 B,,SP,55,Write Transaction,12 01
0,1642,0:25.375.929,659.700 us,25 B,,SP,55,Read Transaction,00 00 00 00 00 02 80 64 00 00 00 00 00 00 00 00 00 00 00 00 00 00 01 03 00*
0,1643,0:25.384.461,676.800 us,26 B,,SP,55,Write Transaction,14 00 03 3B 01 04 19 68 06 E9 CE 06 B3 DD 00 00 00 00 00 00 FF EF 00 60 FC 32
0,1644,0:25.400.399,116.400 us,3 B,,SP,55,Read Transaction,00 00 18*
0,1645,0:25.404.797,79.200 us,2 B,,SP,55,Write Transaction,00 00
0,1646,0:25.410.150,86.700 us,2 B,,SP,55,Read Transaction,00 08*
0,1647,0:25.410.512,79.000 us,2 B,,SP,55,Write Transaction,12 01
0,1648,0:25.415.862,659.600 us,25 B,,SP,55,Read Transaction,00 00 00 00 00 02 80 64 00 00 00 00 00 00 00 00 00 00 00 00 00 00 01 03 00*
0,1649,0:25.424.378,676.900 us,26 B,,SP,55,Write Transaction,14 00 03 3E 45 04 1D 0D 06 EB D0 06 B4 F2 00 00 00 00 00 00 FF F1 00 5C FC 2A
0,1650,0:25.440.320,116.300 us,3 B,,SP,55,Read Transaction,00 00 18*
0,1651,0:25.444.713,79.100 us,2 B,,SP,55,Write Transaction,00 00
0,1652,0:25.450.063,86.700 us,2 B,,SP,55,Read Transaction,00 08*
0,1653,0:25.450.426,79.100 us,2 B,,SP,55,Write Transaction,12 01
0,1654,0:25.455.775,659.300 us,25 B,,SP,55,Read Transaction,00 00 00 00 00 02 80 64 00 00 00 00 00 00 00 00 00 00 00 00 00 00 01 03 00*
0,1655,0:25.464.388,677.800 us,26 B,,SP,55,Write Transaction,14 00 03 41 DD 04 20 F8 06 ED 91 06 B5 9D 00 00 00 00 00 00 FF F4 00 5D FC 30
0,1656,0:25.480.338,116.400 us,3 B,,SP,55,Read Transaction,00 00 18*
0,1657,0:25.484.736,79.000 us,2 B,,SP,55,Write Transaction,00 00
0,1658,0:25.490.085,86.700 us,2 B,,SP,55,Read Transaction,00 08*
0,1659,0:25.490.448,79.100 us,2 B,,SP,55,Write Transaction,12 01
0,1660,0:25.495.796,659.600 us,25 B,,SP,55,Read Transaction,00 00 00 00 00 02 80 64 00 00 00 00 00 00 00 00 00 00 00 00 00 00 01 03 00*
0,1661,0:25.504.274,677.000 us,26 B,,SP,55,Write Transaction,14 00 03 45 BD 04 25 27 06 F0 F3 06 B7 9F 00 00 00 00 00 00 FF EB 00 62 FC 30
0,1662,0:25.520.213,116.100 us,3 B,,SP,55,Read Transaction,00 00 18*
0,1663,0:25.524.604,79.100 us,2 B,,SP,55,Write Transaction,00 00
0,1664,0:25.529.954,86.700 us,2 B,,SP,55,Read Transaction,00 08*
0,1665,0:25.530.316,79.100 us,2 B,,SP,55,Write Transaction,12 01
0,1666,0:25.535.667,659.600 us,25 B,,SP,55,Read Transaction,00 00 00 00 00 02 80 64 00 00 00 00 00 00 00 00 00 00 00 00 00 00 01 03 00*
0,1667,0:25.544.272,677.000 us,26 B,,SP,55,Write Transaction,14 00 03 49 BE 04 29 8C 06 F2 31 06 B7 3E 00 00 00 00 00 00 FF F4 00 5D FC 2C
0,1668,0:25.560.228,116.500 us,3 B,,SP,55,Read Transaction,00 00 18*
0,1669,0:25.564.626,79.200 us,2 B,,SP,55,Write Transaction,00 00
0,1670,0:25.569.985,86.800 us,2 B,,SP,55,Read Transaction,00 08*
0,1671,0:25.570.348,79.100 us,2 B,,SP,55,Write Transaction,12 01
0,1672,0:25.575.697,659.600 us,25 B,,SP,55,Read Transaction,00 00 00 00 00 02 80 64 00 00 00 00 00 00 00 00 00 00 00 00 00 00 01 03 00*
0,1673,0:25.584.155,676.900 us,26 B,,SP,55,Write Transaction,14 00 03 48 EB 04 28 AA 06 EC 2E 06 B3 1E 00 00 00 00 00 00 FF F1 00 61 FC 2F
0,1674,0:25.600.094,116.300 us,3 B,,SP,55,Read Transaction,00 00 18*
0,1675,0:25.604.489,79.100 us,2 B,,SP,55,Write Transaction,00 00
0,1676,0:25.609.839,86.700 us,2 B,,SP,55,Read Transaction,00 08*
0,1677,0:25.610.201,79.100 us,2 B,,SP,55,Write Transaction,12 01
0,1678,0:25.615.552,659.600 us,25 B,,SP,55,Read Transaction,00 00 00 00 00 02 80 64 00 00 00 00 00 00 00 00 00 00 00 00 00 00 01 03 00*
0,1679,0:25.624.177,677.000 us,26 B,,SP,55,Write Transaction,14 00 03 3C 80 04 1B 86 06 E0 19 06 AD 84 00 00 00 00 00 00 FF F3 00 5E FC 2C
0,1680,0:25.640.118,116.300 us,3 B,,SP,55,Read Transaction,00 00 18*
0,1681,0:25.644.510,79.000 us,2 B,,SP,55,Write Transaction,00 00
0,1682,0:25.649.861,86.700 us,2 B,,SP,55,Read Transaction,00 08*
0,1683,0:25.650.224,79.000 us,2 B,,SP,55,Write Transaction,12 01
0,1684,0:25.655.573,659.600 us,25 B,,SP,55,Read Transaction,00 00 00 00 00 02 80 64 00 00 00 00 00 00 00 00 00 00 00 00 00 00 01 03 00*
0,1685,0:25.664.083,677.000 us,26 B,,SP,55,Write Transaction,14 00 03 2F 07 04 0D CE 06 D6 E4 06 A9 06 00 00 00 00 00 00 FF F1 00 61 FC 2C
0,1686,0:25.680.025,116.100 us,3 B,,SP,55,Read Transaction,00 00 18*
0,1687,0:25.684.420,79.100 us,2 B,,SP,55,Write Transaction,00 00
0,1688,0:25.689.770,86.600 us,2 B,,SP,55,Read Transaction,00 08*
0,1689,0:25.690.131,79.100 us,2 B,,SP,55,Write Transaction,12 01
0,1690,0:25.695.482,659.600 us,25 B,,SP,55,Read Transaction,00 00 00 00 00 02 80 64 00 00 00 00 00 00 00 00 00 00 00 00 00 00 01 03 00*
0,1691,0:25.704.012,676.800 us,26 B,,SP,55,Write Transaction,14 00 03 26 53 04 04 6C 06 D0 90 06 A4 F9 00 00 00 00 00 00 FF F1 00 5E FC 2A
0,1692,0:25.719.968,116.500 us,3 B,,SP,55,Read Transaction,00 00 18*
0,1693,0:25.724.363,79.000 us,2 B,,SP,55,Write Transaction,00 00
0,1694,0:25.729.716,86.700 us,2 B,,SP,55,Read Transaction,00 08*
0,1695,0:25.730.078,79.000 us,2 B,,SP,55,Write Transaction,12 01
0,1696,0:25.735.429,659.700 us,25 B,,SP,55,Read Transaction,00 00 00 00 00 02 80 64 00 00 00 00 00 00 00 00 00 00 00 00 00 00 01 03 00*
0,1697,0:25.744.024,676.900 us,26 B,,SP,55,Write Transaction,14 00 03 20 86 03 FE 3E 06 CD A5 06 A3 F2 00 00 00 00 00 00 FF F3 00 61 FC 30
0,1698,0:25.759.976,116.300 us,3 B,,SP,55,Read Transaction,00 00 18*
0,1699,0:25.764.371,79.100 us,2 B,,SP,55,Write Transaction,00 00
0,1700,0:25.769.719,86.700 us,2 B,,SP,55,Read Transaction,00 08*
0,1701,0:25.770.082,79.100 us,2 B,,SP,55,Write Transaction,12 01
0,1702,0:25.775.432,659.100 us,25 B,,SP,55,Read Transaction,00 00 00 00 00 02 80 64 00 00 00 00 00 00 00 00 00 00 00 00 00 00 01 03 00*
0,1703,0:25.783.892,676.900 us,26 B,,SP,55,Write Transaction,14 00 03 1C F6 03 FA E7 06 CD DD 06 A4 BC 00 00 00 00 00 00 FF F7 00 5F FC 2F
0,1704,0:25.799.845,116.400 us,3 B,,SP,55,Read Transaction,00 00 18*
0,1705,0:25.804.238,79.100 us,2 B,,SP,55,Write Transaction,00 00
0,1706,0:25.809.590,86.700 us,2 B,,SP,55,Read Transaction,00 08*
0,1707,0:25.809.953,79.100 us,2 B,,SP,55,Write Transaction,12 01
0,1708,0:25.815.303,659.600 us,25 B,,SP,55,Read Transaction,00 00 00 00 00 02 80 64 00 00 00 00 00 00 00 00 00 00 00 00 00 00 01 03 00*
0,1709,0:25.823.904,676.900 us,26 B,,SP,55,Write Transaction,14 00 03 1E 32 03 FB F9 06 D1 A7 06 A6 F2 00 00 00 00 00 00 FF F7 00 5D FC 2E
0,1710,0:25.839.868,116.300 us,3 B,,SP,55,Read Transaction,00 00 18*
0,1711,0:25.844.262,79.000 us,2 B,,SP,55,Write Transaction,00 00
0,1712,0:25.849.612,86.700 us,2 B,,SP,55,Read Transaction,00 08*
0,1713,0:25.849.974,79.100 us,2 B,,SP,55,Write Transaction,12 01
0,1714,0:25.855.321,659.600 us,25 B,,SP,55,Read Transaction,00 00 00 00 00 02 80 64 00 00 00 00 00 00 00 00 00 00 00 00 00 00 01 03 00*
0,1715,0:25.863.795,676.800 us,26 B,,SP,55,Write Transaction,14 00 03 21 DD 03 FF 28 06 D6 54 06 A9 EB 00 00 00 00 00 00 FF EE 00 5C FC 2F
0,1716,0:25.879.737,116.400 us,3 B,,SP,55,Read Transaction,00 00 18*
0,1717,0:25.884.133,79.100 us,2 B,,SP,55,Write Transaction,00 00
0,1718,0:25.889.481,86.700 us,2 B,,SP,55,Read Transaction,00 08*
0,1719,0:25.889.843,79.000 us,2 B,,SP,55,Write Transaction,12 01
0,1720,0:25.895.193,660.000 us,25 B,,SP,55,Read Transaction,00 00 00 00 00 02 80 64 00 00 00 00 00 00 00 00 00 00 00 00 00 00 01 03 00*
0,1721,0:25.903.822,676.800 us,26 B,,SP,55,Write Transaction,14 00 03 22 83 03 FF 9A 06 D6 41 06 AA 07 00 00 00 00 00 00 FF F6 00 60 FC 31
0,1722,0:25.919.769,116.300 us,3 B,,SP,55,Read Transaction,00 00 18*
0,1723,0:25.924.162,79.100 us,2 B,,SP,55,Write Transaction,00 00
0,1724,0:25.929.514,86.700 us,2 B,,SP,55,Read Transaction,00 08*
0,1725,0:25.929.876,79.100 us,2 B,,SP,55,Write Transaction,12 01
0,1726,0:25.935.225,659.500 us,25 B,,SP,55,Read Transaction,00 00 00 00 00 02 80 64 00 00 00 00 00 00 00 00 00 00 00 00 00 00 01 03 00*
0,1727,0:25.943.678,676.900 us,26 B,,SP,55,Write Transaction,14 00 03 23 13 04 00 07 06 D8 A2 06 AC 66 00 00 00 00 00 00 FF F3 00 6A FC 28
0,1728,0:25.959.615,116.300 us,3 B,,SP,55,Read Transaction,00 00 18*
0,1729,0:25.964.013,79.100 us,2 B,,SP,55,Write Transaction,00 00
0,1730,0:25.969.363,86.700 us,2 B,,SP,55,Read Transaction,00 08*
0,1731,0:25.969.725,79.200 us,2 B,,SP,55,Write Transaction,12 01
0,1732,0:25.975.079,659.600 us,25 B,,SP,55,Read Transaction,00 00 00 00 00 02 80 64 00 00 00 00 00 00 00 00 00 00 00 00 00 00 01 03 00*
0,1733,0:25.983.681,676.900 us,26 B,,SP,55,Write Transaction,14 00 03 25 8F 04 02 A9 06 DA 5B 06 AC D4 00 00 00 00 00 00 FF F7 00 64 FC 30
0,1734,0:25.999.624,116.300 us,3 B,,SP,55,Read Transaction,00 00 18*
0,1735,0:26.004.016,79.100 us,2 B,,SP,55,Write Transaction,00 00
0,1736,0:26.009.369,86.800 us,2 B,,SP,55,Read Transaction,00 08*
0,1737,0:26.009.732,79.000 us,2 B,,SP,55,Write Transaction,12 01
0,1738,0:26.015.135,659.600 us,25 B,,SP,55,Read Transaction,00 00 00 00 00 02 80 64 00 00 00 00 00 00 00 00 00 00 00 00 00 00 01 03 00*
0,1739,0:26.023.578,676.900 us,26 B,,SP,55,Write Transaction,14 00 03 29 19 04 06 18 06 DC 7E 06 AD D7 00 00 00 00 00 00 FF F9 00 5D FC 30
0,1740,0:26.039.524,116.100 us,3 B,,SP,55,Read Transaction,00 00 18*
0,1741,0:26.043.920,79.100 us,2 B,,SP,55,Write Transaction,00 00
0,1742,0:26.049.271,86.700 us,2 B,,SP,55,Read Transaction,00 08*
0,1743,0:26.049.638,79.100 us,2 B,,SP,55,Write Transaction,12 01
0,1744,0:26.054.990,659.700 us,25 B,,SP,55,Read Transaction,00 00 00 00 00 02 80 64 00 00 00 00 00 00 00 00 00 00 00 00 00 00 01 03 00*
0,1745,0:26.063.541,677.000 us,26 B,,SP,55,Write Transaction,14 00 03 2D 7F 04 0A 96 06 E1 22 06 B0 DD 00 00 00 00 00 00 FF F7 00 63 FC 2B
0,1746,0:26.079.493,116.400 us,3 B,,SP,55,Read Transaction,00 00 18*
0,1747,0:26.083.892,79.100 us,2 B,,SP,55,Write Transaction,00 00
0,1748,0:26.089.243,86.700 us,2 B,,SP,55,Read Transaction,00 08*
0,1749,0:26.089.606,79.100 us,2 B,,SP,55,Write Transaction,12 01
0,1750,0:26.094.956,659.700 us,25 B,,SP,55,Read Transaction,00 00 00 00 00 02 80 64 00 00 00 00 00 00 00 00 00 00 00 00 00 00 01 03 00*
0,1751,0:26.103.489,677.000 us,26 B,,SP,55,Write Transaction,14 00 03 31 F2 04 0F 41 06 E5 41 06 B3 A0 00 00 00 00 00 00 FF F5 00 60 FC 2B
0,1752,0:26.119.431,116.300 us,3 B,,SP,55,Read Transaction,00 00 18*
0,1753,0:26.123.824,79.100 us,2 B,,SP,55,Write Transaction,00 00
0,1754,0:26.129.176,86.700 us,2 B,,SP,55,Read Transaction,00 08*
0,1755,0:26.129.539,79.100 us,2 B,,SP,55,Write Transaction,12 01
0,1756,0:26.134.889,659.700 us,25 B,,SP,55,Read Transaction,00 00 00 00 00 02 80 64 23 5D 64 00 00 00 00 00 00 00 00 00 00 00 01 03 00*
0,1757,0:26.143.436,677.000 us,26 B,,SP,55,Write Transaction,14 00 03 36 CC 04 14 5D 06 EB 41 06 B7 A0 00 00 00 00 00 00 FF F4 00 5F FC 30
0,1758,0:26.159.383,116.300 us,3 B,,SP,55,Read Transaction,00 00 18*
0,1759,0:26.163.777,79.100 us,2 B,,SP,55,Write Transaction,00 00
0,1760,0:26.169.127,86.700 us,2 B,,SP,55,Read Transaction,00 08*
0,1761,0:26.169.489,79.100 us,2 B,,SP,55,Write Transaction,12 01
0,1762,0:26.174.841,659.600 us,25 B,,SP,55,Read Transaction,00 00 00 00 00 02 80 64 00 00 00 00 00 00 00 00 00 00 00 00 00 00 01 03 00*
0,1763,0:26.183.391,676.900 us,26 B,,SP,55,Write Transaction,14 00 03 3B CD 04 19 BE 06 F1 4B 06 BB F6 00 00 00 00 00 00 FF F2 00 5F FC 2D
0,1764,0:26.199.334,116.300 us,3 B,,SP,55,Read Transaction,00 00 18*
0,1765,0:26.203.727,79.100 us,2 B,,SP,55,Write Transaction,00 00
0,1766,0:26.209.077,86.700 us,2 B,,SP,55,Read Transaction,00 08*
0,1767,0:26.209.440,79.100 us,2 B,,SP,55,Write Transaction,12 01
0,1768,0:26.214.789,659.800 us,25 B,,SP,55,Read Transaction,00 00 00 00 00 02 80 64 00 00 00 00 00 00 00 00 00 00 00 00 00 00 01 03 00*
0,1769,0:26.223.343,677.000 us,26 B,,SP,55,Write Transaction,14 00 03 3F 86 04 1E 07 06 F3 48 06 BC CD 00 00 00 00 00 00 FF F3 00 5F FC 30
0,1770,0:26.239.283,116.300 us,3 B,,SP,55,Read Transaction,00 00 18*
0,1771,0:26.243.678,79.100 us,2 B,,SP,55,Write Transaction,00 00
0,1772,0:26.249.028,86.700 us,2 B,,SP,55,Read Transaction,00 08*
0,1773,0:26.249.389,79.100 us,2 B,,SP,55,Write Transaction,12 01
0,1774,0:26.254.741,660.600 us,25 B,,SP,55,Read Transaction,00 00 00 00 00 02 80 64 00 00 00 00 00 00 00 00 00 00 00 00 00 00 01 03 00*
0,1775,0:26.263.310,677.100 us,26 B,,SP,55,Write Transaction,14 00 03 43 A1 04 22 5C 06 F4 BA 06 BD 31 00 00 00 00 00 00 FF F3 00 65 FC 2F
0,1776,0:26.279.251,116.300 us,3 B,,SP,55,Read Transaction,00 00 18*
0,1777,0:26.283.644,79.100 us,2 B,,SP,55,Write Transaction,00 00
0,1778,0:26.288.996,86.700 us,2 B,,SP,55,Read Transaction,00 08*
0,1779,0:26.289.359,79.100 us,2 B,,SP,55,Write Transaction,12 01
0,1780,0:26.294.705,659.200 us,25 B,,SP,55,Read Transaction,00 00 00 00 00 02 80 64 00 00 00 00 00 00 00 00 00 00 00 00 00 00 01 03 00*
0,1781,0:26.303.230,676.900 us,26 B,,SP,55,Write Transaction,14 00 03 47 9E 04 26 CA 06 F8 16 06 BF 46 00 00 00 00 00 00 FF F1 00 64 FC 33
0,1782,0:26.319.181,116.300 us,3 B,,SP,55,Read Transaction,00 00 18*
0,1783,0:26.323.576,79.100 us,2 B,,SP,55,Write Transaction,00 00
0,1784,0:26.328.925,86.800 us,2 B,,SP,55,Read Transaction,00 08*
0,1785,0:26.329.287,79.100 us,2 B,,SP,55,Write Transaction,12 01
0,1786,0:26.334.637,659.500 us,25 B,,SP,55,Read Transaction,00 00 00 00 00 02 80 64 00 00 00 00 00 00 00 00 00 00 00 00 00 00 01 03 00*
0,1787,0:26.343.201,676.900 us,26 B,,SP,55,Write Transaction,14 00 03 4B E0 04 2B 68 06 FB 56 06 C1 2A 00 00 00 00 00 00 FF F2 00 63 FC 2C
0,1788,0:26.359.142,116.300 us,3 B,,SP,55,Read Transaction,00 00 18*
0,1789,0:26.363.534,79.000 us,2 B,,SP,55,Write Transaction,00 00
0,1790,0:26.368.884,86.800 us,2 B,,SP,55,Read Transaction,00 08*
0,1791,0:26.369.247,79.100 us,2 B,,SP,55,Write Transaction,12 01
0,1792,0:26.374.598,659.700 us,25 B,,SP,55,Read Transaction,00 00 00 00 00 02 80 64 00 00 00 00 00 00 00 00 00 00 00 00 00 00 01 03 00*
0,1793,0:26.383.161,676.600 us,26 B,,SP,55,Write Transaction,14 00 03 4F FF 04 30 1B 06 FE 84 06 C3 28 00 00 00 00 00 00 FF F1 00 5E FC 2A
0,1794,0:26.399.106,116.200 us,3 B,,SP,55,Read Transaction,00 00 18*
0,1795,0:26.403.501,79.100 us,2 B,,SP,55,Write Transaction,00 00
0,1796,0:26.408.860,86.700 us,2 B,,SP,55,Read Transaction,00 08*
0,1797,0:26.409.224,79.100 us,2 B,,SP,55,Write Transaction,12 01
0,1798,0:26.414.572,659.600 us,25 B,,SP,55,Read Transaction,00 00 00 00 00 02 80 64 00 00 00 00 00 00 00 00 00 00 00 00 00 00 01 03 00*
0,1799,0:26.423.041,677.000 us,26 B,,SP,55,Write Transaction,14 00 03 54 03 04 34 6B 06 FF 80 06 C2 6D 00 00 00 00 00 00 FF F5 00 5E FC 2C
0,1800,0:26.438.981,116.300 us,3 B,,SP,55,Read Transaction,00 00 18*
0,1801,0:26.443.373,79.100 us,2 B,,SP,55,Write Transaction,00 00
0,1802,0:26.448.728,86.800 us,2 B,,SP,55,Read Transaction,00 08*
0,1803,0:26.449.091,79.200 us,2 B,,SP,55,Write Transaction,12 01
0,1804,0:26.454.442,659.600 us,25 B,,SP,55,Read Transaction,00 00 00 00 00 02 80 64 00 00 00 00 00 00 00 00 00 00 00 00 00 00 01 03 00*
0,1805,0:26.463.059,676.900 us,26 B,,SP,55,Write Transaction,14 00 03 4F 86 04 2F BD 06 F4 7A 06 BB AF 00 00 00 00 00 00 FF EE 00 5D FC 30
0,1806,0:26.479.000,116.300 us,3 B,,SP,55,Read Transaction,00 00 18*
0,1807,0:26.483.393,79.100 us,2 B,,SP,55,Write Transaction,00 00
0,1808,0:26.488.743,86.800 us,2 B,,SP,55,Read Transaction,00 08*
0,1809,0:26.489.105,79.000 us,2 B,,SP,55,Write Transaction,12 01
0,1810,0:26.494.459,660.600 us,25 B,,SP,55,Read Transaction,00 00 00 00 00 02 80 64 00 00 00 00 00 00 00 00 00 00 00 00 00 00 01 03 00*
0,1811,0:26.502.943,676.900 us,26 B,,SP,55,Write Transaction,14 00 03 41 62 04 21 51 06 E9 0F 06 B6 FE 00 00 00 00 00 00 FF F7 00 61 FC 2D
0,1812,0:26.518.879,116.300 us,3 B,,SP,55,Read Transaction,00 00 18*
0,1813,0:26.523.273,79.100 us,2 B,,SP,55,Write Transaction,00 00
0,1814,0:26.528.623,86.700 us,2 B,,SP,55,Read Transaction,00 08*
0,1815,0:26.528.984,79.100 us,2 B,,SP,55,Write Transaction,12 01
0,1816,0:26.534.334,659.700 us,25 B,,SP,55,Read Transaction,00 00 00 00 00 02 80 64 00 00 00 00 00 00 00 00 00 00 00 00 00 00 01 03 00*
0,1817,0:26.542.945,676.900 us,26 B,,SP,55,Write Transaction,14 00 03 33 68 04 13 71 06 DD E2 06 B0 5A 00 00 00 00 00 00 FF FC 00 5F FC 30
0,1818,0:26.558.887,116.200 us,3 B,,SP,55,Read Transaction,00 00 18*
0,1819,0:26.563.279,79.100 us,2 B,,SP,55,Write Transaction,00 00
0,1820,0:26.568.632,86.600 us,2 B,,SP,55,Read Transaction,00 08*
0,1821,0:26.568.994,79.100 us,2 B,,SP,55,Write Transaction,12 01
0,1822,0:26.574.342,660.600 us,25 B,,SP,55,Read Transaction,00 00 00 00 00 02 80 64 00 00 00 00 00 00 00 00 00 00 00 00 00 00 01 03 00*
0,1823,0:26.583.030,677.000 us,26 B,,SP,55,Write Transaction,14 00 03 2A 01 04 09 DF 06 D9 A0 06 AE D7 00 00 00 00 00 00 FF F7 00 62 FC 30
0,1824,0:26.598.981,116.300 us,3 B,,SP,55,Read Transaction,00 00 18*
0,1825,0:26.603.380,79.100 us,2 B,,SP,55,Write Transaction,00 00
0,1826,0:26.608.736,86.700 us,2 B,,SP,55,Read Transaction,00 08*
0,1827,0:26.609.097,79.100 us,2 B,,SP,55,Write Transaction,12 01
0,1828,0:26.614.454,659.600 us,25 B,,SP,55,Read Transaction,00 00 00 00 00 02 80 64 00 00 00 00 00 00 00 00 00 00 00 00 00 00 01 03 00*
0,1829,0:26.622.830,677.000 us,26 B,,SP,55,Write Transaction,14 00 03 24 48 04 04 98 06 D7 31 06 AC ED 00 00 00 00 00 00 FF F7 00 67 FC 2D
0,1830,0:26.638.770,116.300 us,3 B,,SP,55,Read Transaction,00 00 18*
0,1831,0:26.643.163,79.000 us,2 B,,SP,55,Write Transaction,00 00
0,1832,0:26.648.514,86.700 us,2 B,,SP,55,Read Transaction,00 08*
0,1833,0:26.648.877,79.000 us,2 B,,SP,55,Write Transaction,12 01
0,1834,0:26.654.228,659.600 us,25 B,,SP,55,Read Transaction,00 00 00 00 00 02 80 64 00 00 00 00 00 00 00 00 00 00 00 00 00 00 01 03 00*
0,1835,0:26.662.742,676.900 us,26 B,,SP,55,Write Transaction,14 00 03 20 A6 04 01 88 06 D5 B0 06 AC 7E 00 00 00 00 00 00 FF F3 00 64 FC 2A
0,1836,0:26.678.685,116.300 us,3 B,,SP,55,Read Transaction,00 00 18*
0,1837,0:26.683.079,79.100 us,2 B,,SP,55,Write Transaction,00 00
0,1838,0:26.688.427,86.700 us,2 B,,SP,55,Read Transaction,00 08*
0,1839,0:26.688.790,79.100 us,2 B,,SP,55,Write Transaction,12 01
0,1840,0:26.694.140,659.700 us,25 B,,SP,55,Read Transaction,00 00 00 00 00 02 80 64 00 00 00 00 00 00 00 00 00 00 00 00 00 00 01 03 00*
0,1841,0:26.702.702,676.900 us,26 B,,SP,55,Write Transaction,14 00 03 21 BF 04 03 0D 06 D8 37 06 AD 2B 00 00 00 00 00 00 FF F6 00 60 FC 2C
0,1842,0:26.718.641,116.300 us,3 B,,SP,55,Read Transaction,00 00 18*
0,1843,0:26.723.037,79.200 us,2 B,,SP,55,Write Transaction,00 00
0,1844,0:26.728.391,86.700 us,2 B,,SP,55,Read Transaction,00 08*
0,1845,0:26.728.754,79.100 us,2 B,,SP,55,Write Transaction,12 01
0,1846,0:26.734.105,659.700 us,25 B,,SP,55,Read Transaction,00 00 00 00 00 02 80 64 00 00 00 00 00 00 00 00 00 00 00 00 00 00 01 03 00*
0,1847,0:26.742.679,677.000 us,26 B,,SP,55,Write Transaction,14 00 03 24 85 04 05 71 06 D8 C0 06 AC C6 00 00 00 00 00 00 FF F5 00 60 FC 31
0,1848,0:26.758.629,116.400 us,3 B,,SP,55,Read Transaction,00 00 18*
0,1849,0:26.763.025,79.100 us,2 B,,SP,55,Write Transaction,00 00
0,1850,0:26.768.379,86.900 us,2 B,,SP,55,Read Transaction,00 08*
0,1851,0:26.768.742,79.200 us,2 B,,SP,55,Write Transaction,12 01
0,1852,0:26.774.091,659.700 us,25 B,,SP,55,Read Transaction,00 00 00 00 00 02 80 64 00 00 00 00 00 00 00 00 00 00 00 00 00 00 01 03 00*
0,1853,0:26.782.575,676.900 us,26 B,,SP,55,Write Transaction,14 00 03 24 E6 04 05 B2 06 DB 43 06 AF 37 00 00 00 00 00 00 FF F6 00 62 FC 2A
0,1854,0:26.798.516,116.300 us,3 B,,SP,55,Read Transaction,00 00 18*
0,1855,0:26.802.909,79.100 us,2 B,,SP,55,Write Transaction,00 00
0,1856,0:26.808.258,86.800 us,2 B,,SP,55,Read Transaction,00 08*
0,1857,0:26.808.620,79.100 us,2 B,,SP,55,Write Transaction,12 01
0,1858,0:26.813.970,659.700 us,25 B,,SP,55,Read Transaction,00 00 00 00 00 02 80 64 00 00 00 00 00 00 00 00 00 00 00 00 00 00 01 03 00*
0,1859,0:26.822.552,676.900 us,26 B,,SP,55,Write Transaction,14 00 03 25 EF 04 06 C8 06 DB DF 06 AF 87 00 00 00 00 00 00 FF F8 00 61 FC 2E
0,1860,0:26.838.491,116.300 us,3 B,,SP,55,Read Transaction,00 00 18*
0,1861,0:26.842.884,79.100 us,2 B,,SP,55,Write Transaction,00 00
0,1862,0:26.848.235,86.700 us,2 B,,SP,55,Read Transaction,00 08*
0,1863,0:26.848.599,79.100 us,2 B,,SP,55,Write Transaction,12 01
0,1864,0:26.853.948,659.400 us,25 B,,SP,55,Read Transaction,00 00 00 00 00 02 80 64 00 00 00 00 00 00 00 00 00 00 00 00 00 00 01 03 00*
0,1865,0:26.862.454,676.900 us,26 B,,SP,55,Write Transaction,14 00 03 29 4D 04 0A 28 06 E1 32 06 B3 79 00 00 00 00 00 00 FF F4 00 5E FC 2D
0,1866,0:26.878.404,116.300 us,3 B,,SP,55,Read Transaction,00 00 18*
0,1867,0:26.882.799,79.100 us,2 B,,SP,55,Write Transaction,00 00
0,1868,0:26.888.148,86.800 us,2 B,,SP,55,Read Transaction,00 08*
0,1869,0:26.888.510,79.100 us,2 B,,SP,55,Write Transaction,12 01
0,1870,0:26.893.861,659.600 us,25 B,,SP,55,Read Transaction,00 00 00 00 00 02 80 64 00 00 00 00 00 00 00 00 00 00 00 00 00 00 01 03 00*
0,1871,0:26.902.473,677.000 us,26 B,,SP,55,Write Transaction,14 00 03 2D F0 04 0E D2 06 E2 F5 06 B3 18 00 00 00 00 00 00 FF FB 00 62 FC 2C
0,1872,0:26.918.416,116.400 us,3 B,,SP,55,Read Transaction,00 00 18*
0,1873,0:26.922.808,79.100 us,2 B,,SP,55,Write Transaction,00 00
0,1874,0:26.928.160,86.700 us,2 B,,SP,55,Read Transaction,00 08*
0,1875,0:26.928.524,79.100 us,2 B,,SP,55,Write Transaction,12 01
0,1876,0:26.933.874,659.600 us,25 B,,SP,55,Read Transaction,00 00 00 00 00 02 80 64 00 00 00 00 00 00 00 00 00 00 00 00 00 00 01 03 00*
0,1877,0:26.942.340,676.500 us,26 B,,SP,55,Write Transaction,14 00 03 33 18 04 13 C9 06 E7 92 06 B6 59 00 00 00 00 00 00 FF F7 00 66 FC 2E
0,1878,0:26.958.286,116.500 us,3 B,,SP,55,Read Transaction,00 00 18*
0,1879,0:26.962.686,79.200 us,2 B,,SP,55,Write Transaction,00 00
0,1880,0:26.968.044,86.800 us,2 B,,SP,55,Read Transaction,00 08*
0,1881,0:26.968.404,79.200 us,2 B,,SP,55,Write Transaction,12 01
0,1882,0:26.973.785,659.700 us,25 B,,SP,55,Read Transaction,00 00 00 00 00 02 80 64 00 00 00 00 00 00 00 00 00 00 00 00 00 00 01 03 00*
0,1883,0:26.982.335,677.100 us,26 B,,SP,55,Write Transaction,14 00 03 38 3E 04 19 13 06 ED A0 06 BA 6B 00 00 00 00 00 00 FF F6 00 63 FC 2E
0,1884,0:26.998.275,116.400 us,3 B,,SP,55,Read Transaction,00 00 18*
0,1885,0:27.002.671,79.200 us,2 B,,SP,55,Write Transaction,00 00
0,1886,0:27.008.024,86.700 us,2 B,,SP,55,Read Transaction,00 08*
0,1887,0:27.008.387,79.100 us,2 B,,SP,55,Write Transaction,12 01
0,1888,0:27.013.738,659.800 us,25 B,,SP,55,Read Transaction,00 00 00 00 00 02 80 64 00 00 00 00 00 00 00 00 00 00 00 00 00 00 01 03 00*
0,1889,0:27.022.273,676.900 us,26 B,,SP,55,Write Transaction,14 00 03 3C D0 04 1D DA 06 F2 3E 06 BD AD 00 00 00 00 00 00 FF F2 00 5E FC 31
0,1890,0:27.038.233,116.300 us,3 B,,SP,55,Read Transaction,00 00 18*
0,1891,0:27.042.627,79.000 us,2 B,,SP,55,Write Transaction,00 00
0,1892,0:27.047.980,86.700 us,2 B,,SP,55,Read Transaction,00 08*
0,1893,0:27.048.341,79.100 us,2 B,,SP,55,Write Transaction,12 01
0,1894,0:27.053.689,659.800 us,25 B,,SP,55,Read Transaction,00 00 00 00 00 02 80 64 23 A7 64 00 00 00 00 00 00 00 00 00 00 00 01 03 00*
0,1895,0:27.062.225,676.900 us,26 B,,SP,55,Write Transaction,14 00 03 41 0A 04 22 8A 06 F5 9E 06 BF AC 00 00 00 00 00 00 FF F6 00 60 FC 33
0,1896,0:27.078.164,116.300 us,3 B,,SP,55,Read Transaction,00 00 18*
0,1897,0:27.082.557,79.000 us,2 B,,SP,55,Write Transaction,00 00
0,1898,0:27.087.907,86.700 us,2 B,,SP,55,Read Transaction,00 08*
0,1899,0:27.088.268,79.100 us,2 B,,SP,55,Write Transaction,12 01
0,1900,0:27.093.621,660.600 us,25 B,,SP,55,Read Transaction,00 00 00 00 00 02 80 64 00 00 00 00 00 00 00 00 00 00 00 00 00 00 01 03 00*
0,1901,0:27.102.159,676.900 us,26 B,,SP,55,Write Transaction,14 00 03 44 54 04 26 26 06 F6 C6 06 C0 32 00 00 00 00 00 00 FF F2 00 5F FC 30
0,1902,0:27.118.099,116.300 us,3 B,,SP,55,Read Transaction,00 00 18*
0,1903,0:27.122.492,79.100 us,2 B,,SP,55,Write Transaction,00 00
0,1904,0:27.127.846,86.900 us,2 B,,SP,55,Read Transaction,00 08*
0,1905,0:27.128.209,79.200 us,2 B,,SP,55,Write Transaction,12 01
0,1906,0:27.133.564,659.800 us,25 B,,SP,55,Read Transaction,00 00 00 00 00 02 80 64 00 00 00 00 00 00 00 00 00 00 00 00 00 00 01 03 00*
0,1907,0:27.142.113,677.900 us,26 B,,SP,55,Write Transaction,14 00 03 47 89 04 29 AA 06 F8 AC 06 C1 66 00 00 00 00 00 00 FF FA 00 67 FC 2F
0,1908,0:27.158.055,116.300 us,3 B,,SP,55,Read Transaction,00 00 18*
0,1909,0:27.162.452,79.200 us,2 B,,SP,55,Write Transaction,00 00
0,1910,0:27.167.805,86.700 us,2 B,,SP,55,Read Transaction,00 08*
0,1911,0:27.168.167,79.100 us,2 B,,SP,55,Write Transaction,12 01
0,1912,0:27.173.517,659.600 us,25 B,,SP,55,Read Transaction,00 00 00 00 00 02 80 64 00 00 00 00 00 00 00 00 00 00 00 00 00 00 01 03 00*
0,1913,0:27.182.054,676.900 us,26 B,,SP,55,Write Transaction,14 00 03 4B 2E 04 2D A1 06 FA 1D 06 C1 77 00 00 00 00 00 00 FF F7 00 62 FC 31
0,1914,0:27.197.993,116.200 us,3 B,,SP,55,Read Transaction,00 00 18*
0,1915,0:27.202.384,79.100 us,2 B,,SP,55,Write Transaction,00 00
0,1916,0:27.207.735,86.800 us,2 B,,SP,55,Read Transaction,00 08*
0,1917,0:27.208.097,79.100 us,2 B,,SP,55,Write Transaction,12 01
0,1918,0:27.213.444,659.600 us,25 B,,SP,55,Read Transaction,00 00 00 00 00 02 80 64 00 00 00 00 00 00 00 00 00 00 00 00 00 00 01 03 00*
0,1919,0:27.221.989,676.900 us,26 B,,SP,55,Write Transaction,14 00 03 4E E7 04 31 6F 06 FA CF 06 C1 43 00 00 00 00 00 00 FF F6 00 63 FC 2C
0,1920,0:27.237.942,116.400 us,3 B,,SP,55,Read Transaction,00 00 18*
0,1921,0:27.242.339,79.100 us,2 B,,SP,55,Write Transaction,00 00
0,1922,0:27.247.688,86.700 us,2 B,,SP,55,Read Transaction,00 08*
0,1923,0:27.248.049,79.100 us,2 B,,SP,55,Write Transaction,12 01
0,1924,0:27.253.399,659.500 us,25 B,,SP,55,Read Transaction,00 00 00 00 00 02 80 64 00 00 00 00 00 00 00 00 00 00 00 00 00 00 01 03 00*
0,1925,0:27.262.540,676.900 us,26 B,,SP,55,Write Transaction,14 00 03 52 38 04 35 28 07 00 55 06 C6 04 00 00 00 00 00 00 FF F5 00 61 FC 2A
0,1926,0:27.278.484,116.300 us,3 B,,SP,55,Read Transaction,00 00 18*
0,1927,0:27.282.877,79.100 us,2 B,,SP,55,Write Transaction,00 00
0,1928,0:27.288.230,86.700 us,2 B,,SP,55,Read Transaction,00 08*
0,1929,0:27.288.592,79.000 us,2 B,,SP,55,Write Transaction,12 01
0,1930,0:27.293.943,659.600 us,25 B,,SP,55,Read Transaction,00 00 00 00 00 02 80 64 00 00 00 00 00 00 00 00 00 00 00 00 00 00 01 03 00*
0,1931,0:27.301.905,676.800 us,26 B,,SP,55,Write Transaction,14 00 03 54 46 04 37 D4 06 FE 65 06 C3 4A 00 00 00 00 00 00 FF F6 00 62 FC 2F
0,1932,0:27.317.846,116.300 us,3 B,,SP,55,Read Transaction,00 00 18*
0,1933,0:27.322.241,79.200 us,2 B,,SP,55,Write Transaction,00 00
0,1934,0:27.327.599,86.700 us,2 B,,SP,55,Read Transaction,00 08*
0,1935,0:27.327.962,79.000 us,2 B,,SP,55,Write Transaction,12 01
0,1936,0:27.333.312,660.600 us,25 B,,SP,55,Read Transaction,00 00 00 00 00 02 80 64 00 00 00 00 00 00 00 00 00 00 00 00 00 00 01 03 00*
0,1937,0:27.341.808,676.900 us,26 B,,SP,55,Write Transaction,14 00 03 4B 49 04 2E 3E 06 F2 24 06 BC 98 00 00 00 00 00 00 FF F6 00 65 FC 25
0,1938,0:27.357.745,116.300 us,3 B,,SP,55,Read Transaction,00 00 18*
0,1939,0:27.362.135,79.000 us,2 B,,SP,55,Write Transaction,00 00
0,1940,0:27.367.486,86.700 us,2 B,,SP,55,Read Transaction,00 08*
0,1941,0:27.367.848,79.000 us,2 B,,SP,55,Write Transaction,12 01
0,1942,0:27.373.200,660.500 us,25 B,,SP,55,Read Transaction,00 00 00 00 00 02 80 64 00 00 00 00 00 00 00 00 00 00 00 00 00 00 01 03 00*
0,1943,0:27.381.826,676.900 us,26 B,,SP,55,Write Transaction,14 00 03 3B 53 04 1E 02 06 E5 63 06 B5 FE 00 00 00 00 00 00 FF F7 00 63 FC 2D
0,1944,0:27.397.818,116.300 us,3 B,,SP,55,Read Transaction,00 00 18*
0,1945,0:27.402.209,79.100 us,2 B,,SP,55,Write Transaction,00 00
0,1946,0:27.407.561,86.700 us,2 B,,SP,55,Read Transaction,00 08*
0,1947,0:27.407.923,79.100 us,2 B,,SP,55,Write Transaction,12 01
0,1948,0:27.413.272,659.700 us,25 B,,SP,55,Read Transaction,00 00 00 00 00 02 80 64 00 00 00 00 00 00 00 00 00 00 00 00 00 00 01 03 00*
0,1949,0:27.421.716,676.800 us,26 B,,SP,55,Write Transaction,14 00 03 2B B5 04 0E 18 06 D8 2E 06 AD 7B 00 00 00 00 00 00 FF F4 00 63 FC 2F
0,1950,0:27.437.655,116.300 us,3 B,,SP,55,Read Transaction,00 00 18*
0,1951,0:27.442.049,79.100 us,2 B,,SP,55,Write Transaction,00 00
0,1952,0:27.447.398,86.700 us,2 B,,SP,55,Read Transaction,00 08*
0,1953,0:27.447.759,79.100 us,2 B,,SP,55,Write Transaction,12 01
0,1954,0:27.453.109,659.600 us,25 B,,SP,55,Read Transaction,00 00 00 00 00 02 80 64 00 00 00 00 00 00 00 00 00 00 00 00 00 00 01 03 00*
0,1955,0:27.461.690,677.000 us,26 B,,SP,55,Write Transaction,14 00 03 1F 38 04 01 77 06 CE D8 06 A7 BF 00 00 00 00 00 00 FF F7 00 63 FC 27
0,1956,0:27.477.630,116.300 us,3 B,,SP,55,Read Transaction,00 00 18*
0,1957,0:27.482.021,79.100 us,2 B,,SP,55,Write Transaction,00 00
0,1958,0:27.487.372,86.700 us,2 B,,SP,55,Read Transaction,00 08*
0,1959,0:27.487.734,79.000 us,2 B,,SP,55,Write Transaction,12 01
0,1960,0:27.493.085,664.700 us,25 B,,SP,55,Read Transaction,00 00 00 00 00 02 80 64 00 00 00 00 00 00 00 00 00 00 00 00 00 00 01 03 00*
0,1961,0:27.501.596,676.900 us,26 B,,SP,55,Write Transaction,14 00 03 17 43 03 F9 A1 06 CD C6 06 A8 4E 00 00 00 00 00 00 FF F2 00 65 FC 30
0,1962,0:27.517.535,116.200 us,3 B,,SP,55,Read Transaction,00 00 18*
0,1963,0:27.521.929,79.100 us,2 B,,SP,55,Write Transaction,00 00
0,1964,0:27.527.278,86.700 us,2 B,,SP,55,Read Transaction,00 08*
0,1965,0:27.527.639,79.000 us,2 B,,SP,55,Write Transaction,12 01
0,1966,0:27.532.991,659.600 us,25 B,,SP,55,Read Transaction,00 00 00 00 00 02 80 64 00 00 00 00 00 00 00 00 00 00 00 00 00 00 01 03 00*
0,1967,0:27.541.599,676.900 us,26 B,,SP,55,Write Transaction,14 00 03 12 94 03 F4 E4 06 CC AE 06 A7 DD 00 00 00 00 00 00 FF F9 00 60 FC 2B
0,1968,0:27.557.541,116.100 us,3 B,,SP,55,Read Transaction,00 00 18*
0,1969,0:27.561.934,79.100 us,2 B,,SP,55,Write Transaction,00 00
0,1970,0:27.567.284,86.700 us,2 B,,SP,55,Read Transaction,00 08*
0,1971,0:27.567.646,79.000 us,2 B,,SP,55,Write Transaction,12 01
0,1972,0:27.572.995,659.600 us,25 B,,SP,55,Read Transaction,00 00 00 00 00 02 80 64 00 00 00 00 00 00 00 00 00 00 00 00 00 00 01 03 00*
0,1973,0:27.581.536,676.900 us,26 B,,SP,55,Write Transaction,14 00 03 14 3B 03 F5 ED 06 D0 C0 06 AA 62 00 00 00 00 00 00 FF F4 00 5C FC 2E
0,1974,0:27.597.477,116.400 us,3 B,,SP,55,Read Transaction,00 00 18*
0,1975,0:27.601.872,79.100 us,2 B,,SP,55,Write Transaction,00 00
0,1976,0:27.607.222,86.700 us,2 B,,SP,55,Read Transaction,00 08*
0,1977,0:27.607.608,79.100 us,2 B,,SP,55,Write Transaction,12 01
0,1978,0:27.612.959,659.600 us,25 B,,SP,55,Read Transaction,00 00 00 00 00 02 80 64 00 00 00 00 00 00 00 00 00 00 00 00 00 00 01 03 00*
0,1979,0:27.621.470,676.800 us,26 B,,SP,55,Write Transaction,14 00 03 17 50 03 F8 56 06 D1 B1 06 A9 93 00 00 00 00 00 00 FF FA 00 62 FC 2C
0,1980,0:27.637.408,116.300 us,3 B,,SP,55,Read Transaction,00 00 18*
0,1981,0:27.641.800,79.000 us,2 B,,SP,55,Write Transaction,00 00
0,1982,0:27.647.150,86.700 us,2 B,,SP,55,Read Transaction,00 08*
0,1983,0:27.647.513,79.100 us,2 B,,SP,55,Write Transaction,12 01
0,1984,0:27.652.865,659.700 us,25 B,,SP,55,Read Transaction,00 00 00 00 00 02 80 64 00 00 00 00 00 00 00 00 00 00 00 00 00 00 01 03 00*
0,1985,0:27.661.445,677.000 us,26 B,,SP,55,Write Transaction,14 00 03 18 38 03 F8 14 06 CE 57 06 A6 87 00 00 00 00 00 00 FF FA 00 63 FC 27
0,1986,0:27.677.384,116.100 us,3 B,,SP,55,Read Transaction,00 00 18*
0,1987,0:27.681.792,79.200 us,2 B,,SP,55,Write Transaction,00 00
0,1988,0:27.687.144,86.700 us,2 B,,SP,55,Read Transaction,00 08*
0,1989,0:27.687.507,79.100 us,2 B,,SP,55,Write Transaction,12 01
0,1990,0:27.692.856,659.700 us,25 B,,SP,55,Read Transaction,00 00 00 00 00 02 80 64 00 00 00 00 00 00 00 00 00 00 00 00 00 00 01 03 00*
0,1991,0:27.701.361,676.900 us,26 B,,SP,55,Write Transaction,14 00 03 1A 7E 03 F9 7F 06 D2 9B 06 AA 27 00 00 00 00 00 00 FF F7 00 5F FC 32
0,1992,0:27.717.304,116.300 us,3 B,,SP,55,Read Transaction,00 00 18*
0,1993,0:27.721.697,79.100 us,2 B,,SP,55,Write Transaction,00 00
0,1994,0:27.727.047,86.800 us,2 B,,SP,55,Read Transaction,00 08*
0,1995,0:27.727.409,79.100 us,2 B,,SP,55,Write Transaction,12 01
0,1996,0:27.732.759,659.700 us,25 B,,SP,55,Read Transaction,00 00 00 00 00 02 80 64 00 00 00 00 00 00 00 00 00 00 00 00 00 00 01 03 00*
0,1997,0:27.741.291,677.000 us,26 B,,SP,55,Write Transaction,14 00 03 1D 82 03 FC 4B 06 D5 DE 06 AC 05 00 00 00 00 00 00 FF F7 00 5E FC 2E
0,1998,0:27.757.234,116.300 us,3 B,,SP,55,Read Transaction,00 00 18*
0,1999,0:27.761.631,79.000 us,2 B,,SP,55,Write Transaction,00 00
0,2000,0:27.766.982,86.700 us,2 B,,SP,55,Read Transaction,00 08*
0,2001,0:27.767.344,79.100 us,2 B,,SP,55,Write Transaction,12 01
0,2002,0:27.772.694,659.600 us,25 B,,SP,55,Read Transaction,00 00 00 00 00 02 80 64 00 00 00 00 00 00 00 00 00 00 00 00 00 00 01 03 00*
0,2003,0:27.781.261,676.900 us,26 B,,SP,55,Write Transaction,14 00 03 22 3A 04 00 DF 06 D9 CD 06 AE 33 00 00 00 00 00 00 FF F5 00 61 FC 2C
0,2004,0:27.797.199,116.300 us,3 B,,SP,55,Read Transaction,00 00 18*
0,2005,0:27.801.592,79.200 us,2 B,,SP,55,Write Transaction,00 00
0,2006,0:27.806.943,86.700 us,2 B,,SP,55,Read Transaction,00 08*
0,2007,0:27.807.304,79.100 us,2 B,,SP,55,Write Transaction,12 01
0,2008,0:27.812.655,659.700 us,25 B,,SP,55,Read Transaction,00 00 00 00 00 02 8A 64 00 00 00 00 00 00 00 00 00 00 00 00 00 00 01 03 00*
0,2009,0:27.821.210,677.900 us,26 B,,SP,55,Write Transaction,14 00 03 27 0D 04 05 68 06 DB 59 06 AD E2 00 00 00 00 00 00 FF F3 00 61 FC 32
0,2010,0:27.837.150,116.200 us,3 B,,SP,55,Read Transaction,00 00 18*
0,2011,0:27.841.542,79.000 us,2 B,,SP,55,Write Transaction,00 00
0,2012,0:27.846.892,86.800 us,2 B,,SP,55,Read Transaction,00 08*
0,2013,0:27.847.255,79.000 us,2 B,,SP,55,Write Transaction,12 01
0,2014,0:27.852.627,659.700 us,25 B,,SP,55,Read Transaction,00 00 00 00 00 02 8A 64 00 00 00 00 00 00 00 00 00 00 00 00 00 00 01 03 00*
0,2015,0:27.861.157,676.900 us,26 B,,SP,55,Write Transaction,14 00 03 2A 68 04 08 6B 06 D9 27 06 AB 4F 00 00 00 00 00 00 FF F3 00 61 FC 2D
0,2016,0:27.877.096,116.100 us,3 B,,SP,55,Read Transaction,00 00 18*
0,2017,0:27.881.489,79.000 us,2 B,,SP,55,Write Transaction,00 00
0,2018,0:27.886.838,86.700 us,2 B,,SP,55,Read Transaction,00 08*
0,2019,0:27.887.199,79.100 us,2 B,,SP,55,Write Transaction,12 01
0,2020,0:27.892.550,659.600 us,25 B,,SP,55,Read Transaction,00 00 00 00 00 02 8A 64 00 00 00 00 00 00 00 00 00 00 00 00 00 00 01 03 00*
0,2021,0:27.901.088,677.900 us,26 B,,SP,55,Write Transaction,14 00 03 2D 3F 04 0B 0B 06 DA 06 06 AB 96 00 00 00 00 00 00 FF F6 00 61 FC 33
0,2022,0:27.917.050,116.300 us,3 B,,SP,55,Read Transaction,00 00 18*
0,2023,0:27.921.444,79.200 us,2 B,,SP,55,Write Transaction,00 00
0,2024,0:27.926.799,86.800 us,2 B,,SP,55,Read Transaction,00 08*
0,2025,0:27.927.162,79.100 us,2 B,,SP,55,Write Transaction,12 01
0,2026,0:27.932.512,659.700 us,25 B,,SP,55,Read Transaction,00 00 00 00 00 02 8A 64 23 1E 64 00 00 00 00 00 00 00 00 00 00 00 01 03 00*
0,2027,0:27.941.859,676.900 us,26 B,,SP,55,Write Transaction,14 00 03 30 1A 04 0D E3 06 DD 71 06 AE 47 00 00 00 00 00 00 FF F3 00 62 FC 2D
0,2028,0:27.957.894,116.500 us,3 B,,SP,55,Read Transaction,00 00 18*
0,2029,0:27.962.290,79.100 us,2 B,,SP,55,Write Transaction,00 00
0,2030,0:27.967.644,86.700 us,2 B,,SP,55,Read Transaction,00 08*
0,2031,0:27.968.006,79.100 us,2 B,,SP,55,Write Transaction,12 01
0,2032,0:27.973.355,659.700 us,25 B,,SP,55,Read Transaction,00 00 00 00 00 02 8A 64 00 00 00 00 00 00 00 00 00 00 00 00 00 00 01 03 00*
0,2033,0:27.980.981,676.900 us,26 B,,SP,55,Write Transaction,14 00 03 32 4B 04 10 81 06 E0 8C 06 B0 AB 00 00 00 00 00 00 FF F9 00 64 FC 30
0,2034,0:27.996.934,116.500 us,3 B,,SP,55,Read Transaction,00 00 18*
0,2035,0:28.001.389,79.200 us,2 B,,SP,55,Write Transaction,00 00
0,2036,0:28.006.741,86.700 us,2 B,,SP,55,Read Transaction,00 08*
0,2037,0:28.007.103,79.100 us,2 B,,SP,55,Write Transaction,12 01
0,2038,0:28.012.454,659.700 us,25 B,,SP,55,Read Transaction,00 00 00 00 00 02 8A 64 00 00 00 00 00 00 00 00 00 00 00 00 00 00 01 03 00*
0,2039,0:28.020.985,676.900 us,26 B,,SP,55,Write Transaction,14 00 03 34 1D 04 12 B3 06 E0 30 06 AF E5 00 00 00 00 00 00 FF F6 00 60 FC 30
0,2040,0:28.036.925,116.300 us,3 B,,SP,55,Read Transaction,00 00 18*
0,2041,0:28.041.317,79.100 us,2 B,,SP,55,Write Transaction,00 00
0,2042,0:28.046.668,86.700 us,2 B,,SP,55,Read Transaction,00 08*
0,2043,0:28.047.030,79.100 us,2 B,,SP,55,Write Transaction,12 01
0,2044,0:28.052.377,659.600 us,25 B,,SP,55,Read Transaction,00 00 00 00 00 02 8A 64 00 00 00 00 00 00 00 00 00 00 00 00 00 00 01 03 00*
0,2045,0:28.060.857,676.900 us,26 B,,SP,55,Write Transaction,14 00 03 36 D3 04 15 9A 06 E2 6E 06 B1 02 00 00 00 00 00 00 FF FA 00 62 FC 2D
0,2046,0:28.076.799,116.300 us,3 B,,SP,55,Read Transaction,00 00 18*
0,2047,0:28.081.193,79.000 us,2 B,,SP,55,Write Transaction,00 00
0,2048,0:28.086.543,86.700 us,2 B,,SP,55,Read Transaction,00 08*
0,2049,0:28.086.904,79.000 us,2 B,,SP,55,Write Transaction,12 01
0,2050,0:28.092.255,659.500 us,25 B,,SP,55,Read Transaction,00 00 00 00 00 02 8A 64 00 00 00 00 00 00 00 00 00 00 00 00 00 00 01 03 00*
0,2051,0:28.100.881,676.800 us,26 B,,SP,55,Write Transaction,14 00 03 3A 6C 04 19 52 06 E5 62 06 B2 D6 00 00 00 00 00 00 FF F5 00 61 FC 2F
0,2052,0:28.116.837,116.300 us,3 B,,SP,55,Read Transaction,00 00 18*
0,2053,0:28.121.230,79.100 us,2 B,,SP,55,Write Transaction,00 00
0,2054,0:28.126.585,86.800 us,2 B,,SP,55,Read Transaction,00 08*
0,2055,0:28.126.948,79.200 us,2 B,,SP,55,Write Transaction,12 01
0,2056,0:28.132.299,659.600 us,25 B,,SP,55,Read Transaction,00 00 00 00 00 02 8A 64 00 00 00 00 00 00 00 00 00 00 00 00 00 00 01 03 00*
0,2057,0:28.140.769,676.900 us,26 B,,SP,55,Write Transaction,14 00 03 3E 80 04 1D B4 06 E9 19 06 B5 2F 00 00 00 00 00 00 FF F5 00 5D FC 2E
0,2058,0:28.156.713,116.100 us,3 B,,SP,55,Read Transaction,00 00 18*
0,2059,0:28.161.107,79.100 us,2 B,,SP,55,Write Transaction,00 00
0,2060,0:28.166.456,86.600 us,2 B,,SP,55,Read Transaction,00 08*
0,2061,0:28.166.818,79.100 us,2 B,,SP,55,Write Transaction,12 01
0,2062,0:28.172.168,659.600 us,25 B,,SP,55,Read Transaction,00 00 00 00 00 02 8A 64 00 00 00 00 00 00 00 00 00 00 00 00 00 00 01 03 00*
0,2063,0:28.180.714,676.900 us,26 B,,SP,55,Write Transaction,14 00 03 41 B8 04 21 47 06 EA 68 06 B5 9B 00 00 00 00 00 00 FF F6 00 64 FC 30
0,2064,0:28.196.656,116.300 us,3 B,,SP,55,Read Transaction,00 00 18*
0,2065,0:28.201.047,79.000 us,2 B,,SP,55,Write Transaction,00 00
0,2066,0:28.206.397,86.700 us,2 B,,SP,55,Read Transaction,00 08*
0,2067,0:28.206.759,79.100 us,2 B,,SP,55,Write Transaction,12 01
0,2068,0:28.212.117,660.700 us,25 B,,SP,55,Read Transaction,00 00 00 00 00 02 8A 64 00 00 00 00 00 00 00 00 00 00 00 00 00 00 01 03 00*
0,2069,0:28.220.732,677.000 us,26 B,,SP,55,Write Transaction,14 00 03 38 B3 04 18 0D 06 DD EE 06 AE 2E 00 00 00 00 00 00 FF F4 00 60 FC 30
0,2070,0:28.236.672,116.300 us,3 B,,SP,55,Read Transaction,00 00 18*
0,2071,0:28.241.067,79.100 us,2 B,,SP,55,Write Transaction,00 00
0,2072,0:28.246.438,86.700 us,2 B,,SP,55,Read Transaction,00 08*
0,2073,0:28.246.802,79.000 us,2 B,,SP,55,Write Transaction,12 01
0,2074,0:28.252.150,659.700 us,25 B,,SP,55,Read Transaction,00 00 00 00 00 02 8A 64 00 00 00 00 00 00 00 00 00 00 00 00 00 00 01 03 00*
0,2075,0:28.260.604,676.900 us,26 B,,SP,55,Write Transaction,14 00 03 25 F6 04 04 DA 06 CD FF 06 A5 4C 00 00 00 00 00 00 FF F4 00 65 FC 2D
0,2076,0:28.276.541,116.300 us,3 B,,SP,55,Read Transaction,00 00 18*
0,2077,0:28.280.932,79.100 us,2 B,,SP,55,Write Transaction,00 00
0,2078,0:28.286.286,86.700 us,2 B,,SP,55,Read Transaction,00 08*
0,2079,0:28.286.649,79.100 us,2 B,,SP,55,Write Transaction,12 01
0,2080,0:28.291.999,659.700 us,25 B,,SP,55,Read Transaction,00 00 00 00 00 02 8A 64 00 00 00 00 00 00 00 00 00 00 00 00 00 00 01 03 00*
0,2081,0:28.300.604,677.200 us,26 B,,SP,55,Write Transaction,14 00 03 1A 37 03 F8 A1 06 C6 55 06 A0 B2 00 00 00 00 00 00 FF F1 00 60 FC 2D
0,2082,0:28.316.563,116.400 us,3 B,,SP,55,Read Transaction,00 00 18*
0,2083,0:28.320.957,79.100 us,2 B,,SP,55,Write Transaction,00 00
0,2084,0:28.326.307,86.600 us,2 B,,SP,55,Read Transaction,00 08*
0,2085,0:28.326.669,79.100 us,2 B,,SP,55,Write Transaction,12 01
0,2086,0:28.332.024,660.500 us,25 B,,SP,55,Read Transaction,00 00 00 00 00 02 8A 64 00 00 00 00 00 00 00 00 00 00 00 00 00 00 01 03 00*
0,2087,0:28.340.496,677.000 us,26 B,,SP,55,Write Transaction,14 00 03 12 F4 03 F1 07 06 C3 57 06 9F 63 00 00 00 00 00 00 FF F5 00 63 FC 30
0,2088,0:28.356.444,116.500 us,3 B,,SP,55,Read Transaction,00 00 18*
0,2089,0:28.360.843,79.100 us,2 B,,SP,55,Write Transaction,00 00
0,2090,0:28.366.195,86.700 us,2 B,,SP,55,Read Transaction,00 08*
0,2091,0:28.366.557,79.100 us,2 B,,SP,55,Write Transaction,12 01
0,2092,0:28.371.907,659.700 us,25 B,,SP,55,Read Transaction,00 00 00 00 00 02 8A 64 00 00 00 00 00 00 00 00 00 00 00 00 00 00 01 03 00*
0,2093,0:28.380.524,676.800 us,26 B,,SP,55,Write Transaction,14 00 03 0E E7 03 EB CB 06 C3 15 06 9F F3 00 00 00 00 00 00 FF F9 00 62 FC 35
0,2094,0:28.396.477,116.300 us,3 B,,SP,55,Read Transaction,00 00 18*
0,2095,0:28.400.870,79.100 us,2 B,,SP,55,Write Transaction,00 00
0,2096,0:28.406.219,86.700 us,2 B,,SP,55,Read Transaction,00 08*
0,2097,0:28.406.582,79.000 us,2 B,,SP,55,Write Transaction,12 01
0,2098,0:28.411.930,659.600 us,25 B,,SP,55,Read Transaction,00 00 00 00 00 02 8A 64 00 00 00 00 00 00 00 00 00 00 00 00 00 00 01 03 00*
0,2099,0:28.420.389,677.800 us,26 B,,SP,55,Write Transaction,14 00 03 0E 8E 03 EA 10 06 C3 9B 06 9F FB 00 00 00 00 00 00 FF FA 00 63 FC 30
0,2100,0:28.436.328,116.300 us,3 B,,SP,55,Read Transaction,00 00 18*
0,2101,0:28.440.725,79.100 us,2 B,,SP,55,Write Transaction,00 00
0,2102,0:28.446.079,86.700 us,2 B,,SP,55,Read Transaction,00 08*
0,2103,0:28.446.441,79.000 us,2 B,,SP,55,Write Transaction,12 01
0,2104,0:28.451.791,660.400 us,25 B,,SP,55,Read Transaction,00 00 00 00 00 02 8A 64 00 00 00 00 00 00 00 00 00 00 00 00 00 00 01 03 00*
0,2105,0:28.460.410,676.900 us,26 B,,SP,55,Write Transaction,14 00 03 12 74 03 EC 93 06 C7 E8 06 A2 7F 00 00 00 00 00 00 FF F6 00 5D FC 2A
0,2106,0:28.476.348,116.300 us,3 B,,SP,55,Read Transaction,00 00 18*
0,2107,0:28.480.741,79.100 us,2 B,,SP,55,Write Transaction,00 00
0,2108,0:28.486.091,86.600 us,2 B,,SP,55,Read Transaction,00 08*
0,2109,0:28.486.453,79.000 us,2 B,,SP,55,Write Transaction,12 01
0,2110,0:28.491.804,659.600 us,25 B,,SP,55,Read Transaction,00 00 00 00 00 02 8A 64 00 00 00 00 00 00 00 00 00 00 00 00 00 00 01 03 00*
0,2111,0:28.500.306,676.800 us,26 B,,SP,55,Write Transaction,14 00 03 14 09 03 ED 56 06 C9 5D 06 A3 61 00 00 00 00 00 00 FF F4 00 63 FC 2E
0,2112,0:28.516.244,116.300 us,3 B,,SP,55,Read Transaction,00 00 18*
0,2113,0:28.520.639,79.100 us,2 B,,SP,55,Write Transaction,00 00
0,2114,0:28.525.988,86.700 us,2 B,,SP,55,Read Transaction,00 08*
0,2115,0:28.526.349,79.100 us,2 B,,SP,55,Write Transaction,12 01
0,2116,0:28.531.701,659.400 us,25 B,,SP,55,Read Transaction,00 00 00 00 00 02 8A 64 00 00 00 00 00 00 00 00 00 00 00 00 00 00 01 03 00*
0,2117,0:28.540.251,676.900 us,26 B,,SP,55,Write Transaction,14 00 03 15 3D 03 EE 15 06 CA 81 06 A4 0C 00 00 00 00 00 00 FF F3 00 5F FC 30
0,2118,0:28.556.195,116.300 us,3 B,,SP,55,Read Transaction,00 00 18*
0,2119,0:28.560.588,79.000 us,2 B,,SP,55,Write Transaction,00 00
0,2120,0:28.565.938,86.700 us,2 B,,SP,55,Read Transaction,00 08*
0,2121,0:28.566.300,79.000 us,2 B,,SP,55,Write Transaction,12 01
0,2122,0:28.571.650,659.400 us,25 B,,SP,55,Read Transaction,00 00 00 00 00 02 8A 64 00 00 00 00 00 00 00 00 00 00 00 00 00 00 01 03 00*
0,2123,0:28.580.209,676.700 us,26 B,,SP,55,Write Transaction,14 00 03 16 ED 03 EF 71 06 CB 9D 06 A4 A3 00 00 00 00 00 00 FF F7 00 61 FC 2E
0,2124,0:28.596.145,116.200 us,3 B,,SP,55,Read Transaction,00 00 18*
0,2125,0:28.600.539,79.000 us,2 B,,SP,55,Write Transaction,00 00
0,2126,0:28.605.888,86.700 us,2 B,,SP,55,Read Transaction,00 08*
0,2127,0:28.606.251,79.100 us,2 B,,SP,55,Write Transaction,12 01
0,2128,0:28.611.598,659.600 us,25 B,,SP,55,Read Transaction,00 00 00 00 00 02 8A 64 00 00 00 00 00 00 00 00 00 00 00 00 00 00 01 03 00*
0,2129,0:28.621.133,676.800 us,26 B,,SP,55,Write Transaction,14 00 03 19 88 03 F1 B9 06 CA D3 06 A2 A0 00 00 00 00 00 00 FF ED 00 65 FC 34
0,2130,0:28.637.070,116.300 us,3 B,,SP,55,Read Transaction,00 00 18*
0,2131,0:28.641.465,79.100 us,2 B,,SP,55,Write Transaction,00 00
0,2132,0:28.646.814,86.700 us,2 B,,SP,55,Read Transaction,00 08*
0,2133,0:28.647.175,79.100 us,2 B,,SP,55,Write Transaction,12 01
0,2134,0:28.652.525,659.500 us,25 B,,SP,55,Read Transaction,00 00 00 00 00 02 8A 64 00 00 00 00 00 00 00 00 00 00 00 00 00 00 01 03 00*
0,2135,0:28.660.103,676.900 us,26 B,,SP,55,Write Transaction,14 00 03 1E 4D 03 F5 FD 06 CF 1C 06 A5 9C 00 00 00 00 00 00 FF F3 00 61 FC 2E
0,2136,0:28.676.046,116.200 us,3 B,,SP,55,Read Transaction,00 00 18*
0,2137,0:28.680.438,79.100 us,2 B,,SP,55,Write Transaction,00 00
0,2138,0:28.685.789,86.700 us,2 B,,SP,55,Read Transaction,00 08*
0,2139,0:28.686.151,79.000 us,2 B,,SP,55,Write Transaction,12 01
0,2140,0:28.691.502,660.500 us,25 B,,SP,55,Read Transaction,00 00 00 00 00 02 8A 64 00 00 00 00 00 00 00 00 00 00 00 00 00 00 01 03 00*
0,2141,0:28.700.062,676.800 us,26 B,,SP,55,Write Transaction,14 00 03 22 86 03 FA 10 06 D3 3E 06 A8 6F 00 00 00 00 00 00 FF F4 00 62 FC 30
0,2142,0:28.716.000,116.300 us,3 B,,SP,55,Read Transaction,00 00 18*
0,2143,0:28.720.395,79.000 us,2 B,,SP,55,Write Transaction,00 00
0,2144,0:28.725.746,86.800 us,2 B,,SP,55,Read Transaction,00 08*
0,2145,0:28.726.108,79.200 us,2 B,,SP,55,Write Transaction,12 01
0,2146,0:28.731.460,659.500 us,25 B,,SP,55,Read Transaction,00 00 00 00 00 02 8A 64 00 00 00 00 00 00 00 00 00 00 00 00 00 00 01 03 00*
0,2147,0:28.740.008,676.600 us,26 B,,SP,55,Write Transaction,14 00 03 26 CA 03 FE 72 06 D6 4A 06 AA 0D 00 00 00 00 00 00 FF F1 00 61 FC 29
0,2148,0:28.755.947,116.200 us,3 B,,SP,55,Read Transaction,00 00 18*
0,2149,0:28.760.340,79.000 us,2 B,,SP,55,Write Transaction,00 00
0,2150,0:28.765.688,86.700 us,2 B,,SP,55,Read Transaction,00 08*
0,2151,0:28.766.051,79.100 us,2 B,,SP,55,Write Transaction,12 01
0,2152,0:28.771.404,660.500 us,25 B,,SP,55,Read Transaction,00 00 00 00 00 02 8A 64 00 00 00 00 00 00 00 00 00 00 00 00 00 00 01 03 00*
0,2153,0:28.779.950,677.400 us,26 B,,SP,55,Write Transaction,14 00 03 2A 93 04 02 73 06 DA 4B 06 AD 22 00 00 00 00 00 00 FF F4 00 61 FC 2F
0,2154,0:28.795.925,116.300 us,3 B,,SP,55,Read Transaction,00 00 18*
0,2155,0:28.800.322,79.200 us,2 B,,SP,55,Write Transaction,00 00
0,2156,0:28.805.671,86.700 us,2 B,,SP,55,Read Transaction,00 08*
0,2157,0:28.806.033,79.000 us,2 B,,SP,55,Write Transaction,12 01
0,2158,0:28.811.383,660.200 us,25 B,,SP,55,Read Transaction,00 00 00 00 00 02 94 64 22 0C 64 00 00 00 00 00 00 00 00 00 00 00 01 03 00*
0,2159,0:28.819.901,676.800 us,26 B,,SP,55,Write Transaction,14 00 03 2D FC 04 06 4C 06 DE 95 06 B0 10 00 00 00 00 00 00 FF F6 00 63 FC 2D
0,2160,0:28.835.841,116.200 us,3 B,,SP,55,Read Transaction,00 00 18*
0,2161,0:28.840.233,79.100 us,2 B,,SP,55,Write Transaction,00 00
0,2162,0:28.845.583,86.600 us,2 B,,SP,55,Read Transaction,00 08*
0,2163,0:28.845.946,79.100 us,2 B,,SP,55,Write Transaction,12 01
0,2164,0:28.851.297,659.500 us,25 B,,SP,55,Read Transaction,00 00 00 00 00 02 94 64 00 00 00 00 00 00 00 00 00 00 00 00 00 00 01 03 00*
0,2165,0:28.859.873,677.600 us,26 B,,SP,55,Write Transaction,14 00 03 31 28 04 09 F2 06 E0 B5 06 B1 4F 00 00 00 00 00 00 FF ED 00 63 FC 31
0,2166,0:28.875.820,116.300 us,3 B,,SP,55,Read Transaction,00 00 18*
0,2167,0:28.880.214,79.000 us,2 B,,SP,55,Write Transaction,00 00
0,2168,0:28.885.564,86.700 us,2 B,,SP,55,Read Transaction,00 08*
0,2169,0:28.885.926,79.100 us,2 B,,SP,55,Write Transaction,12 01
0,2170,0:28.891.274,659.500 us,25 B,,SP,55,Read Transaction,00 00 00 00 00 02 94 64 00 00 00 00 00 00 00 00 00 00 00 00 00 00 01 03 00*
0,2171,0:28.899.769,677.400 us,26 B,,SP,55,Write Transaction,14 00 03 34 42 04 0D C7 06 E4 C5 06 B4 8E 00 00 00 00 00 00 FF F7 00 61 FC 2C
0,2172,0:28.915.707,116.200 us,3 B,,SP,55,Read Transaction,00 00 18*
0,2173,0:28.920.099,79.100 us,2 B,,SP,55,Write Transaction,00 00
0,2174,0:28.925.458,86.700 us,2 B,,SP,55,Read Transaction,00 08*
0,2175,0:28.925.820,79.000 us,2 B,,SP,55,Write Transaction,12 01
0,2176,0:28.931.169,659.500 us,25 B,,SP,55,Read Transaction,00 00 00 00 00 02 94 64 00 00 00 00 00 00 00 00 00 00 00 00 00 00 01 03 00*
0,2177,0:28.939.790,677.900 us,26 B,,SP,55,Write Transaction,14 00 03 38 7C 04 12 C2 06 E9 B4 06 B7 D6 00 00 00 00 00 00 FF EF 00 65 FC 2D
0,2178,0:28.955.736,116.300 us,3 B,,SP,55,Read Transaction,00 00 18*
0,2179,0:28.960.129,79.100 us,2 B,,SP,55,Write Transaction,00 00
0,2180,0:28.965.480,86.700 us,2 B,,SP,55,Read Transaction,00 08*
0,2181,0:28.965.842,79.000 us,2 B,,SP,55,Write Transaction,12 01
0,2182,0:28.971.191,659.600 us,25 B,,SP,55,Read Transaction,00 00 00 00 00 02 94 64 00 00 00 00 00 00 00 00 00 00 00 00 00 00 01 03 00*
0,2183,0:28.979.646,676.900 us,26 B,,SP,55,Write Transaction,14 00 03 3E 13 04 18 C1 06 EF A0 06 BB 8E 00 00 00 00 00 00 FF F5 00 60 FC 2B
0,2184,0:28.995.585,116.300 us,3 B,,SP,55,Read Transaction,00 00 18*
0,2185,0:28.999.978,79.100 us,2 B,,SP,55,Write Transaction,00 00
0,2186,0:29.005.328,86.700 us,2 B,,SP,55,Read Transaction,00 08*
0,2187,0:29.005.689,79.000 us,2 B,,SP,55,Write Transaction,12 01
0,2188,0:29.011.044,659.600 us,25 B,,SP,55,Read Transaction,00 00 00 00 00 02 94 64 00 00 00 00 00 00 00 00 00 00 00 00 00 00 01 03 00*
0,2189,0:29.019.661,676.900 us,26 B,,SP,55,Write Transaction,14 00 03 43 E3 04 1E F6 06 F4 10 06 BD B1 00 00 00 00 00 00 FF F0 00 65 FC 2E
0,2190,0:29.035.599,116.200 us,3 B,,SP,55,Read Transaction,00 00 18*
0,2191,0:29.039.991,79.000 us,2 B,,SP,55,Write Transaction,00 00
0,2192,0:29.045.340,86.700 us,2 B,,SP,55,Read Transaction,00 08*
0,2193,0:29.045.703,79.100 us,2 B,,SP,55,Write Transaction,12 01
0,2194,0:29.051.051,660.200 us,25 B,,SP,55,Read Transaction,00 00 00 00 00 02 94 64 00 00 00 00 00 00 00 00 00 00 00 00 00 00 01 03 00*
0,2195,0:29.059.559,677.300 us,26 B,,SP,55,Write Transaction,14 00 03 3F CC 04 1A E7 06 E9 4B 06 B6 38 00 00 00 00 00 00 FF F6 00 5E FC 30
0,2196,0:29.075.497,116.300 us,3 B,,SP,55,Read Transaction,00 00 18*
0,2197,0:29.079.891,79.100 us,2 B,,SP,55,Write Transaction,00 00
0,2198,0:29.085.241,86.700 us,2 B,,SP,55,Read Transaction,00 08*
0,2199,0:29.085.602,79.100 us,2 B,,SP,55,Write Transaction,12 01
0,2200,0:29.090.952,659.500 us,25 B,,SP,55,Read Transaction,00 00 00 00 00 02 94 64 00 00 00 00 00 00 00 00 00 00 00 00 00 00 01 03 00*
0,2201,0:29.099.544,676.900 us,26 B,,SP,55,Write Transaction,14 00 03 30 5A 04 0B 86 06 DB 0D 06 AF 3D 00 00 00 00 00 00 FF F8 00 5F FC 2B
0,2202,0:29.115.484,116.200 us,3 B,,SP,55,Read Transaction,00 00 18*
0,2203,0:29.119.876,79.100 us,2 B,,SP,55,Write Transaction,00 00
0,2204,0:29.125.226,86.600 us,2 B,,SP,55,Read Transaction,00 08*
0,2205,0:29.125.589,79.100 us,2 B,,SP,55,Write Transaction,12 01
0,2206,0:29.130.938,659.600 us,25 B,,SP,55,Read Transaction,00 00 00 00 00 02 94 64 00 00 00 00 00 00 00 00 00 00 00 00 00 00 01 03 00*
0,2207,0:29.139.491,676.500 us,26 B,,SP,55,Write Transaction,14 00 03 21 73 03 FC CE 06 D3 59 06 AC 2E 00 00 00 00 00 00 FF F2 00 63 FC 30
0,2208,0:29.155.430,116.300 us,3 B,,SP,55,Read Transaction,00 00 18*
0,2209,0:29.159.824,79.100 us,2 B,,SP,55,Write Transaction,00 00
0,2210,0:29.165.171,86.600 us,2 B,,SP,55,Read Transaction,00 08*
0,2211,0:29.165.533,79.100 us,2 B,,SP,55,Write Transaction,12 01
0,2212,0:29.170.882,659.500 us,25 B,,SP,55,Read Transaction,00 00 00 00 00 02 94 64 00 00 00 00 00 00 00 00 00 00 00 00 00 00 01 03 00*
0,2213,0:29.179.416,676.800 us,26 B,,SP,55,Write Transaction,14 00 03 1A 1B 03 F5 50 06 CF 63 06 A9 7B 00 00 00 00 00 00 FF F6 00 63 FC 30
0,2214,0:29.195.355,116.300 us,3 B,,SP,55,Read Transaction,00 00 18*
0,2215,0:29.199.750,79.100 us,2 B,,SP,55,Write Transaction,00 00
0,2216,0:29.205.100,86.700 us,2 B,,SP,55,Read Transaction,00 08*
0,2217,0:29.205.463,79.000 us,2 B,,SP,55,Write Transaction,12 01
0,2218,0:29.210.814,659.600 us,25 B,,SP,55,Read Transaction,00 00 00 00 00 02 9E 64 00 00 00 00 00 00 00 00 00 00 00 00 00 00 01 03 00*
0,2219,0:29.219.367,677.000 us,26 B,,SP,55,Write Transaction,14 00 03 15 FC 03 F0 8A 06 CD 1A 06 A8 3B 00 00 00 00 00 00 FF F5 00 62 FC 30
0,2220,0:29.235.323,116.300 us,3 B,,SP,55,Read Transaction,00 00 18*
0,2221,0:29.239.718,79.100 us,2 B,,SP,55,Write Transaction,00 00
0,2222,0:29.245.069,86.700 us,2 B,,SP,55,Read Transaction,00 08*
0,2223,0:29.245.432,79.100 us,2 B,,SP,55,Write Transaction,12 01
0,2224,0:29.250.781,659.700 us,25 B,,SP,55,Read Transaction,00 00 00 00 00 02 9E 64 00 00 00 00 00 00 00 00 00 00 00 00 00 00 01 03 00*
0,2225,0:29.259.312,677.300 us,26 B,,SP,55,Write Transaction,14 00 03 13 CA 03 ED 70 06 CC A4 06 A8 81 00 00 00 00 00 00 FF F2 00 61 FC 2A
0,2226,0:29.275.258,116.300 us,3 B,,SP,55,Read Transaction,00 00 18*
0,2227,0:29.279.652,79.100 us,2 B,,SP,55,Write Transaction,00 00
0,2228,0:29.285.001,86.700 us,2 B,,SP,55,Read Transaction,00 08*
0,2229,0:29.285.362,79.100 us,2 B,,SP,55,Write Transaction,12 01
0,2230,0:29.290.715,660.000 us,25 B,,SP,55,Read Transaction,00 00 00 00 00 02 9E 64 00 00 00 00 00 00 00 00 00 00 00 00 00 00 01 03 00*
0,2231,0:29.300.557,677.900 us,26 B,,SP,55,Write Transaction,14 00 03 16 C1 03 EF B3 06 CF B0 06 A9 BF 00 00 00 00 00 00 FF F7 00 5D FC 33
0,2232,0:29.316.510,116.300 us,3 B,,SP,55,Read Transaction,00 00 18*
0,2233,0:29.320.906,79.200 us,2 B,,SP,55,Write Transaction,00 00
0,2234,0:29.326.264,86.800 us,2 B,,SP,55,Read Transaction,00 08*
0,2235,0:29.326.627,79.000 us,2 B,,SP,55,Write Transaction,12 01
0,2236,0:29.331.979,659.500 us,25 B,,SP,55,Read Transaction,00 00 00 00 00 02 9E 64 00 00 00 00 00 00 00 00 00 00 00 00 00 00 01 03 00*
0,2237,0:29.339.192,677.900 us,26 B,,SP,55,Write Transaction,14 00 03 1A 8C 03 F2 CD 06 D2 5B 06 AB 63 00 00 00 00 00 00 FF F5 00 63 FC 30
0,2238,0:29.355.140,116.400 us,3 B,,SP,55,Read Transaction,00 00 18*
0,2239,0:29.359.534,79.100 us,2 B,,SP,55,Write Transaction,00 00
0,2240,0:29.364.884,86.600 us,2 B,,SP,55,Read Transaction,00 08*
0,2241,0:29.365.245,79.100 us,2 B,,SP,55,Write Transaction,12 01
0,2242,0:29.370.595,659.600 us,25 B,,SP,55,Read Transaction,00 00 00 00 00 02 9E 64 00 00 00 00 00 00 00 00 00 00 00 00 00 00 01 03 00*
0,2243,0:29.379.185,676.800 us,26 B,,SP,55,Write Transaction,14 00 03 1C 3B 03 F4 2C 06 D3 E4 06 AC 3C 00 00 00 00 00 00 FF F4 00 62 FC 2E
0,2244,0:29.395.129,116.200 us,3 B,,SP,55,Read Transaction,00 00 18*
0,2245,0:29.399.520,79.100 us,2 B,,SP,55,Write Transaction,00 00
0,2246,0:29.404.871,86.600 us,2 B,,SP,55,Read Transaction,00 08*
0,2247,0:29.405.233,79.000 us,2 B,,SP,55,Write Transaction,12 01
0,2248,0:29.410.585,659.600 us,25 B,,SP,55,Read Transaction,00 00 00 00 00 02 9E 64 00 00 00 00 00 00 00 00 00 00 00 00 00 00 01 03 00*
0,2249,0:29.419.107,676.900 us,26 B,,SP,55,Write Transaction,14 00 03 1E 7D 03 F6 29 06 D5 4D 06 AC FA 00 00 00 00 00 00 FF F3 00 64 FC 29
0,2250,0:29.435.049,116.300 us,3 B,,SP,55,Read Transaction,00 00 18*
0,2251,0:29.439.443,79.100 us,2 B,,SP,55,Write Transaction,00 00
0,2252,0:29.444.794,86.800 us,2 B,,SP,55,Read Transaction,00 08*
0,2253,0:29.445.155,79.200 us,2 B,,SP,55,Write Transaction,12 01
0,2254,0:29.450.521,659.700 us,25 B,,SP,55,Read Transaction,00 00 00 00 00 02 9E 64 00 00 00 00 00 00 00 00 00 00 00 00 00 00 01 03 00*
0,2255,0:29.459.055,677.900 us,26 B,,SP,55,Write Transaction,14 00 03 21 3C 03 F9 05 06 D9 17 06 B0 05 00 00 00 00 00 00 FF F4 00 64 FC 2C
0,2256,0:29.474.997,116.200 us,3 B,,SP,55,Read Transaction,00 00 18*
0,2257,0:29.479.390,79.100 us,2 B,,SP,55,Write Transaction,00 00
0,2258,0:29.484.740,86.600 us,2 B,,SP,55,Read Transaction,00 08*
0,2259,0:29.485.104,79.100 us,2 B,,SP,55,Write Transaction,12 01
0,2260,0:29.490.454,659.500 us,25 B,,SP,55,Read Transaction,00 00 00 00 00 02 9E 64 00 00 00 00 00 00 00 00 00 00 00 00 00 00 01 03 00*
0,2261,0:29.498.987,676.900 us,26 B,,SP,55,Write Transaction,14 00 03 25 C3 03 FD B7 06 DD 64 06 B2 89 00 00 00 00 00 00 FF F6 00 62 FC 2B
0,2262,0:29.514.926,116.300 us,3 B,,SP,55,Read Transaction,00 00 18*
0,2263,0:29.519.319,79.000 us,2 B,,SP,55,Write Transaction,00 00
0,2264,0:29.524.672,86.700 us,2 B,,SP,55,Read Transaction,00 08*
0,2265,0:29.525.034,79.000 us,2 B,,SP,55,Write Transaction,12 01
0,2266,0:29.530.388,660.500 us,25 B,,SP,55,Read Transaction,00 00 00 00 00 02 9E 64 00 00 00 00 00 00 00 00 00 00 00 00 00 00 01 03 00*
0,2267,0:29.538.964,676.800 us,26 B,,SP,55,Write Transaction,14 00 03 2B 9E 04 03 AC 06 E0 F7 06 B4 34 00 00 00 00 00 00 FF F7 00 61 FC 29
0,2268,0:29.554.902,116.300 us,3 B,,SP,55,Read Transaction,00 00 18*
0,2269,0:29.559.356,79.000 us,2 B,,SP,55,Write Transaction,00 00
0,2270,0:29.564.706,86.900 us,2 B,,SP,55,Read Transaction,00 08*
0,2271,0:29.565.068,79.200 us,2 B,,SP,55,Write Transaction,12 01
0,2272,0:29.570.420,659.500 us,25 B,,SP,55,Read Transaction,00 00 00 00 00 02 9E 64 00 00 00 00 00 00 00 00 00 00 00 00 00 00 01 03 00*
0,2273,0:29.578.881,676.900 us,26 B,,SP,55,Write Transaction,14 00 03 30 7A 04 08 97 06 E4 27 06 B5 E4 00 00 00 00 00 00 FF F6 00 5D FC 30
0,2274,0:29.594.828,116.300 us,3 B,,SP,55,Read Transaction,00 00 18*
0,2275,0:29.599.220,79.000 us,2 B,,SP,55,Write Transaction,00 00
0,2276,0:29.604.570,86.700 us,2 B,,SP,55,Read Transaction,00 08*
0,2277,0:29.604.932,79.100 us,2 B,,SP,55,Write Transaction,12 01
0,2278,0:29.610.281,659.600 us,25 B,,SP,55,Read Transaction,00 00 00 00 00 02 9E 64 00 00 00 00 00 00 00 00 00 00 00 00 00 00 01 03 00*
0,2279,0:29.618.849,676.900 us,26 B,,SP,55,Write Transaction,14 00 03 35 9D 04 0D DC 06 E8 A5 06 B9 31 00 00 00 00 00 00 FF F2 00 64 FC 31
0,2280,0:29.634.786,116.100 us,3 B,,SP,55,Read Transaction,00 00 18*
0,2281,0:29.639.181,79.100 us,2 B,,SP,55,Write Transaction,00 00
0,2282,0:29.644.532,86.700 us,2 B,,SP,55,Read Transaction,00 08*
0,2283,0:29.644.894,79.000 us,2 B,,SP,55,Write Transaction,12 01
0,2284,0:29.650.245,660.400 us,25 B,,SP,55,Read Transaction,00 00 00 00 00 02 9E 64 00 00 00 00 00 00 00 00 00 00 00 00 00 00 01 03 00*
0,2285,0:29.658.821,677.600 us,26 B,,SP,55,Write Transaction,14 00 03 39 63 04 12 23 06 ED E5 06 BD 48 00 00 00 00 00 00 FF F2 00 60 FC 2D
0,2286,0:29.674.766,116.200 us,3 B,,SP,55,Read Transaction,00 00 18*
0,2287,0:29.679.158,79.000 us,2 B,,SP,55,Write Transaction,00 00
0,2288,0:29.684.509,86.700 us,2 B,,SP,55,Read Transaction,00 08*
0,2289,0:29.684.872,79.000 us,2 B,,SP,55,Write Transaction,12 01
0,2290,0:29.690.219,659.700 us,25 B,,SP,55,Read Transaction,00 00 00 00 00 02 9E 64 22 26 64 00 00 00 00 00 00 00 00 00 00 00 01 03 00*
0,2291,0:29.698.747,676.900 us,26 B,,SP,55,Write Transaction,14 00 03 3D 28 04 16 94 06 F0 9A 06 BE C5 00 00 00 00 00 00 FF F2 00 63 FC 2E
0,2292,0:29.714.691,116.300 us,3 B,,SP,55,Read Transaction,00 00 18*
0,2293,0:29.719.085,79.100 us,2 B,,SP,55,Write Transaction,00 00
0,2294,0:29.724.433,86.700 us,2 B,,SP,55,Read Transaction,00 08*
0,2295,0:29.724.795,79.000 us,2 B,,SP,55,Write Transaction,12 01
0,2296,0:29.730.146,659.700 us,25 B,,SP,55,Read Transaction,00 00 00 00 00 02 9E 64 00 00 00 00 00 00 00 00 00 00 00 00 00 00 01 03 00*
0,2297,0:29.738.688,676.900 us,26 B,,SP,55,Write Transaction,14 00 03 40 FB 04 1A E3 06 F2 C5 06 BF BF 00 00 00 00 00 00 FF F3 00 5F FC 2F
0,2298,0:29.754.629,116.400 us,3 B,,SP,55,Read Transaction,00 00 18*
0,2299,0:29.759.024,79.100 us,2 B,,SP,55,Write Transaction,00 00
0,2300,0:29.764.374,86.700 us,2 B,,SP,55,Read Transaction,00 08*
0,2301,0:29.764.737,79.100 us,2 B,,SP,55,Write Transaction,12 01
0,2302,0:29.770.088,659.700 us,25 B,,SP,55,Read Transaction,00 00 00 00 00 02 9E 64 00 00 00 00 00 00 00 00 00 00 00 00 00 00 01 03 00*
0,2303,0:29.778.679,676.900 us,26 B,,SP,55,Write Transaction,14 00 03 44 A0 04 1E F0 06 F4 03 06 C0 24 00 00 00 00 00 00 FF F8 00 5E FC 2D
0,2304,0:29.794.619,116.300 us,3 B,,SP,55,Read Transaction,00 00 18*
0,2305,0:29.799.013,79.000 us,2 B,,SP,55,Write Transaction,00 00
0,2306,0:29.804.386,86.700 us,2 B,,SP,55,Read Transaction,00 08*
0,2307,0:29.804.747,79.100 us,2 B,,SP,55,Write Transaction,12 01
0,2308,0:29.810.096,659.600 us,25 B,,SP,55,Read Transaction,00 00 00 00 00 02 9E 64 00 00 00 00 00 00 00 00 00 00 00 00 00 00 01 03 00*
0,2309,0:29.818.571,677.000 us,26 B,,SP,55,Write Transaction,14 00 03 48 69 04 23 20 06 F6 A5 06 C1 E1 00 00 00 00 00 00 FF F1 00 64 FC 34
0,2310,0:29.834.517,116.300 us,3 B,,SP,55,Read Transaction,00 00 18*
0,2311,0:29.838.909,79.100 us,2 B,,SP,55,Write Transaction,00 00
0,2312,0:29.844.260,86.700 us,2 B,,SP,55,Read Transaction,00 08*
0,2313,0:29.844.622,79.100 us,2 B,,SP,55,Write Transaction,12 01
0,2314,0:29.849.972,659.600 us,25 B,,SP,55,Read Transaction,00 00 00 00 00 02 9E 64 00 00 00 00 00 00 00 00 00 00 00 00 00 00 01 03 00*
0,2315,0:29.858.574,676.800 us,26 B,,SP,55,Write Transaction,14 00 03 4C DC 04 28 22 06 FB AE 06 C5 3C 00 00 00 00 00 00 FF F5 00 64 FC 31
0,2316,0:29.874.512,116.300 us,3 B,,SP,55,Read Transaction,00 00 18*
0,2317,0:29.878.904,79.100 us,2 B,,SP,55,Write Transaction,00 00
0,2318,0:29.884.255,86.800 us,2 B,,SP,55,Read Transaction,00 08*
0,2319,0:29.884.618,79.100 us,2 B,,SP,55,Write Transaction,12 01
0,2320,0:29.889.969,659.600 us,25 B,,SP,55,Read Transaction,00 00 00 00 00 02 9E 64 00 00 00 00 00 00 00 00 00 00 00 00 00 00 01 03 00*
0,2321,0:29.898.471,676.800 us,26 B,,SP,55,Write Transaction,14 00 03 4F C3 04 2B 4A 06 F9 9B 06 C2 6B 00 00 00 00 00 00 FF F7 00 63 FC 31
0,2322,0:29.914.409,116.200 us,3 B,,SP,55,Read Transaction,00 00 18*
0,2323,0:29.918.803,79.000 us,2 B,,SP,55,Write Transaction,00 00
0,2324,0:29.924.153,86.700 us,2 B,,SP,55,Read Transaction,00 08*
0,2325,0:29.924.514,79.000 us,2 B,,SP,55,Write Transaction,12 01
0,2326,0:29.929.864,659.600 us,25 B,,SP,55,Read Transaction,00 00 00 00 00 02 9E 64 00 00 00 00 00 00 00 00 00 00 00 00 00 00 01 03 00*
0,2327,0:29.938.497,677.000 us,26 B,,SP,55,Write Transaction,14 00 03 45 5E 04 20 D3 06 EB BE 06 BA 9C 00 00 00 00 00 00 FF F3 00 65 FC 30
0,2328,0:29.954.448,116.300 us,3 B,,SP,55,Read Transaction,00 00 18*
0,2329,0:29.958.840,79.100 us,2 B,,SP,55,Write Transaction,00 00
0,2330,0:29.964.191,86.700 us,2 B,,SP,55,Read Transaction,00 08*
0,2331,0:29.964.554,79.000 us,2 B,,SP,55,Write Transaction,12 01
0,2332,0:29.969.903,659.700 us,25 B,,SP,55,Read Transaction,00 00 00 00 00 02 9E 64 00 00 00 00 00 00 00 00 00 00 00 00 00 00 01 03 00*
0,2333,0:29.978.382,676.900 us,26 B,,SP,55,Write Transaction,14 00 03 31 98 04 0E 3A 06 DD 6E 06 B3 A9 00 00 00 00 00 00 FF F5 00 62 FC 2A
0,2334,0:29.994.330,116.300 us,3 B,,SP,55,Read Transaction,00 00 18*
0,2335,0:29.998.724,79.100 us,2 B,,SP,55,Write Transaction,00 00
0,2336,0:30.004.073,86.600 us,2 B,,SP,55,Read Transaction,00 08*
0,2337,0:30.004.435,79.000 us,2 B,,SP,55,Write Transaction,12 01
0,2338,0:30.009.788,660.600 us,25 B,,SP,55,Read Transaction,00 00 00 00 00 02 9E 64 00 00 00 00 00 00 00 00 00 00 00 00 00 00 01 03 00*
0,2339,0:30.018.351,676.700 us,26 B,,SP,55,Write Transaction,14 00 03 21 19 03 FD A3 06 D3 CC 06 AE 90 00 00 00 00 00 00 FF F8 00 64 FC 2E
0,2340,0:30.034.289,116.300 us,3 B,,SP,55,Read Transaction,00 00 18*
0,2341,0:30.038.682,79.100 us,2 B,,SP,55,Write Transaction,00 00
0,2342,0:30.044.036,86.800 us,2 B,,SP,55,Read Transaction,00 08*
0,2343,0:30.044.399,79.200 us,2 B,,SP,55,Write Transaction,12 01
0,2344,0:30.049.753,660.000 us,25 B,,SP,55,Read Transaction,00 00 00 00 00 02 9E 64 00 00 00 00 00 00 00 00 00 00 00 00 00 00 01 03 00*
0,2345,0:30.058.306,677.000 us,26 B,,SP,55,Write Transaction,14 00 03 17 C0 03 F3 3B 06 CF C3 06 AC C0 00 00 00 00 00 00 FF F2 00 5F FC 31
0,2346,0:30.074.264,116.300 us,3 B,,SP,55,Read Transaction,00 00 18*
0,2347,0:30.078.659,79.100 us,2 B,,SP,55,Write Transaction,00 00
0,2348,0:30.084.007,86.700 us,2 B,,SP,55,Read Transaction,00 08*
0,2349,0:30.084.370,79.100 us,2 B,,SP,55,Write Transaction,12 01
0,2350,0:30.089.721,659.600 us,25 B,,SP,55,Read Transaction,00 00 00 00 00 02 9E 64 00 00 00 00 00 00 00 00 00 00 00 00 00 00 01 03 00*
0,2351,0:30.098.784,677.900 us,26 B,,SP,55,Write Transaction,14 00 03 10 4D 03 EA D1 06 CC 87 06 AB 97 00 00 00 00 00 00 FF F5 00 64 FC 2F
0,2352,0:30.114.726,116.300 us,3 B,,SP,55,Read Transaction,00 00 18*
0,2353,0:30.119.168,79.200 us,2 B,,SP,55,Write Transaction,00 00
0,2354,0:30.124.524,86.700 us,2 B,,SP,55,Read Transaction,00 08*
0,2355,0:30.124.886,79.100 us,2 B,,SP,55,Write Transaction,12 01
0,2356,0:30.130.237,659.500 us,25 B,,SP,55,Read Transaction,00 00 00 00 00 02 9E 64 00 00 00 00 00 00 00 00 00 00 00 00 00 00 01 03 00*
0,2357,0:30.138.210,677.800 us,26 B,,SP,55,Write Transaction,14 00 03 0C 70 03 E5 46 06 CB 07 06 AA 84 00 00 00 00 00 00 FF F5 00 65 FC 2B
0,2358,0:30.154.172,116.300 us,3 B,,SP,55,Read Transaction,00 00 18*
0,2359,0:30.158.566,79.100 us,2 B,,SP,55,Write Transaction,00 00
0,2360,0:30.163.916,86.600 us,2 B,,SP,55,Read Transaction,00 08*
0,2361,0:30.164.278,79.000 us,2 B,,SP,55,Write Transaction,12 01
0,2362,0:30.169.627,659.600 us,25 B,,SP,55,Read Transaction,00 00 00 00 00 02 9E 64 00 00 00 00 00 00 00 00 00 00 00 00 00 00 01 03 00*
0,2363,0:30.178.158,676.900 us,26 B,,SP,55,Write Transaction,14 00 03 0F A6 03 E6 4B 06 CE F3 06 AC 93 00 00 00 00 00 00 FF F6 00 61 FC 31
0,2364,0:30.194.096,116.200 us,3 B,,SP,55,Read Transaction,00 00 18*
0,2365,0:30.198.492,79.100 us,2 B,,SP,55,Write Transaction,00 00
0,2366,0:30.203.842,86.700 us,2 B,,SP,55,Read Transaction,00 08*
0,2367,0:30.204.203,79.100 us,2 B,,SP,55,Write Transaction,12 01
0,2368,0:30.209.553,659.600 us,25 B,,SP,55,Read Transaction,00 00 00 00 00 02 9E 64 00 00 00 00 00 00 00 00 00 00 00 00 00 00 01 03 00*
0,2369,0:30.218.085,676.800 us,26 B,,SP,55,Write Transaction,14 00 03 13 56 03 E8 58 06 D2 6F 06 AE B8 00 00 00 00 00 00 FF F4 00 61 FC 2B
0,2370,0:30.234.035,116.400 us,3 B,,SP,55,Read Transaction,00 00 18*
0,2371,0:30.238.433,79.100 us,2 B,,SP,55,Write Transaction,00 00
0,2372,0:30.243.789,86.700 us,2 B,,SP,55,Read Transaction,00 08*
0,2373,0:30.244.152,79.100 us,2 B,,SP,55,Write Transaction,12 01
0,2374,0:30.249.500,659.600 us,25 B,,SP,55,Read Transaction,00 00 00 00 00 02 9E 64 00 00 00 00 00 00 00 00 00 00 00 00 00 00 01 03 00*
0,2375,0:30.258.041,676.900 us,26 B,,SP,55,Write Transaction,14 00 03 14 F6 03 E9 24 06 D4 81 06 B0 13 00 00 00 00 00 00 FF F6 00 64 FC 30
0,2376,0:30.273.978,116.300 us,3 B,,SP,55,Read Transaction,00 00 18*
0,2377,0:30.278.372,79.100 us,2 B,,SP,55,Write Transaction,00 00
0,2378,0:30.283.724,86.800 us,2 B,,SP,55,Read Transaction,00 08*
0,2379,0:30.284.087,79.200 us,2 B,,SP,55,Write Transaction,12 01
0,2380,0:30.289.438,659.600 us,25 B,,SP,55,Read Transaction,00 00 00 00 00 02 9E 64 00 00 00 00 00 00 00 00 00 00 00 00 00 00 01 03 00*
0,2381,0:30.298.002,677.900 us,26 B,,SP,55,Write Transaction,14 00 03 16 7C 03 EA 3A 06 D5 84 06 B0 91 00 00 00 00 00 00 FF F9 00 62 FC 33
0,2382,0:30.313.947,116.200 us,3 B,,SP,55,Read Transaction,00 00 18*
0,2383,0:30.318.339,79.100 us,2 B,,SP,55,Write Transaction,00 00
0,2384,0:30.323.693,86.800 us,2 B,,SP,55,Read Transaction,00 08*
0,2385,0:30.324.057,79.200 us,2 B,,SP,55,Write Transaction,12 01
0,2386,0:30.329.456,660.500 us,25 B,,SP,55,Read Transaction,00 00 00 00 00 02 9E 64 00 00 00 00 00 00 00 00 00 00 00 00 00 00 01 03 00*
0,2387,0:30.337.996,677.800 us,26 B,,SP,55,Write Transaction,14 00 03 19 F1 03 ED 1E 06 D8 F9 06 B2 AB 00 00 00 00 00 00 FF FC 00 68 FC 2E
0,2388,0:30.353.942,116.300 us,3 B,,SP,55,Read Transaction,00 00 18*
0,2389,0:30.358.336,79.100 us,2 B,,SP,55,Write Transaction,00 00
0,2390,0:30.363.685,86.700 us,2 B,,SP,55,Read Transaction,00 08*
0,2391,0:30.364.046,79.100 us,2 B,,SP,55,Write Transaction,12 01
0,2392,0:30.369.399,660.100 us,25 B,,SP,55,Read Transaction,00 00 00 00 00 02 9E 64 00 00 00 00 00 00 00 00 00 00 00 00 00 00 01 03 00*
0,2393,0:30.377.870,676.900 us,26 B,,SP,55,Write Transaction,14 00 03 1E 5F 03 F1 53 06 DB 52 06 B3 41 00 00 00 00 00 00 FF F6 00 61 FC 2E
0,2394,0:30.393.809,116.200 us,3 B,,SP,55,Read Transaction,00 00 18*
0,2395,0:30.398.200,79.100 us,2 B,,SP,55,Write Transaction,00 00
0,2396,0:30.403.551,86.700 us,2 B,,SP,55,Read Transaction,00 08*
0,2397,0:30.403.913,79.100 us,2 B,,SP,55,Write Transaction,12 01
0,2398,0:30.409.263,659.200 us,25 B,,SP,55,Read Transaction,00 00 00 00 00 02 9E 64 00 00 00 00 00 00 00 00 00 00 00 00 00 00 01 03 00*
0,2399,0:30.417.862,677.200 us,26 B,,SP,55,Write Transaction,14 00 03 23 E5 03 F6 7A 06 DF CB 06 B6 57 00 00 00 00 00 00 FF FA 00 60 FC 2C
0,2400,0:30.433.803,116.300 us,3 B,,SP,55,Read Transaction,00 00 18*
0,2401,0:30.438.196,79.100 us,2 B,,SP,55,Write Transaction,00 00
0,2402,0:30.443.548,86.600 us,2 B,,SP,55,Read Transaction,00 08*
0,2403,0:30.443.911,79.100 us,2 B,,SP,55,Write Transaction,12 01
0,2404,0:30.449.259,660.400 us,25 B,,SP,55,Read Transaction,00 00 00 00 00 02 9E 64 00 00 00 00 00 00 00 00 00 00 00 00 00 00 01 03 00*
0,2405,0:30.457.756,677.900 us,26 B,,SP,55,Write Transaction,14 00 03 29 84 03 FC 2E 06 E5 D0 06 BA 3E 00 00 00 00 00 00 FF F6 00 61 FC 32
0,2406,0:30.473.696,116.300 us,3 B,,SP,55,Read Transaction,00 00 18*
0,2407,0:30.478.089,79.100 us,2 B,,SP,55,Write Transaction,00 00
0,2408,0:30.483.440,86.700 us,2 B,,SP,55,Read Transaction,00 08*
0,2409,0:30.483.801,79.100 us,2 B,,SP,55,Write Transaction,12 01
0,2410,0:30.489.153,659.600 us,25 B,,SP,55,Read Transaction,00 00 00 00 00 02 9E 64 00 00 00 00 00 00 00 00 00 00 00 00 00 00 01 03 00*
0,2411,0:30.497.785,676.900 us,26 B,,SP,55,Write Transaction,14 00 03 2F 61 04 01 F9 06 E8 CA 06 BB 6E 00 00 00 00 00 00 FF FA 00 62 FC 2E
0,2412,0:30.513.737,116.200 us,3 B,,SP,55,Read Transaction,00 00 18*
0,2413,0:30.518.130,79.100 us,2 B,,SP,55,Write Transaction,00 00
0,2414,0:30.523.482,86.700 us,2 B,,SP,55,Read Transaction,00 08*
0,2415,0:30.523.844,79.100 us,2 B,,SP,55,Write Transaction,12 01
0,2416,0:30.529.193,659.600 us,25 B,,SP,55,Read Transaction,00 00 00 00 00 02 9E 64 00 00 00 00 00 00 00 00 00 00 00 00 00 00 01 03 00*
0,2417,0:30.537.669,676.900 us,26 B,,SP,55,Write Transaction,14 00 03 33 DF 04 06 A4 06 EB 88 06 BD 43 00 00 00 00 00 00 FF F4 00 61 FC 2D
0,2418,0:30.553.609,116.200 us,3 B,,SP,55,Read Transaction,00 00 18*
0,2419,0:30.558.003,79.100 us,2 B,,SP,55,Write Transaction,00 00
0,2420,0:30.563.353,86.700 us,2 B,,SP,55,Read Transaction,00 08*
0,2421,0:30.563.714,79.100 us,2 B,,SP,55,Write Transaction,12 01
0,2422,0:30.569.064,659.600 us,25 B,,SP,55,Read Transaction,00 00 00 00 00 02 9E 64 21 F4 64 00 00 00 00 00 00 00 00 00 00 00 01 03 00*
0,2423,0:30.577.711,676.900 us,26 B,,SP,55,Write Transaction,14 00 03 38 18 04 0B 4C 06 EE CD 06 BF 5E 00 00 00 00 00 00 FF F1 00 61 FC 29
0,2424,0:30.593.651,116.300 us,3 B,,SP,55,Read Transaction,00 00 18*
0,2425,0:30.598.043,79.000 us,2 B,,SP,55,Write Transaction,00 00
0,2426,0:30.603.393,86.600 us,2 B,,SP,55,Read Transaction,00 08*
0,2427,0:30.603.756,79.000 us,2 B,,SP,55,Write Transaction,12 01
0,2428,0:30.609.103,659.700 us,25 B,,SP,55,Read Transaction,00 00 00 00 00 02 9E 64 00 00 00 00 00 00 00 00 00 00 00 00 00 00 01 03 00*
0,2429,0:30.617.554,676.900 us,26 B,,SP,55,Write Transaction,14 00 03 3C 47 04 10 02 06 F2 97 06 C1 F4 00 00 00 00 00 00 FF FA 00 65 FC 30
0,2430,0:30.633.503,116.400 us,3 B,,SP,55,Read Transaction,00 00 18*
0,2431,0:30.637.902,79.200 us,2 B,,SP,55,Write Transaction,00 00
0,2432,0:30.643.258,86.800 us,2 B,,SP,55,Read Transaction,00 08*
0,2433,0:30.643.620,79.200 us,2 B,,SP,55,Write Transaction,12 01
0,2434,0:30.648.975,659.600 us,25 B,,SP,55,Read Transaction,00 00 00 00 00 02 9E 64 00 00 00 00 00 00 00 00 00 00 00 00 00 00 01 03 00*
0,2435,0:30.657.547,676.900 us,26 B,,SP,55,Write Transaction,14 00 03 40 A3 04 14 E3 06 F5 58 06 C3 66 00 00 00 00 00 00 FF F4 00 5F FC 2F
0,2436,0:30.673.488,116.200 us,3 B,,SP,55,Read Transaction,00 00 18*
0,2437,0:30.677.881,79.000 us,2 B,,SP,55,Write Transaction,00 00
0,2438,0:30.683.231,86.700 us,2 B,,SP,55,Read Transaction,00 08*
0,2439,0:30.683.594,79.000 us,2 B,,SP,55,Write Transaction,12 01
0,2440,0:30.688.943,659.700 us,25 B,,SP,55,Read Transaction,00 00 00 00 00 02 9E 64 00 00 00 00 00 00 00 00 00 00 00 00 00 00 01 03 00*
0,2441,0:30.697.499,676.900 us,26 B,,SP,55,Write Transaction,14 00 03 44 3D 04 18 EA 06 F6 EB 06 C4 3C 00 00 00 00 00 00 FF F4 00 69 FC 2C
0,2442,0:30.713.437,116.200 us,3 B,,SP,55,Read Transaction,00 00 18*
0,2443,0:30.717.831,79.100 us,2 B,,SP,55,Write Transaction,00 00
0,2444,0:30.723.188,86.700 us,2 B,,SP,55,Read Transaction,00 08*
0,2445,0:30.723.552,79.100 us,2 B,,SP,55,Write Transaction,12 01
0,2446,0:30.728.901,659.600 us,25 B,,SP,55,Read Transaction,00 00 00 00 00 02 9E 64 00 00 00 00 00 00 00 00 00 00 00 00 00 00 01 03 00*
0,2447,0:30.737.413,677.000 us,26 B,,SP,55,Write Transaction,14 00 03 48 B5 04 1D E4 06 FA D3 06 C6 85 00 00 00 00 00 00 FF F6 00 60 FC 28
0,2448,0:30.753.350,116.300 us,3 B,,SP,55,Read Transaction,00 00 18*
0,2449,0:30.757.763,79.100 us,2 B,,SP,55,Write Transaction,00 00
0,2450,0:30.763.114,86.800 us,2 B,,SP,55,Read Transaction,00 08*
0,2451,0:30.763.476,79.100 us,2 B,,SP,55,Write Transaction,12 01
0,2452,0:30.768.828,659.500 us,25 B,,SP,55,Read Transaction,00 00 00 00 00 02 9E 64 00 00 00 00 00 00 00 00 00 00 00 00 00 00 01 03 00*
0,2453,0:30.778.205,676.400 us,26 B,,SP,55,Write Transaction,14 00 03 4B EA 04 21 6F 06 F9 7A 06 C4 40 00 00 00 00 00 00 FF F1 00 62 FC 30
0,2454,0:30.794.147,116.200 us,3 B,,SP,55,Read Transaction,00 00 18*
0,2455,0:30.798.538,79.100 us,2 B,,SP,55,Write Transaction,00 00
0,2456,0:30.803.888,86.700 us,2 B,,SP,55,Read Transaction,00 08*
0,2457,0:30.804.251,79.100 us,2 B,,SP,55,Write Transaction,12 01
0,2458,0:30.809.600,667.500 us,25 B,,SP,55,Read Transaction,00 00 00 00 00 02 9E 64 00 00 00 00 00 00 00 00 00 00 00 00 00 00 01 03 00*
0,2459,0:30.817.305,676.800 us,26 B,,SP,55,Write Transaction,14 00 03 41 4E 04 16 FA 06 EB A5 06 BC B0 00 00 00 00 00 00 FF F6 00 61 FC 38
0,2460,0:30.833.245,116.000 us,3 B,,SP,55,Read Transaction,00 00 18*
0,2461,0:30.837.637,79.100 us,2 B,,SP,55,Write Transaction,00 00
0,2462,0:30.842.987,86.700 us,2 B,,SP,55,Read Transaction,00 08*
0,2463,0:30.843.349,79.100 us,2 B,,SP,55,Write Transaction,12 01
0,2464,0:30.848.700,660.000 us,25 B,,SP,55,Read Transaction,00 00 00 00 00 02 9E 64 00 00 00 00 00 00 00 00 00 00 00 00 00 00 01 03 00*
0,2465,0:30.857.331,677.900 us,26 B,,SP,55,Write Transaction,14 00 03 2D 00 04 03 72 06 DD 0E 06 B5 65 00 00 00 00 00 00 FF F8 00 62 FC 30
0,2466,0:30.873.279,116.400 us,3 B,,SP,55,Read Transaction,00 00 18*
0,2467,0:30.877.675,79.100 us,2 B,,SP,55,Write Transaction,00 00
0,2468,0:30.883.024,86.700 us,2 B,,SP,55,Read Transaction,00 08*
0,2469,0:30.883.386,79.000 us,2 B,,SP,55,Write Transaction,12 01
0,2470,0:30.888.734,659.400 us,25 B,,SP,55,Read Transaction,00 00 00 00 00 02 9E 64 00 00 00 00 00 00 00 00 00 00 00 00 00 00 01 03 00*
0,2471,0:30.897.222,676.800 us,26 B,,SP,55,Write Transaction,14 00 03 1E 9C 03 F4 48 06 D3 B6 06 AF B8 00 00 00 00 00 00 FF F4 00 61 FC 2F
0,2472,0:30.913.165,116.200 us,3 B,,SP,55,Read Transaction,00 00 18*
0,2473,0:30.917.560,79.200 us,2 B,,SP,55,Write Transaction,00 00
0,2474,0:30.922.911,86.700 us,2 B,,SP,55,Read Transaction,00 08*
0,2475,0:30.923.272,79.100 us,2 B,,SP,55,Write Transaction,12 01
0,2476,0:30.928.623,659.600 us,25 B,,SP,55,Read Transaction,00 00 00 00 00 02 9E 64 00 00 00 00 00 00 00 00 00 00 00 00 00 00 01 03 00*
0,2477,0:30.937.206,677.400 us,26 B,,SP,55,Write Transaction,14 00 03 17 1A 03 EB 7D 06 D0 AE 06 AE 3C 00 00 00 00 00 00 FF F9 00 63 FC 2E
0,2478,0:30.953.154,116.300 us,3 B,,SP,55,Read Transaction,00 00 18*
0,2479,0:30.957.547,79.100 us,2 B,,SP,55,Write Transaction,00 00
0,2480,0:30.962.898,86.700 us,2 B,,SP,55,Read Transaction,00 08*
0,2481,0:30.963.261,79.000 us,2 B,,SP,55,Write Transaction,12 01
0,2482,0:30.968.610,659.600 us,25 B,,SP,55,Read Transaction,00 00 00 00 00 02 9E 64 00 00 00 00 00 00 00 00 00 00 00 00 00 00 01 03 00*
0,2483,0:30.977.154,676.900 us,26 B,,SP,55,Write Transaction,14 00 03 12 A3 03 E5 16 06 CE 40 06 AC A7 00 00 00 00 00 00 FF F6 00 62 FC 30
0,2484,0:30.993.099,116.200 us,3 B,,SP,55,Read Transaction,00 00 18*
0,2485,0:30.997.492,79.100 us,2 B,,SP,55,Write Transaction,00 00
0,2486,0:31.002.840,86.700 us,2 B,,SP,55,Read Transaction,00 08*
0,2487,0:31.003.203,79.100 us,2 B,,SP,55,Write Transaction,12 01
0,2488,0:31.008.552,659.200 us,25 B,,SP,55,Read Transaction,00 00 00 00 00 02 9E 64 00 00 00 00 00 00 00 00 00 00 00 00 00 00 01 03 00*
0,2489,0:31.017.086,676.900 us,26 B,,SP,55,Write Transaction,14 00 03 11 FB 03 E2 6F 06 D0 5D 06 AE 89 00 00 00 00 00 00 FF F3 00 5F FC 2E
0,2490,0:31.033.023,116.300 us,3 B,,SP,55,Read Transaction,00 00 18*
0,2491,0:31.037.416,79.000 us,2 B,,SP,55,Write Transaction,00 00
0,2492,0:31.042.767,86.700 us,2 B,,SP,55,Read Transaction,00 08*
0,2493,0:31.043.129,79.000 us,2 B,,SP,55,Write Transaction,12 01
0,2494,0:31.048.480,659.500 us,25 B,,SP,55,Read Transaction,00 00 00 00 00 02 9E 64 00 00 00 00 00 00 00 00 00 00 00 00 00 00 01 03 00*
0,2495,0:31.057.046,676.900 us,26 B,,SP,55,Write Transaction,14 00 03 15 13 03 E4 01 06 D3 94 06 AF CE 00 00 00 00 00 00 FF F8 00 63 FC 2D
0,2496,0:31.073.044,116.300 us,3 B,,SP,55,Read Transaction,00 00 18*
0,2497,0:31.077.438,79.000 us,2 B,,SP,55,Write Transaction,00 00
0,2498,0:31.082.789,86.700 us,2 B,,SP,55,Read Transaction,00 08*
0,2499,0:31.083.151,79.100 us,2 B,,SP,55,Write Transaction,12 01
0,2500,0:31.088.500,659.600 us,25 B,,SP,55,Read Transaction,00 00 00 00 00 02 9E 64 00 00 00 00 00 00 00 00 00 00 00 00 00 00 01 03 00*
0,2501,0:31.096.981,676.900 us,26 B,,SP,55,Write Transaction,14 00 03 17 37 03 E4 A9 06 D1 AA 06 AC FF 00 00 00 00 00 00 FF F5 00 61 FC 30
0,2502,0:31.112.921,116.200 us,3 B,,SP,55,Read Transaction,00 00 18*
0,2503,0:31.117.314,79.000 us,2 B,,SP,55,Write Transaction,00 00
0,2504,0:31.122.663,86.700 us,2 B,,SP,55,Read Transaction,00 08*
0,2505,0:31.123.025,79.000 us,2 B,,SP,55,Write Transaction,12 01
0,2506,0:31.128.381,660.600 us,25 B,,SP,55,Read Transaction,00 00 00 00 00 02 9E 64 00 00 00 00 00 00 00 00 00 00 00 00 00 00 01 03 00*
0,2507,0:31.136.949,676.500 us,26 B,,SP,55,Write Transaction,14 00 03 18 57 03 E4 23 06 D1 47 06 AC CB 00 00 00 00 00 00 FF F2 00 64 FC 2D
0,2508,0:31.152.889,116.100 us,3 B,,SP,55,Read Transaction,00 00 18*
0,2509,0:31.157.281,79.100 us,2 B,,SP,55,Write Transaction,00 00
0,2510,0:31.162.637,86.700 us,2 B,,SP,55,Read Transaction,00 08*
0,2511,0:31.162.999,79.100 us,2 B,,SP,55,Write Transaction,12 01
0,2512,0:31.168.348,659.500 us,25 B,,SP,55,Read Transaction,00 00 00 00 00 02 9E 64 00 00 00 00 00 00 00 00 00 00 00 00 00 00 01 03 00*
0,2513,0:31.176.884,676.900 us,26 B,,SP,55,Write Transaction,14 00 03 1B 53 03 E6 5D 06 D7 F6 06 B2 5B 00 00 00 00 00 00 FF F5 00 5F FC 2E
0,2514,0:31.192.823,116.300 us,3 B,,SP,55,Read Transaction,00 00 18*
0,2515,0:31.197.217,79.000 us,2 B,,SP,55,Write Transaction,00 00
0,2516,0:31.202.569,86.800 us,2 B,,SP,55,Read Transaction,00 08*
0,2517,0:31.202.931,79.200 us,2 B,,SP,55,Write Transaction,12 01
0,2518,0:31.208.289,659.700 us,25 B,,SP,55,Read Transaction,00 00 00 00 00 02 9E 64 00 00 00 00 00 00 00 00 00 00 00 00 00 00 01 03 00*
0,2519,0:31.216.841,676.900 us,26 B,,SP,55,Write Transaction,14 00 03 21 63 03 EC 03 06 DE AE 06 B6 64 00 00 00 00 00 00 FF F7 00 64 FC 2E
0,2520,0:31.232.780,116.300 us,3 B,,SP,55,Read Transaction,00 00 18*
0,2521,0:31.237.172,79.100 us,2 B,,SP,55,Write Transaction,00 00
0,2522,0:31.242.523,86.700 us,2 B,,SP,55,Read Transaction,00 08*
0,2523,0:31.242.885,79.000 us,2 B,,SP,55,Write Transaction,12 01
0,2524,0:31.248.236,659.700 us,25 B,,SP,55,Read Transaction,00 00 00 00 00 02 9E 64 00 00 00 00 00 00 00 00 00 00 00 00 00 00 01 03 00*
0,2525,0:31.256.792,677.800 us,26 B,,SP,55,Write Transaction,14 00 03 26 AC 03 F1 47 06 E1 96 06 B7 C3 00 00 00 00 00 00 FF F5 00 62 FC 2F
0,2526,0:31.272.735,116.300 us,3 B,,SP,55,Read Transaction,00 00 18*
0,2527,0:31.277.130,79.000 us,2 B,,SP,55,Write Transaction,00 00
0,2528,0:31.282.484,86.700 us,2 B,,SP,55,Read Transaction,00 08*
0,2529,0:31.282.844,79.100 us,2 B,,SP,55,Write Transaction,12 01
0,2530,0:31.288.199,659.600 us,25 B,,SP,55,Read Transaction,00 00 00 00 00 02 9E 64 00 00 00 00 00 00 00 00 00 00 00 00 00 00 01 03 00*
0,2531,0:31.296.722,677.000 us,26 B,,SP,55,Write Transaction,14 00 03 2B FC 03 F6 B5 06 E2 B7 06 B7 38 00 00 00 00 00 00 FF F3 00 62 FC 29
0,2532,0:31.312.662,116.300 us,3 B,,SP,55,Read Transaction,00 00 18*
0,2533,0:31.317.055,79.100 us,2 B,,SP,55,Write Transaction,00 00
0,2534,0:31.322.407,86.700 us,2 B,,SP,55,Read Transaction,00 08*
0,2535,0:31.322.770,79.000 us,2 B,,SP,55,Write Transaction,12 01
0,2536,0:31.328.120,659.600 us,25 B,,SP,55,Read Transaction,00 00 00 00 00 02 9E 64 00 00 00 00 00 00 00 00 00 00 00 00 00 00 01 03 00*
0,2537,0:31.336.681,676.900 us,26 B,,SP,55,Write Transaction,14 00 03 32 50 03 FC EB 06 E7 88 06 BA 49 00 00 00 00 00 00 FF F1 00 62 FC 2F
0,2538,0:31.352.621,116.300 us,3 B,,SP,55,Read Transaction,00 00 18*
0,2539,0:31.357.016,79.100 us,2 B,,SP,55,Write Transaction,00 00
0,2540,0:31.362.369,86.700 us,2 B,,SP,55,Read Transaction,00 08*
0,2541,0:31.362.731,79.100 us,2 B,,SP,55,Write Transaction,12 01
0,2542,0:31.368.080,659.300 us,25 B,,SP,55,Read Transaction,00 00 00 00 00 02 9E 64 00 00 00 00 00 00 00 00 00 00 00 00 00 00 01 03 00*
0,2543,0:31.376.614,676.900 us,26 B,,SP,55,Write Transaction,14 00 03 38 13 04 03 04 06 EC A5 06 BD 8E 00 00 00 00 00 00 FF F3 00 5E FC 2F
0,2544,0:31.392.561,116.400 us,3 B,,SP,55,Read Transaction,00 00 18*
0,2545,0:31.396.954,79.100 us,2 B,,SP,55,Write Transaction,00 00
0,2546,0:31.402.305,86.700 us,2 B,,SP,55,Read Transaction,00 08*
0,2547,0:31.402.666,79.000 us,2 B,,SP,55,Write Transaction,12 01
0,2548,0:31.408.016,659.600 us,25 B,,SP,55,Read Transaction,00 00 00 00 00 02 9E 64 21 75 64 00 00 00 00 00 00 00 00 00 00 00 01 03 00*
0,2549,0:31.416.624,676.900 us,26 B,,SP,55,Write Transaction,14 00 03 3C 7A 04 08 05 06 EE A3 06 BE 6D 00 00 00 00 00 00 FF F5 00 60 FC 34
0,2550,0:31.432.565,116.300 us,3 B,,SP,55,Read Transaction,00 00 18*
0,2551,0:31.436.956,79.100 us,2 B,,SP,55,Write Transaction,00 00
0,2552,0:31.442.308,86.600 us,2 B,,SP,55,Read Transaction,00 08*
0,2553,0:31.442.670,79.100 us,2 B,,SP,55,Write Transaction,12 01
0,2554,0:31.448.019,659.500 us,25 B,,SP,55,Read Transaction,00 00 00 00 00 02 9E 64 00 00 00 00 00 00 00 00 00 00 00 00 00 00 01 03 00*
0,2555,0:31.457.366,676.900 us,26 B,,SP,55,Write Transaction,14 00 03 40 C7 04 0C D1 06 F1 E4 06 C0 C1 00 00 00 00 00 00 FF F3 00 60 FC 31
0,2556,0:31.473.307,116.300 us,3 B,,SP,55,Read Transaction,00 00 18*
0,2557,0:31.477.702,79.100 us,2 B,,SP,55,Write Transaction,00 00
0,2558,0:31.483.058,86.800 us,2 B,,SP,55,Read Transaction,00 08*
0,2559,0:31.483.420,79.200 us,2 B,,SP,55,Write Transaction,12 01
0,2560,0:31.488.773,659.500 us,25 B,,SP,55,Read Transaction,00 00 00 00 00 02 9E 64 00 00 00 00 00 00 00 00 00 00 00 00 00 00 01 03 00*
0,2561,0:31.496.492,676.800 us,26 B,,SP,55,Write Transaction,14 00 03 45 2A 04 11 FC 06 F5 F9 06 C3 5E 00 00 00 00 00 00 FF F4 00 65 FC 2D
0,2562,0:31.512.433,116.600 us,3 B,,SP,55,Read Transaction,00 00 18*
0,2563,0:31.516.831,79.200 us,2 B,,SP,55,Write Transaction,00 00
0,2564,0:31.522.189,86.800 us,2 B,,SP,55,Read Transaction,00 08*
0,2565,0:31.522.551,79.100 us,2 B,,SP,55,Write Transaction,12 01
0,2566,0:31.527.903,659.700 us,25 B,,SP,55,Read Transaction,00 00 00 00 00 02 9E 64 00 00 00 00 00 00 00 00 00 00 00 00 00 00 01 03 00*
0,2567,0:31.536.419,676.700 us,26 B,,SP,55,Write Transaction,14 00 03 49 4D 04 16 CD 06 F7 DC 06 C4 3E 00 00 00 00 00 00 FF F9 00 5D FC 2A
0,2568,0:31.552.358,116.200 us,3 B,,SP,55,Read Transaction,00 00 18*
0,2569,0:31.556.751,79.000 us,2 B,,SP,55,Write Transaction,00 00
0,2570,0:31.562.101,86.700 us,2 B,,SP,55,Read Transaction,00 08*
0,2571,0:31.562.462,79.000 us,2 B,,SP,55,Write Transaction,12 01
0,2572,0:31.567.811,659.600 us,25 B,,SP,55,Read Transaction,00 00 00 00 00 02 9E 64 00 00 00 00 00 00 00 00 00 00 00 00 00 00 01 03 00*
0,2573,0:31.576.388,676.900 us,26 B,,SP,55,Write Transaction,14 00 03 4D E9 04 1B FA 06 FB 82 06 C6 87 00 00 00 00 00 00 FF F3 00 65 FC 2A
0,2574,0:31.592.327,116.300 us,3 B,,SP,55,Read Transaction,00 00 18*
0,2575,0:31.596.719,79.000 us,2 B,,SP,55,Write Transaction,00 00
0,2576,0:31.602.071,86.700 us,2 B,,SP,55,Read Transaction,00 08*
0,2577,0:31.602.433,79.100 us,2 B,,SP,55,Write Transaction,12 01
0,2578,0:31.607.791,660.500 us,25 B,,SP,55,Read Transaction,00 00 00 00 00 02 9E 64 00 00 00 00 00 00 00 00 00 00 00 00 00 00 01 03 00*
0,2579,0:31.616.340,676.900 us,26 B,,SP,55,Write Transaction,14 00 03 53 36 04 21 82 06 FE 01 06 C6 DB 00 00 00 00 00 00 FF FB 00 66 FC 2E
0,2580,0:31.632.283,116.300 us,3 B,,SP,55,Read Transaction,00 00 18*
0,2581,0:31.636.677,79.100 us,2 B,,SP,55,Write Transaction,00 00
0,2582,0:31.642.029,86.700 us,2 B,,SP,55,Read Transaction,00 08*
0,2583,0:31.642.393,79.100 us,2 B,,SP,55,Write Transaction,12 01
0,2584,0:31.647.740,659.600 us,25 B,,SP,55,Read Transaction,00 00 00 00 00 02 9E 64 00 00 00 00 00 00 00 00 00 00 00 00 00 00 01 03 00*
0,2585,0:31.656.297,676.800 us,26 B,,SP,55,Write Transaction,14 00 03 52 3D 04 20 B0 06 F7 D5 06 C2 8B 00 00 00 00 00 00 FF F7 00 62 FC 2C
0,2586,0:31.672.237,116.300 us,3 B,,SP,55,Read Transaction,00 00 18*
0,2587,0:31.676.634,79.100 us,2 B,,SP,55,Write Transaction,00 00
0,2588,0:31.681.986,86.600 us,2 B,,SP,55,Read Transaction,00 08*
0,2589,0:31.682.348,79.100 us,2 B,,SP,55,Write Transaction,12 01
0,2590,0:31.687.697,659.200 us,25 B,,SP,55,Read Transaction,00 00 00 00 00 02 9E 64 00 00 00 00 00 00 00 00 00 00 00 00 00 00 01 03 00*
0,2591,0:31.696.253,676.800 us,26 B,,SP,55,Write Transaction,14 00 03 41 E8 04 11 73 06 E9 26 06 BB 13 00 00 00 00 00 00 FF F2 00 5E FC 36
0,2592,0:31.712.198,116.200 us,3 B,,SP,55,Read Transaction,00 00 18*
0,2593,0:31.716.589,79.000 us,2 B,,SP,55,Write Transaction,00 00
0,2594,0:31.721.942,86.700 us,2 B,,SP,55,Read Transaction,00 08*
0,2595,0:31.722.304,79.100 us,2 B,,SP,55,Write Transaction,12 01
0,2596,0:31.727.651,659.500 us,25 B,,SP,55,Read Transaction,00 00 00 00 00 02 9E 64 00 00 00 00 00 00 00 00 00 00 00 00 00 00 01 03 00*
0,2597,0:31.736.199,677.800 us,26 B,,SP,55,Write Transaction,14 00 03 2E DE 04 00 19 06 DE 84 06 B6 3E 00 00 00 00 00 00 FF F2 00 63 FC 30
0,2598,0:31.752.141,116.300 us,3 B,,SP,55,Read Transaction,00 00 18*
0,2599,0:31.756.536,79.100 us,2 B,,SP,55,Write Transaction,00 00
0,2600,0:31.761.884,86.700 us,2 B,,SP,55,Read Transaction,00 08*
0,2601,0:31.762.246,79.000 us,2 B,,SP,55,Write Transaction,12 01
0,2602,0:31.767.597,659.600 us,25 B,,SP,55,Read Transaction,00 00 00 00 00 02 9E 64 00 00 00 00 00 00 00 00 00 00 00 00 00 00 01 03 00*
0,2603,0:31.776.150,676.900 us,26 B,,SP,55,Write Transaction,14 00 03 24 78 03 F5 B7 06 D9 41 06 B2 DF 00 00 00 00 00 00 FF F6 00 5F FC 2C
0,2604,0:31.792.092,116.200 us,3 B,,SP,55,Read Transaction,00 00 18*
0,2605,0:31.796.484,79.000 us,2 B,,SP,55,Write Transaction,00 00
0,2606,0:31.801.834,86.700 us,2 B,,SP,55,Read Transaction,00 08*
0,2607,0:31.802.196,79.100 us,2 B,,SP,55,Write Transaction,12 01
0,2608,0:31.807.545,659.600 us,25 B,,SP,55,Read Transaction,00 00 00 00 00 02 9E 64 00 00 00 00 00 00 00 00 00 00 00 00 00 00 01 03 00*
0,2609,0:31.816.094,676.900 us,26 B,,SP,55,Write Transaction,14 00 03 1D EF 03 EE A8 06 D4 F7 06 B0 3A 00 00 00 00 00 00 FF F2 00 61 FC 2B
0,2610,0:31.832.033,116.200 us,3 B,,SP,55,Read Transaction,00 00 18*
0,2611,0:31.836.427,79.000 us,2 B,,SP,55,Write Transaction,00 00
0,2612,0:31.841.776,86.700 us,2 B,,SP,55,Read Transaction,00 08*
0,2613,0:31.842.137,79.000 us,2 B,,SP,55,Write Transaction,12 01
0,2614,0:31.847.488,659.600 us,25 B,,SP,55,Read Transaction,00 00 00 00 00 02 9E 64 00 00 00 00 00 00 00 00 00 00 00 00 00 00 01 03 00*
0,2615,0:31.856.022,676.900 us,26 B,,SP,55,Write Transaction,14 00 03 19 FB 03 EA 0E 06 D5 3B 06 B1 2F 00 00 00 00 00 00 FF F4 00 5F FC 2C
0,2616,0:31.871.961,116.300 us,3 B,,SP,55,Read Transaction,00 00 18*
0,2617,0:31.876.354,79.000 us,2 B,,SP,55,Write Transaction,00 00
0,2618,0:31.881.704,86.600 us,2 B,,SP,55,Read Transaction,00 08*
0,2619,0:31.882.066,79.100 us,2 B,,SP,55,Write Transaction,12 01
0,2620,0:31.887.420,659.500 us,25 B,,SP,55,Read Transaction,00 00 00 00 00 02 9E 64 00 00 00 00 00 00 00 00 00 00 00 00 00 00 01 03 00*
0,2621,0:31.896.032,677.800 us,26 B,,SP,55,Write Transaction,14 00 03 1B EF 03 EB 14 06 D7 B4 06 B1 D4 00 00 00 00 00 00 FF F6 00 5F FC 30
0,2622,0:31.912.002,116.300 us,3 B,,SP,55,Read Transaction,00 00 18*
0,2623,0:31.916.398,79.100 us,2 B,,SP,55,Write Transaction,00 00
0,2624,0:31.921.746,89.700 us,2 B,,SP,55,Read Transaction,00 08*
0,2625,0:31.922.112,79.100 us,2 B,,SP,55,Write Transaction,12 01
0,2626,0:31.927.463,659.600 us,25 B,,SP,55,Read Transaction,00 00 00 00 00 02 9E 64 00 00 00 00 00 00 00 00 00 00 00 00 00 00 01 03 00*
0,2627,0:31.935.918,676.900 us,26 B,,SP,55,Write Transaction,14 00 03 1F FA 03 EE 20 06 DB 8E 06 B4 72 00 00 00 00 00 00 FF F4 00 62 FC 32
0,2628,0:31.951.860,116.400 us,3 B,,SP,55,Read Transaction,00 00 18*
0,2629,0:31.956.254,79.100 us,2 B,,SP,55,Write Transaction,00 00
0,2630,0:31.961.605,86.700 us,2 B,,SP,55,Read Transaction,00 08*
0,2631,0:31.961.968,79.000 us,2 B,,SP,55,Write Transaction,12 01
0,2632,0:31.967.318,659.600 us,25 B,,SP,55,Read Transaction,00 00 00 00 00 02 9E 64 00 00 00 00 00 00 00 00 00 00 00 00 00 00 01 03 00*
0,2633,0:31.975.914,676.900 us,26 B,,SP,55,Write Transaction,14 00 03 20 F2 03 EE C8 06 DC 22 06 B4 6D 00 00 00 00 00 00 FF F5 00 5F FC 32
0,2634,0:31.991.916,116.300 us,3 B,,SP,55,Read Transaction,00 00 18*
0,2635,0:31.996.309,79.100 us,2 B,,SP,55,Write Transaction,00 00
0,2636,0:32.001.662,86.700 us,2 B,,SP,55,Read Transaction,00 08*
0,2637,0:32.002.025,79.100 us,2 B,,SP,55,Write Transaction,12 01
0,2638,0:32.007.373,659.500 us,25 B,,SP,55,Read Transaction,00 00 00 00 00 02 9E 64 00 00 00 00 00 00 00 00 00 00 00 00 00 00 01 03 00*
0,2639,0:32.015.838,677.000 us,26 B,,SP,55,Write Transaction,14 00 03 21 75 03 EE FE 06 DB F2 06 B4 46 00 00 00 00 00 00 FF F5 00 65 FC 33
0,2640,0:32.031.778,116.300 us,3 B,,SP,55,Read Transaction,00 00 18*
0,2641,0:32.036.173,79.100 us,2 B,,SP,55,Write Transaction,00 00
0,2642,0:32.041.521,86.700 us,2 B,,SP,55,Read Transaction,00 08*
0,2643,0:32.041.883,79.100 us,2 B,,SP,55,Write Transaction,12 01
0,2644,0:32.047.234,659.600 us,25 B,,SP,55,Read Transaction,00 00 00 00 00 02 9E 64 00 00 00 00 00 00 00 00 00 00 00 00 00 00 01 03 00*
0,2645,0:32.055.801,676.900 us,26 B,,SP,55,Write Transaction,14 00 03 24 4B 03 F1 AD 06 E0 7C 06 B7 7F 00 00 00 00 00 00 FF F0 00 63 FC 2E
0,2646,0:32.071.749,116.200 us,3 B,,SP,55,Read Transaction,00 00 18*
0,2647,0:32.076.142,79.100 us,2 B,,SP,55,Write Transaction,00 00
0,2648,0:32.081.493,86.600 us,2 B,,SP,55,Read Transaction,00 08*
0,2649,0:32.081.856,79.100 us,2 B,,SP,55,Write Transaction,12 01
0,2650,0:32.087.204,659.600 us,25 B,,SP,55,Read Transaction,00 00 00 00 00 02 9E 64 00 00 00 00 00 00 00 00 00 00 00 00 00 00 01 03 00*
0,2651,0:32.095.764,677.000 us,26 B,,SP,55,Write Transaction,14 00 03 28 F1 03 F6 43 06 E3 0D 06 B8 1C 00 00 00 00 00 00 FF F8 00 63 FC 2D
0,2652,0:32.111.705,116.300 us,3 B,,SP,55,Read Transaction,00 00 18*
0,2653,0:32.116.103,79.200 us,2 B,,SP,55,Write Transaction,00 00
0,2654,0:32.121.455,86.700 us,2 B,,SP,55,Read Transaction,00 08*
0,2655,0:32.121.816,79.100 us,2 B,,SP,55,Write Transaction,12 01
0,2656,0:32.127.167,659.600 us,25 B,,SP,55,Read Transaction,00 00 00 00 00 02 9E 64 00 00 00 00 00 00 00 00 00 00 00 00 00 00 01 03 00*
0,2657,0:32.136.775,676.900 us,26 B,,SP,55,Write Transaction,14 00 03 2E 90 03 FB A5 06 E8 8F 06 BB E4 00 00 00 00 00 00 FF F2 00 64 FC 2B
0,2658,0:32.152.717,116.300 us,3 B,,SP,55,Read Transaction,00 00 18*
0,2659,0:32.157.110,79.200 us,2 B,,SP,55,Write Transaction,00 00
0,2660,0:32.162.463,86.800 us,2 B,,SP,55,Read Transaction,00 08*
0,2661,0:32.162.826,79.100 us,2 B,,SP,55,Write Transaction,12 01
0,2662,0:32.168.179,659.700 us,25 B,,SP,55,Read Transaction,00 00 00 00 00 02 9E 64 00 00 00 00 00 00 00 00 00 00 00 00 00 00 01 03 00*
0,2663,0:32.175.621,677.000 us,26 B,,SP,55,Write Transaction,14 00 03 33 AC 04 01 00 06 ED 0F 06 BE C0 00 00 00 00 00 00 FF F5 00 63 FC 2E
0,2664,0:32.191.564,116.300 us,3 B,,SP,55,Read Transaction,00 00 18*
0,2665,0:32.195.959,79.000 us,2 B,,SP,55,Write Transaction,00 00
0,2666,0:32.201.307,86.800 us,2 B,,SP,55,Read Transaction,00 08*
0,2667,0:32.201.668,79.200 us,2 B,,SP,55,Write Transaction,12 01
0,2668,0:32.207.021,659.700 us,25 B,,SP,55,Read Transaction,00 00 00 00 00 02 9E 64 00 00 00 00 00 00 00 00 00 00 00 00 00 00 01 03 00*
0,2669,0:32.215.577,676.900 us,26 B,,SP,55,Write Transaction,14 00 03 37 7B 04 05 4F 06 EF 40 06 BF 9A 00 00 00 00 00 00 FF F7 00 67 FC 2F
0,2670,0:32.231.519,116.300 us,3 B,,SP,55,Read Transaction,00 00 18*
0,2671,0:32.235.912,79.100 us,2 B,,SP,55,Write Transaction,00 00
0,2672,0:32.241.262,86.700 us,2 B,,SP,55,Read Transaction,00 08*
0,2673,0:32.241.625,79.200 us,2 B,,SP,55,Write Transaction,12 01
0,2674,0:32.246.980,659.700 us,25 B,,SP,55,Read Transaction,00 00 00 00 00 02 9E 64 00 00 00 00 00 00 00 00 00 00 00 00 00 00 01 03 00*
0,2675,0:32.255.594,677.900 us,26 B,,SP,55,Write Transaction,14 00 03 3C 5B 04 0A 4E 06 F3 44 06 C1 E7 00 00 00 00 00 00 FF F3 00 64 FC 2F
0,2676,0:32.271.536,116.300 us,3 B,,SP,55,Read Transaction,00 00 18*
0,2677,0:32.275.931,79.100 us,2 B,,SP,55,Write Transaction,00 00
0,2678,0:32.281.282,86.700 us,2 B,,SP,55,Read Transaction,00 08*
0,2679,0:32.281.644,79.100 us,2 B,,SP,55,Write Transaction,12 01
0,2680,0:32.286.992,659.600 us,25 B,,SP,55,Read Transaction,00 00 00 00 00 02 9E 64 21 EC 64 00 00 00 00 00 00 00 00 00 00 00 01 03 00*
0,2681,0:32.295.473,677.900 us,26 B,,SP,55,Write Transaction,14 00 03 41 2C 04 0F 64 06 F7 B7 06 C5 28 00 00 00 00 00 00 FF F2 00 62 FC 30
0,2682,0:32.311.435,116.300 us,3 B,,SP,55,Read Transaction,00 00 18*
0,2683,0:32.315.828,79.100 us,2 B,,SP,55,Write Transaction,00 00
0,2684,0:32.321.178,86.700 us,2 B,,SP,55,Read Transaction,00 08*
0,2685,0:32.321.540,79.000 us,2 B,,SP,55,Write Transaction,12 01
0,2686,0:32.326.890,659.600 us,25 B,,SP,55,Read Transaction,00 00 00 00 00 02 9E 64 00 00 00 00 00 00 00 00 00 00 00 00 00 00 01 03 00*
0,2687,0:32.335.488,676.900 us,26 B,,SP,55,Write Transaction,14 00 03 46 27 04 14 B6 06 FB 84 06 C7 1E 00 00 00 00 00 00 FF F2 00 61 FC 2C
0,2688,0:32.351.429,116.300 us,3 B,,SP,55,Read Transaction,00 00 18*
0,2689,0:32.355.821,79.000 us,2 B,,SP,55,Write Transaction,00 00
0,2690,0:32.361.171,86.700 us,2 B,,SP,55,Read Transaction,00 08*
0,2691,0:32.361.534,79.100 us,2 B,,SP,55,Write Transaction,12 01
0,2692,0:32.366.883,659.800 us,25 B,,SP,55,Read Transaction,00 00 00 00 00 02 9E 64 00 00 00 00 00 00 00 00 00 00 00 00 00 00 01 03 00*
0,2693,0:32.375.376,676.900 us,26 B,,SP,55,Write Transaction,14 00 03 4B 6B 04 1A 0D 06 FE 5F 06 C8 79 00 00 00 00 00 00 FF F5 00 66 FC 2F
0,2694,0:32.391.323,116.300 us,3 B,,SP,55,Read Transaction,00 00 18*
0,2695,0:32.395.719,79.100 us,2 B,,SP,55,Write Transaction,00 00
0,2696,0:32.401.069,86.700 us,2 B,,SP,55,Read Transaction,00 08*
0,2697,0:32.401.430,79.100 us,2 B,,SP,55,Write Transaction,12 01
0,2698,0:32.406.781,659.700 us,25 B,,SP,55,Read Transaction,00 00 00 00 00 02 9E 64 00 00 00 00 00 00 00 00 00 00 00 00 00 00 01 03 00*
0,2699,0:32.415.455,677.900 us,26 B,,SP,55,Write Transaction,14 00 03 50 E2 04 1F 84 07 02 05 06 CA 7B 00 00 00 00 00 00 FF F3 00 60 FC 2E
0,2700,0:32.431.402,116.300 us,3 B,,SP,55,Read Transaction,00 00 18*
0,2701,0:32.435.795,79.100 us,2 B,,SP,55,Write Transaction,00 00
0,2702,0:32.441.146,86.600 us,2 B,,SP,55,Read Transaction,00 08*
0,2703,0:32.441.509,79.000 us,2 B,,SP,55,Write Transaction,12 01
0,2704,0:32.446.856,659.600 us,25 B,,SP,55,Read Transaction,00 00 00 00 00 02 9E 64 00 00 00 00 00 00 00 00 00 00 00 00 00 00 01 03 00*
0,2705,0:32.455.296,677.000 us,26 B,,SP,55,Write Transaction,14 00 03 56 15 04 24 E1 07 06 04 06 CC EE 00 00 00 00 00 00 FF F6 00 64 FC 30
0,2706,0:32.471.240,116.300 us,3 B,,SP,55,Read Transaction,00 00 18*
0,2707,0:32.475.635,79.100 us,2 B,,SP,55,Write Transaction,00 00
0,2708,0:32.480.985,86.700 us,2 B,,SP,55,Read Transaction,00 08*
0,2709,0:32.481.346,79.100 us,2 B,,SP,55,Write Transaction,12 01
0,2710,0:32.486.697,659.700 us,25 B,,SP,55,Read Transaction,00 00 00 00 00 02 9E 64 00 00 00 00 00 00 00 00 00 00 00 00 00 00 01 03 00*
0,2711,0:32.495.270,676.900 us,26 B,,SP,55,Write Transaction,14 00 03 5B 32 04 2A 1D 07 0A 11 06 CF 03 00 00 00 00 00 00 FF F4 00 5E FC 32
0,2712,0:32.511.209,116.200 us,3 B,,SP,55,Read Transaction,00 00 18*
0,2713,0:32.515.602,79.100 us,2 B,,SP,55,Write Transaction,00 00
0,2714,0:32.520.953,86.700 us,2 B,,SP,55,Read Transaction,00 08*
0,2715,0:32.521.316,79.100 us,2 B,,SP,55,Write Transaction,12 01
0,2716,0:32.526.667,659.600 us,25 B,,SP,55,Read Transaction,00 00 00 00 00 02 9E 64 00 00 00 00 00 00 00 00 00 00 00 00 00 00 01 03 00*
0,2717,0:32.535.239,678.000 us,26 B,,SP,55,Write Transaction,14 00 03 59 9F 04 28 D4 07 02 4C 06 C9 1A 00 00 00 00 00 00 FF EF 00 63 FC 2A
0,2718,0:32.551.190,116.300 us,3 B,,SP,55,Read Transaction,00 00 18*
0,2719,0:32.555.584,79.100 us,2 B,,SP,55,Write Transaction,00 00
0,2720,0:32.561.001,86.700 us,2 B,,SP,55,Read Transaction,00 08*
0,2721,0:32.561.364,79.100 us,2 B,,SP,55,Write Transaction,12 01
0,2722,0:32.566.713,660.600 us,25 B,,SP,55,Read Transaction,00 00 00 00 00 02 9E 64 00 00 00 00 00 00 00 00 00 00 00 00 00 00 01 03 00*
0,2723,0:32.575.162,676.900 us,26 B,,SP,55,Write Transaction,14 00 03 49 6C 04 18 6C 06 F3 8D 06 C1 9A 00 00 00 00 00 00 FF F3 00 63 FC 32
0,2724,0:32.591.104,116.300 us,3 B,,SP,55,Read Transaction,00 00 18*
0,2725,0:32.595.505,79.100 us,2 B,,SP,55,Write Transaction,00 00
0,2726,0:32.600.857,86.700 us,2 B,,SP,55,Read Transaction,00 08*
0,2727,0:32.601.219,79.100 us,2 B,,SP,55,Write Transaction,12 01
0,2728,0:32.606.570,659.700 us,25 B,,SP,55,Read Transaction,00 00 00 00 00 02 9E 64 00 00 00 00 00 00 00 00 00 00 00 00 00 00 01 03 00*
0,2729,0:32.615.142,676.900 us,26 B,,SP,55,Write Transaction,14 00 03 36 2F 04 06 2B 06 E8 74 06 BC 51 00 00 00 00 00 00 FF F3 00 62 FC 2C
0,2730,0:32.631.085,116.300 us,3 B,,SP,55,Read Transaction,00 00 18*
0,2731,0:32.635.478,79.100 us,2 B,,SP,55,Write Transaction,00 00
0,2732,0:32.640.829,86.700 us,2 B,,SP,55,Read Transaction,00 08*
0,2733,0:32.641.192,79.000 us,2 B,,SP,55,Write Transaction,12 01
0,2734,0:32.646.540,660.300 us,25 B,,SP,55,Read Transaction,00 00 00 00 00 02 9E 64 00 00 00 00 00 00 00 00 00 00 00 00 00 00 01 03 00*
0,2735,0:32.655.077,676.900 us,26 B,,SP,55,Write Transaction,14 00 03 28 CB 03 F8 06 06 E1 F1 06 B9 53 00 00 00 00 00 00 FF EE 00 61 FC 32
0,2736,0:32.671.016,116.300 us,3 B,,SP,55,Read Transaction,00 00 18*
0,2737,0:32.675.411,79.100 us,2 B,,SP,55,Write Transaction,00 00
0,2738,0:32.680.760,86.700 us,2 B,,SP,55,Read Transaction,00 08*
0,2739,0:32.681.121,79.100 us,2 B,,SP,55,Write Transaction,12 01
0,2740,0:32.686.472,659.600 us,25 B,,SP,55,Read Transaction,00 00 00 00 00 02 9E 64 00 00 00 00 00 00 00 00 00 00 00 00 00 00 01 03 00*
0,2741,0:32.695.041,676.900 us,26 B,,SP,55,Write Transaction,14 00 03 21 31 03 EF 63 06 E1 3C 06 B9 DC 00 00 00 00 00 00 FF F2 00 68 FC 34
0,2742,0:32.710.984,116.300 us,3 B,,SP,55,Read Transaction,00 00 18*
0,2743,0:32.715.377,79.100 us,2 B,,SP,55,Write Transaction,00 00
0,2744,0:32.720.728,86.800 us,2 B,,SP,55,Read Transaction,00 08*
0,2745,0:32.721.091,79.100 us,2 B,,SP,55,Write Transaction,12 01
0,2746,0:32.726.440,659.700 us,25 B,,SP,55,Read Transaction,00 00 00 00 00 02 9E 64 00 00 00 00 00 00 00 00 00 00 00 00 00 00 01 03 00*
0,2747,0:32.734.971,677.500 us,26 B,,SP,55,Write Transaction,14 00 03 1C 31 03 E8 DE 06 DE D3 06 B8 4D 00 00 00 00 00 00 FF F6 00 64 FC 31
0,2748,0:32.750.919,116.300 us,3 B,,SP,55,Read Transaction,00 00 18*
0,2749,0:32.755.314,79.100 us,2 B,,SP,55,Write Transaction,00 00
0,2750,0:32.760.665,86.700 us,2 B,,SP,55,Read Transaction,00 08*
0,2751,0:32.761.025,79.100 us,2 B,,SP,55,Write Transaction,12 01
0,2752,0:32.766.376,660.000 us,25 B,,SP,55,Read Transaction,00 00 00 00 00 02 9E 64 00 00 00 00 00 00 00 00 00 00 00 00 00 00 01 03 00*
0,2753,0:32.774.927,677.500 us,26 B,,SP,55,Write Transaction,14 00 03 1C 2F 03 E7 3D 06 E2 34 06 BB 1B 00 00 00 00 00 00 FF F7 00 66 FC 2F
0,2754,0:32.790.872,116.400 us,3 B,,SP,55,Read Transaction,00 00 18*
0,2755,0:32.795.267,79.100 us,2 B,,SP,55,Write Transaction,00 00
0,2756,0:32.800.618,86.700 us,2 B,,SP,55,Read Transaction,00 08*
0,2757,0:32.800.981,79.100 us,2 B,,SP,55,Write Transaction,12 01
0,2758,0:32.806.335,659.500 us,25 B,,SP,55,Read Transaction,00 00 00 00 00 02 9E 64 00 00 00 00 00 00 00 00 00 00 00 00 00 00 01 03 00*
0,2759,0:32.814.923,677.000 us,26 B,,SP,55,Write Transaction,14 00 03 22 1E 03 EB AD 06 E7 1E 06 BD 38 00 00 00 00 00 00 FF F3 00 63 FC 32
0,2760,0:32.830.882,116.200 us,3 B,,SP,55,Read Transaction,00 00 18*
0,2761,0:32.835.277,79.100 us,2 B,,SP,55,Write Transaction,00 00
0,2762,0:32.840.624,86.700 us,2 B,,SP,55,Read Transaction,00 08*
0,2763,0:32.840.987,79.100 us,2 B,,SP,55,Write Transaction,12 01
0,2764,0:32.846.336,659.500 us,25 B,,SP,55,Read Transaction,00 00 00 00 00 02 9E 64 00 00 00 00 00 00 00 00 00 00 00 00 00 00 01 03 00*
0,2765,0:32.854.822,676.900 us,26 B,,SP,55,Write Transaction,14 00 03 26 1D 03 EE AB 06 E9 8B 06 BE 9F 00 00 00 00 00 00 FF F6 00 61 FC 2C
0,2766,0:32.870.773,116.500 us,3 B,,SP,55,Read Transaction,00 00 18*
0,2767,0:32.875.172,79.000 us,2 B,,SP,55,Write Transaction,00 00
0,2768,0:32.880.527,86.700 us,2 B,,SP,55,Read Transaction,00 08*
0,2769,0:32.880.890,79.100 us,2 B,,SP,55,Write Transaction,12 01
0,2770,0:32.886.240,659.600 us,25 B,,SP,55,Read Transaction,00 00 00 00 00 02 9E 64 00 00 00 00 00 00 00 00 00 00 00 00 00 00 01 03 00*
0,2771,0:32.894.824,676.900 us,26 B,,SP,55,Write Transaction,14 00 03 28 51 03 F0 66 06 EA 09 06 BE 90 00 00 00 00 00 00 FF F0 00 63 FC 2B
0,2772,0:32.910.787,116.400 us,3 B,,SP,55,Read Transaction,00 00 18*
0,2773,0:32.915.180,79.100 us,2 B,,SP,55,Write Transaction,00 00
0,2774,0:32.920.531,86.800 us,2 B,,SP,55,Read Transaction,00 08*
0,2775,0:32.920.894,79.200 us,2 B,,SP,55,Write Transaction,12 01
0,2776,0:32.926.243,659.600 us,25 B,,SP,55,Read Transaction,00 00 00 00 00 02 9E 64 00 00 00 00 00 00 00 00 00 00 00 00 00 00 01 03 00*
0,2777,0:32.934.944,676.900 us,26 B,,SP,55,Write Transaction,14 00 03 2B 86 03 F3 47 06 EC F0 06 C0 7C 00 00 00 00 00 00 FF F3 00 64 FC 30
0,2778,0:32.950.894,116.400 us,3 B,,SP,55,Read Transaction,00 00 18*
0,2779,0:32.955.289,79.100 us,2 B,,SP,55,Write Transaction,00 00
0,2780,0:32.960.639,86.700 us,2 B,,SP,55,Read Transaction,00 08*
0,2781,0:32.961.001,79.100 us,2 B,,SP,55,Write Transaction,12 01
0,2782,0:32.966.352,659.600 us,25 B,,SP,55,Read Transaction,00 00 00 00 00 02 9E 64 00 00 00 00 00 00 00 00 00 00 00 00 00 00 01 03 00*
0,2783,0:32.974.750,677.000 us,26 B,,SP,55,Write Transaction,14 00 03 31 54 03 F8 BA 06 F2 8F 06 C3 E3 00 00 00 00 00 00 FF F3 00 63 FC 2F
0,2784,0:32.990.710,116.500 us,3 B,,SP,55,Read Transaction,00 00 18*
0,2785,0:32.995.104,79.000 us,2 B,,SP,55,Write Transaction,00 00
0,2786,0:33.000.455,86.700 us,2 B,,SP,55,Read Transaction,00 08*
0,2787,0:33.000.818,79.000 us,2 B,,SP,55,Write Transaction,12 01
0,2788,0:33.006.166,659.700 us,25 B,,SP,55,Read Transaction,00 00 00 00 00 02 9E 64 00 00 00 00 00 00 00 00 00 00 00 00 00 00 01 03 00*
0,2789,0:33.014.623,677.000 us,26 B,,SP,55,Write Transaction,14 00 03 36 AE 03 FE 15 06 F5 4A 06 C4 E2 00 00 00 00 00 00 FF F5 00 62 FC 2E
0,2790,0:33.030.561,116.300 us,3 B,,SP,55,Read Transaction,00 00 18*
0,2791,0:33.034.955,79.000 us,2 B,,SP,55,Write Transaction,00 00
0,2792,0:33.040.305,86.700 us,2 B,,SP,55,Read Transaction,00 08*
0,2793,0:33.040.666,79.000 us,2 B,,SP,55,Write Transaction,12 01
0,2794,0:33.046.016,659.300 us,25 B,,SP,55,Read Transaction,00 00 00 00 00 02 9E 64 00 00 00 00 00 00 00 00 00 00 00 00 00 00 01 03 00*
0,2795,0:33.054.633,677.900 us,26 B,,SP,55,Write Transaction,14 00 03 3A 5B 04 01 E8 06 F5 64 06 C4 3C 00 00 00 00 00 00 FF F2 00 62 FC 2E
0,2796,0:33.070.577,116.300 us,3 B,,SP,55,Read Transaction,00 00 18*
0,2797,0:33.074.972,79.200 us,2 B,,SP,55,Write Transaction,00 00
0,2798,0:33.080.324,86.700 us,2 B,,SP,55,Read Transaction,00 08*
0,2799,0:33.080.688,79.100 us,2 B,,SP,55,Write Transaction,12 01
0,2800,0:33.086.071,659.600 us,25 B,,SP,55,Read Transaction,00 00 00 00 00 02 9E 64 00 00 00 00 00 00 00 00 00 00 00 00 00 00 01 03 00*
0,2801,0:33.094.518,676.900 us,26 B,,SP,55,Write Transaction,14 00 03 3E 2D 04 05 D7 06 F6 72 06 C4 61 00 00 00 00 00 00 FF F3 00 63 FC 2F
0,2802,0:33.110.460,116.300 us,3 B,,SP,55,Read Transaction,00 00 18*
0,2803,0:33.114.855,79.100 us,2 B,,SP,55,Write Transaction,00 00
0,2804,0:33.120.203,86.700 us,2 B,,SP,55,Read Transaction,00 08*
0,2805,0:33.120.574,79.100 us,2 B,,SP,55,Write Transaction,12 01
0,2806,0:33.125.926,659.600 us,25 B,,SP,55,Read Transaction,00 00 00 00 00 02 9E 64 00 00 00 00 00 00 00 00 00 00 00 00 00 00 01 03 00*
0,2807,0:33.134.494,676.900 us,26 B,,SP,55,Write Transaction,14 00 03 41 BC 04 09 BB 06 FA 75 06 C7 48 00 00 00 00 00 00 FF F7 00 64 FC 2D
0,2808,0:33.150.434,116.300 us,3 B,,SP,55,Read Transaction,00 00 18*
0,2809,0:33.154.826,79.100 us,2 B,,SP,55,Write Transaction,00 00
0,2810,0:33.160.178,86.700 us,2 B,,SP,55,Read Transaction,00 08*
0,2811,0:33.160.540,79.100 us,2 B,,SP,55,Write Transaction,12 01
0,2812,0:33.165.890,659.700 us,25 B,,SP,55,Read Transaction,00 00 00 00 00 02 9E 64 22 21 64 00 00 00 00 00 00 00 00 00 00 00 01 03 00*
0,2813,0:33.174.454,676.900 us,26 B,,SP,55,Write Transaction,14 00 03 46 1A 04 0E 63 06 FD D9 06 C9 24 00 00 00 00 00 00 FF F6 00 64 FC 30
0,2814,0:33.190.397,116.300 us,3 B,,SP,55,Read Transaction,00 00 18*
0,2815,0:33.194.792,79.100 us,2 B,,SP,55,Write Transaction,00 00
0,2816,0:33.200.144,86.800 us,2 B,,SP,55,Read Transaction,00 08*
0,2817,0:33.200.505,79.100 us,2 B,,SP,55,Write Transaction,12 01
0,2818,0:33.205.853,659.600 us,25 B,,SP,55,Read Transaction,00 00 00 00 00 02 9E 64 00 00 00 00 00 00 00 00 00 00 00 00 00 00 01 03 00*
0,2819,0:33.214.399,676.400 us,26 B,,SP,55,Write Transaction,14 00 03 4A 00 04 12 88 07 01 23 06 CB 3E 00 00 00 00 00 00 FF F6 00 63 FC 32
0,2820,0:33.230.341,116.300 us,3 B,,SP,55,Read Transaction,00 00 18*
0,2821,0:33.234.733,79.100 us,2 B,,SP,55,Write Transaction,00 00
0,2822,0:33.240.084,86.700 us,2 B,,SP,55,Read Transaction,00 08*
0,2823,0:33.240.445,79.000 us,2 B,,SP,55,Write Transaction,12 01
0,2824,0:33.245.794,659.600 us,25 B,,SP,55,Read Transaction,00 00 00 00 00 02 9E 64 00 00 00 00 00 00 00 00 00 00 00 00 00 00 01 03 00*
0,2825,0:33.254.356,676.800 us,26 B,,SP,55,Write Transaction,14 00 03 4D C0 04 16 95 07 02 E3 06 CB FF 00 00 00 00 00 00 FF F2 00 61 FC 2C
0,2826,0:33.270.297,116.300 us,3 B,,SP,55,Read Transaction,00 00 18*
0,2827,0:33.274.691,79.100 us,2 B,,SP,55,Write Transaction,00 00
0,2828,0:33.280.042,86.700 us,2 B,,SP,55,Read Transaction,00 08*
0,2829,0:33.280.405,79.100 us,2 B,,SP,55,Write Transaction,12 01
0,2830,0:33.285.754,659.800 us,25 B,,SP,55,Read Transaction,00 00 00 00 00 02 9E 64 00 00 00 00 00 00 00 00 00 00 00 00 00 00 01 03 00*
0,2831,0:33.294.286,677.800 us,26 B,,SP,55,Write Transaction,14 00 03 50 F2 04 1A 20 07 05 57 06 CD F7 00 00 00 00 00 00 FF F3 00 61 FC 30
0,2832,0:33.310.237,116.300 us,3 B,,SP,55,Read Transaction,00 00 18*
0,2833,0:33.314.630,79.100 us,2 B,,SP,55,Write Transaction,00 00
0,2834,0:33.319.979,86.700 us,2 B,,SP,55,Read Transaction,00 08*
0,2835,0:33.320.341,79.100 us,2 B,,SP,55,Write Transaction,12 01
0,2836,0:33.325.691,659.700 us,25 B,,SP,55,Read Transaction,00 00 00 00 00 02 9E 64 00 00 00 00 00 00 00 00 00 00 00 00 00 00 01 03 00*
0,2837,0:33.334.337,676.800 us,26 B,,SP,55,Write Transaction,14 00 03 55 00 04 1E B3 07 08 80 06 CF AC 00 00 00 00 00 00 FF F4 00 62 FC 2D
0,2838,0:33.350.277,116.300 us,3 B,,SP,55,Read Transaction,00 00 18*
0,2839,0:33.354.674,79.200 us,2 B,,SP,55,Write Transaction,00 00
0,2840,0:33.360.030,86.800 us,2 B,,SP,55,Read Transaction,00 08*
0,2841,0:33.360.393,79.200 us,2 B,,SP,55,Write Transaction,12 01
0,2842,0:33.365.749,659.600 us,25 B,,SP,55,Read Transaction,00 00 00 00 00 02 9E 64 00 00 00 00 00 00 00 00 00 00 00 00 00 00 01 03 00*
0,2843,0:33.374.179,676.900 us,26 B,,SP,55,Write Transaction,14 00 03 59 70 04 23 70 07 0B B9 06 D1 B1 00 00 00 00 00 00 FF F4 00 64 FC 32
0,2844,0:33.390.121,116.300 us,3 B,,SP,55,Read Transaction,00 00 18*
0,2845,0:33.394.515,79.100 us,2 B,,SP,55,Write Transaction,00 00
0,2846,0:33.399.865,86.800 us,2 B,,SP,55,Read Transaction,00 08*
0,2847,0:33.400.227,79.100 us,2 B,,SP,55,Write Transaction,12 01
0,2848,0:33.405.578,659.700 us,25 B,,SP,55,Read Transaction,00 00 00 00 00 02 9E 64 00 00 00 00 00 00 00 00 00 00 00 00 00 00 01 03 00*
0,2849,0:33.414.174,676.400 us,26 B,,SP,55,Write Transaction,14 00 03 5D 28 04 27 81 07 0C DA 06 D1 6B 00 00 00 00 00 00 FF F2 00 63 FC 2F
0,2850,0:33.430.113,116.300 us,3 B,,SP,55,Read Transaction,00 00 18*
0,2851,0:33.434.505,79.000 us,2 B,,SP,55,Write Transaction,00 00
0,2852,0:33.439.856,86.700 us,2 B,,SP,55,Read Transaction,00 08*
0,2853,0:33.440.219,79.000 us,2 B,,SP,55,Write Transaction,12 01
0,2854,0:33.445.570,660.600 us,25 B,,SP,55,Read Transaction,00 00 00 00 00 02 9E 64 00 00 00 00 00 00 00 00 00 00 00 00 00 00 01 03 00*
0,2855,0:33.454.119,677.700 us,26 B,,SP,55,Write Transaction,14 00 03 59 F8 04 23 D4 07 04 FE 06 CB FE 00 00 00 00 00 00 FF FB 00 61 FC 28
0,2856,0:33.470.071,116.500 us,3 B,,SP,55,Read Transaction,00 00 18*
0,2857,0:33.474.471,79.200 us,2 B,,SP,55,Write Transaction,00 00
0,2858,0:33.479.872,86.700 us,2 B,,SP,55,Read Transaction,00 08*
0,2859,0:33.480.234,79.000 us,2 B,,SP,55,Write Transaction,12 01
0,2860,0:33.485.583,659.700 us,25 B,,SP,55,Read Transaction,00 00 00 00 00 02 9E 64 00 00 00 00 00 00 00 00 00 00 00 00 00 00 01 03 00*
0,2861,0:33.494.083,676.900 us,26 B,,SP,55,Write Transaction,14 00 03 48 32 04 11 A5 06 F6 C8 06 C4 CB 00 00 00 00 00 00 FF F6 00 65 FC 2D
0,2862,0:33.510.021,116.400 us,3 B,,SP,55,Read Transaction,00 00 18*
0,2863,0:33.514.416,79.000 us,2 B,,SP,55,Write Transaction,00 00
0,2864,0:33.519.768,86.700 us,2 B,,SP,55,Read Transaction,00 08*
0,2865,0:33.520.129,79.100 us,2 B,,SP,55,Write Transaction,12 01
0,2866,0:33.525.480,659.600 us,25 B,,SP,55,Read Transaction,00 00 00 00 00 02 9E 64 00 00 00 00 00 00 00 00 00 00 00 00 00 00 01 03 00*
0,2867,0:33.534.023,676.500 us,26 B,,SP,55,Write Transaction,14 00 03 32 E7 03 FB 3B 06 EA B9 06 BF 37 00 00 00 00 00 00 FF F5 00 66 FC 29
0,2868,0:33.549.968,116.300 us,3 B,,SP,55,Read Transaction,00 00 18*
0,2869,0:33.554.362,79.200 us,2 B,,SP,55,Write Transaction,00 00
0,2870,0:33.559.712,86.700 us,2 B,,SP,55,Read Transaction,00 08*
0,2871,0:33.560.075,79.100 us,2 B,,SP,55,Write Transaction,12 01
0,2872,0:33.565.423,659.600 us,25 B,,SP,55,Read Transaction,00 00 00 00 00 02 9E 64 00 00 00 00 00 00 00 00 00 00 00 00 00 00 01 03 00*
0,2873,0:33.573.980,676.900 us,26 B,,SP,55,Write Transaction,14 00 03 24 CB 03 EA F0 06 E3 64 06 BB 02 00 00 00 00 00 00 FF F2 00 62 FC 2C
0,2874,0:33.589.922,116.300 us,3 B,,SP,55,Read Transaction,00 00 18*
0,2875,0:33.594.318,79.100 us,2 B,,SP,55,Write Transaction,00 00
0,2876,0:33.599.674,86.800 us,2 B,,SP,55,Read Transaction,00 08*
0,2877,0:33.600.035,79.100 us,2 B,,SP,55,Write Transaction,12 01
0,2878,0:33.605.386,660.300 us,25 B,,SP,55,Read Transaction,00 00 00 00 00 02 9E 64 00 00 00 00 00 00 00 00 00 00 00 00 00 00 01 03 00*
0,2879,0:33.613.927,677.000 us,26 B,,SP,55,Write Transaction,14 00 03 1D 0F 03 E0 41 06 DE E5 06 B7 E0 00 00 00 00 00 00 FF F7 00 61 FC 2B
0,2880,0:33.629.869,116.300 us,3 B,,SP,55,Read Transaction,00 00 18*
0,2881,0:33.634.263,79.100 us,2 B,,SP,55,Write Transaction,00 00
0,2882,0:33.639.614,86.700 us,2 B,,SP,55,Read Transaction,00 08*
0,2883,0:33.639.977,79.100 us,2 B,,SP,55,Write Transaction,12 01
0,2884,0:33.645.326,659.700 us,25 B,,SP,55,Read Transaction,00 00 00 00 00 02 9E 64 00 00 00 00 00 00 00 00 00 00 00 00 00 00 01 03 00*
0,2885,0:33.653.885,676.900 us,26 B,,SP,55,Write Transaction,14 00 03 18 B1 03 D8 3B 06 DC 61 06 B6 68 00 00 00 00 00 00 FF F6 00 61 FC 2A
0,2886,0:33.669.827,116.300 us,3 B,,SP,55,Read Transaction,00 00 18*
0,2887,0:33.674.221,79.100 us,2 B,,SP,55,Write Transaction,00 00
0,2888,0:33.679.570,86.700 us,2 B,,SP,55,Read Transaction,00 08*
0,2889,0:33.679.931,79.100 us,2 B,,SP,55,Write Transaction,12 01
0,2890,0:33.685.282,659.700 us,25 B,,SP,55,Read Transaction,00 00 00 00 00 02 9E 64 00 00 00 00 00 00 00 00 00 00 00 00 00 00 01 03 00*
0,2891,0:33.693.828,676.900 us,26 B,,SP,55,Write Transaction,14 00 03 19 F3 03 D6 6F 06 DF 86 06 B8 41 00 00 00 00 00 00 FF F3 00 67 FC 2D
0,2892,0:33.709.770,116.300 us,3 B,,SP,55,Read Transaction,00 00 18*
0,2893,0:33.714.162,79.100 us,2 B,,SP,55,Write Transaction,00 00
0,2894,0:33.719.516,86.800 us,2 B,,SP,55,Read Transaction,00 08*
0,2895,0:33.719.879,79.200 us,2 B,,SP,55,Write Transaction,12 01
0,2896,0:33.725.231,659.600 us,25 B,,SP,55,Read Transaction,00 00 00 00 00 02 9E 64 00 00 00 00 00 00 00 00 00 00 00 00 00 00 01 03 00*
0,2897,0:33.733.833,676.900 us,26 B,,SP,55,Write Transaction,14 00 03 1F 7C 03 D9 CE 06 E2 18 06 B8 69 00 00 00 00 00 00 FF F6 00 60 FC 30
0,2898,0:33.749.774,116.300 us,3 B,,SP,55,Read Transaction,00 00 18*
0,2899,0:33.754.168,79.000 us,2 B,,SP,55,Write Transaction,00 00
0,2900,0:33.759.516,86.600 us,2 B,,SP,55,Read Transaction,00 08*
0,2901,0:33.759.878,79.100 us,2 B,,SP,55,Write Transaction,12 01
0,2902,0:33.765.228,659.600 us,25 B,,SP,55,Read Transaction,00 00 00 00 00 02 9E 64 00 00 00 00 00 00 00 00 00 00 00 00 00 00 01 03 00*
0,2903,0:33.773.755,676.900 us,26 B,,SP,55,Write Transaction,14 00 03 23 98 03 DC 1A 06 E2 A9 06 B8 03 00 00 00 00 00 00 FF F6 00 62 FC 2D
0,2904,0:33.789.694,116.100 us,3 B,,SP,55,Read Transaction,00 00 18*
0,2905,0:33.794.087,79.200 us,2 B,,SP,55,Write Transaction,00 00
0,2906,0:33.799.446,86.800 us,2 B,,SP,55,Read Transaction,00 08*
0,2907,0:33.799.809,79.200 us,2 B,,SP,55,Write Transaction,12 01
0,2908,0:33.805.163,659.600 us,25 B,,SP,55,Read Transaction,00 00 00 00 00 02 9E 64 00 00 00 00 00 00 00 00 00 00 00 00 00 00 01 03 00*
0,2909,0:33.813.714,676.900 us,26 B,,SP,55,Write Transaction,14 00 03 26 30 03 DD 55 06 E4 FF 06 B9 8E 00 00 00 00 00 00 FF F2 00 65 FC 33
0,2910,0:33.829.677,116.300 us,3 B,,SP,55,Read Transaction,00 00 18*
0,2911,0:33.834.070,79.000 us,2 B,,SP,55,Write Transaction,00 00
0,2912,0:33.839.420,86.700 us,2 B,,SP,55,Read Transaction,00 08*
0,2913,0:33.839.783,79.100 us,2 B,,SP,55,Write Transaction,12 01
0,2914,0:33.845.132,660.500 us,25 B,,SP,55,Read Transaction,00 00 00 00 00 02 9E 64 00 00 00 00 00 00 00 00 00 00 00 00 00 00 01 03 00*
0,2915,0:33.853.609,677.900 us,26 B,,SP,55,Write Transaction,14 00 03 2A 9D 03 E0 F5 06 E7 FE 06 BB 0C 00 00 00 00 00 00 FF F9 00 63 FC 2E
0,2916,0:33.869.553,116.300 us,3 B,,SP,55,Read Transaction,00 00 18*
0,2917,0:33.873.949,79.000 us,2 B,,SP,55,Write Transaction,00 00
0,2918,0:33.879.299,86.700 us,2 B,,SP,55,Read Transaction,00 08*
0,2919,0:33.879.660,79.000 us,2 B,,SP,55,Write Transaction,12 01
0,2920,0:33.885.010,660.600 us,25 B,,SP,55,Read Transaction,00 00 00 00 00 02 9E 64 00 00 00 00 00 00 00 00 00 00 00 00 00 00 01 03 00*
0,2921,0:33.893.628,676.900 us,26 B,,SP,55,Write Transaction,14 00 03 2E DD 03 E4 E5 06 EA 3D 06 BC 09 00 00 00 00 00 00 FF F0 00 60 FC 30
0,2922,0:33.909.574,116.300 us,3 B,,SP,55,Read Transaction,00 00 18*
0,2923,0:33.913.967,79.100 us,2 B,,SP,55,Write Transaction,00 00
0,2924,0:33.919.317,86.800 us,2 B,,SP,55,Read Transaction,00 08*
0,2925,0:33.919.680,79.200 us,2 B,,SP,55,Write Transaction,12 01
0,2926,0:33.925.032,659.600 us,25 B,,SP,55,Read Transaction,00 00 00 00 00 02 9E 64 00 00 00 00 00 00 00 00 00 00 00 00 00 00 01 03 00*
0,2927,0:33.933.512,677.000 us,26 B,,SP,55,Write Transaction,14 00 03 34 A7 03 EA 67 06 EF 3C 06 BF 4A 00 00 00 00 00 00 FF F2 00 62 FC 2A
0,2928,0:33.949.451,116.200 us,3 B,,SP,55,Read Transaction,00 00 18*
0,2929,0:33.953.847,79.100 us,2 B,,SP,55,Write Transaction,00 00
0,2930,0:33.959.197,86.700 us,2 B,,SP,55,Read Transaction,00 08*
0,2931,0:33.959.559,79.100 us,2 B,,SP,55,Write Transaction,12 01
0,2932,0:33.964.909,659.400 us,25 B,,SP,55,Read Transaction,00 00 00 00 00 02 9E 64 00 00 00 00 00 00 00 00 00 00 00 00 00 00 01 03 00*
0,2933,0:33.973.506,677.000 us,26 B,,SP,55,Write Transaction,14 00 03 3A CC 03 F0 BF 06 F4 B1 06 C2 8E 00 00 00 00 00 00 FF F3 00 63 FC 2B
0,2934,0:33.989.449,116.300 us,3 B,,SP,55,Read Transaction,00 00 18*
0,2935,0:33.993.843,79.100 us,2 B,,SP,55,Write Transaction,00 00
0,2936,0:33.999.196,86.700 us,2 B,,SP,55,Read Transaction,00 08*
0,2937,0:33.999.558,79.100 us,2 B,,SP,55,Write Transaction,12 01
0,2938,0:34.004.942,659.700 us,25 B,,SP,55,Read Transaction,00 00 00 00 00 02 9E 64 21 B7 64 00 00 00 00 00 00 00 00 00 00 00 01 03 00*
0,2939,0:34.013.460,677.900 us,26 B,,SP,55,Write Transaction,14 00 03 3F DF 03 F6 00 06 F5 E5 06 C2 52 00 00 00 00 00 00 FF F5 00 60 FC 33
0,2940,0:34.029.409,116.300 us,3 B,,SP,55,Read Transaction,00 00 18*
0,2941,0:34.033.805,79.100 us,2 B,,SP,55,Write Transaction,00 00
0,2942,0:34.039.154,86.700 us,2 B,,SP,55,Read Transaction,00 08*
0,2943,0:34.039.515,79.100 us,2 B,,SP,55,Write Transaction,12 01
0,2944,0:34.044.875,659.600 us,25 B,,SP,55,Read Transaction,00 00 00 00 00 02 9E 64 00 00 00 00 00 00 00 00 00 00 00 00 00 00 01 03 00*
0,2945,0:34.053.388,676.900 us,26 B,,SP,55,Write Transaction,14 00 03 44 6D 03 FA B2 06 F7 C4 06 C3 33 00 00 00 00 00 00 FF F1 00 5C FC 2B
0,2946,0:34.069.338,116.300 us,3 B,,SP,55,Read Transaction,00 00 18*
0,2947,0:34.073.731,79.100 us,2 B,,SP,55,Write Transaction,00 00
0,2948,0:34.079.083,86.600 us,2 B,,SP,55,Read Transaction,00 08*
0,2949,0:34.079.445,79.100 us,2 B,,SP,55,Write Transaction,12 01
0,2950,0:34.084.795,659.600 us,25 B,,SP,55,Read Transaction,00 00 00 00 00 02 9E 64 00 00 00 00 00 00 00 00 00 00 00 00 00 00 01 03 00*
0,2951,0:34.093.349,676.900 us,26 B,,SP,55,Write Transaction,14 00 03 48 D5 03 FF 70 06 FB 76 06 C5 DF 00 00 00 00 00 00 FF F3 00 61 FC 30
0,2952,0:34.109.295,116.300 us,3 B,,SP,55,Read Transaction,00 00 18*
0,2953,0:34.113.688,79.100 us,2 B,,SP,55,Write Transaction,00 00
0,2954,0:34.119.040,86.700 us,2 B,,SP,55,Read Transaction,00 08*
0,2955,0:34.119.403,79.000 us,2 B,,SP,55,Write Transaction,12 01
0,2956,0:34.124.752,660.500 us,25 B,,SP,55,Read Transaction,00 00 00 00 00 02 9E 64 00 00 00 00 00 00 00 00 00 00 00 00 00 00 01 03 00*
0,2957,0:34.133.302,676.900 us,26 B,,SP,55,Write Transaction,14 00 03 4C 9E 04 03 EC 06 FF 52 06 C8 CB 00 00 00 00 00 00 FF F5 00 66 FC 2F
0,2958,0:34.149.252,116.400 us,3 B,,SP,55,Read Transaction,00 00 18*
0,2959,0:34.153.717,79.100 us,2 B,,SP,55,Write Transaction,00 00
0,2960,0:34.159.070,86.600 us,2 B,,SP,55,Read Transaction,00 08*
0,2961,0:34.159.431,79.100 us,2 B,,SP,55,Write Transaction,12 01
0,2962,0:34.164.789,659.600 us,25 B,,SP,55,Read Transaction,00 00 00 00 00 02 9E 64 00 00 00 00 00 00 00 00 00 00 00 00 00 00 01 03 00*
0,2963,0:34.173.241,677.000 us,26 B,,SP,55,Write Transaction,14 00 03 50 60 04 08 66 07 03 74 06 CB F7 00 00 00 00 00 00 FF F3 00 62 FC 31
0,2964,0:34.189.186,116.300 us,3 B,,SP,55,Read Transaction,00 00 18*
0,2965,0:34.193.580,79.100 us,2 B,,SP,55,Write Transaction,00 00
0,2966,0:34.198.931,86.700 us,2 B,,SP,55,Read Transaction,00 08*
0,2967,0:34.199.294,79.000 us,2 B,,SP,55,Write Transaction,12 01
0,2968,0:34.204.646,659.700 us,25 B,,SP,55,Read Transaction,00 00 00 00 00 02 9E 64 00 00 00 00 00 00 00 00 00 00 00 00 00 00 01 03 00*
0,2969,0:34.213.200,678.000 us,26 B,,SP,55,Write Transaction,14 00 03 55 76 04 0E 4E 07 08 62 06 CE EF 00 00 00 00 00 00 FF F4 00 65 FC 31
0,2970,0:34.229.146,116.300 us,3 B,,SP,55,Read Transaction,00 00 18*
0,2971,0:34.233.541,79.000 us,2 B,,SP,55,Write Transaction,00 00
0,2972,0:34.238.890,86.700 us,2 B,,SP,55,Read Transaction,00 08*
0,2973,0:34.239.252,79.100 us,2 B,,SP,55,Write Transaction,12 01
0,2974,0:34.244.601,659.600 us,25 B,,SP,55,Read Transaction,00 00 00 00 00 02 9E 64 00 00 00 00 00 00 00 00 00 00 00 00 00 00 01 03 00*
0,2975,0:34.253.198,677.000 us,26 B,,SP,55,Write Transaction,14 00 03 58 FD 04 12 57 07 07 0D 06 CD 07 00 00 00 00 00 00 FF F0 00 62 FC 2D
0,2976,0:34.269.144,116.400 us,3 B,,SP,55,Read Transaction,00 00 18*
0,2977,0:34.273.539,79.100 us,2 B,,SP,55,Write Transaction,00 00
0,2978,0:34.278.889,86.700 us,2 B,,SP,55,Read Transaction,00 08*
0,2979,0:34.279.252,79.100 us,2 B,,SP,55,Write Transaction,12 01
0,2980,0:34.284.602,659.600 us,25 B,,SP,55,Read Transaction,00 00 00 00 00 02 9E 64 00 00 00 00 00 00 00 00 00 00 00 00 00 00 01 03 00*
0,2981,0:34.293.108,676.900 us,26 B,,SP,55,Write Transaction,14 00 03 5D 21 04 16 FD 07 0A 88 06 CF 78 00 00 00 00 00 00 FF F6 00 62 FC 29
0,2982,0:34.309.047,116.400 us,3 B,,SP,55,Read Transaction,00 00 18*
0,2983,0:34.313.445,79.100 us,2 B,,SP,55,Write Transaction,00 00
0,2984,0:34.318.795,86.700 us,2 B,,SP,55,Read Transaction,00 08*
0,2985,0:34.319.156,79.100 us,2 B,,SP,55,Write Transaction,12 01
0,2986,0:34.324.507,659.600 us,25 B,,SP,55,Read Transaction,00 00 00 00 00 02 9E 64 00 00 00 00 00 00 00 00 00 00 00 00 00 00 01 03 00*
0,2987,0:34.333.044,676.800 us,26 B,,SP,55,Write Transaction,14 00 03 62 AB 04 1C E6 07 0D 5D 06 CF FB 00 00 00 00 00 00 FF F2 00 68 FC 28
0,2988,0:34.348.991,116.100 us,3 B,,SP,55,Read Transaction,00 00 18*
0,2989,0:34.353.383,79.100 us,2 B,,SP,55,Write Transaction,00 00
0,2990,0:34.358.733,86.700 us,2 B,,SP,55,Read Transaction,00 08*
0,2991,0:34.359.096,79.000 us,2 B,,SP,55,Write Transaction,12 01
0,2992,0:34.364.445,659.600 us,25 B,,SP,55,Read Transaction,00 00 00 00 00 02 9E 64 00 00 00 00 00 00 00 00 00 00 00 00 00 00 01 03 00*
0,2993,0:34.373.046,677.800 us,26 B,,SP,55,Write Transaction,14 00 03 5E CC 04 18 DB 07 06 60 06 CC 27 00 00 00 00 00 00 FF F1 00 62 FC 31
0,2994,0:34.388.989,116.400 us,3 B,,SP,55,Read Transaction,00 00 18*
0,2995,0:34.393.383,79.100 us,2 B,,SP,55,Write Transaction,00 00
0,2996,0:34.398.744,86.700 us,2 B,,SP,55,Read Transaction,00 08*
0,2997,0:34.399.107,79.100 us,2 B,,SP,55,Write Transaction,12 01
0,2998,0:34.404.457,659.600 us,25 B,,SP,55,Read Transaction,00 00 00 00 00 02 9E 64 00 00 00 00 00 00 00 00 00 00 00 00 00 00 01 03 00*
0,2999,0:34.412.932,677.000 us,26 B,,SP,55,Write Transaction,14 00 03 4E 46 04 08 A1 06 FB 4C 06 C7 74 00 00 00 00 00 00 FF F0 00 64 FC 2A
0,3000,0:34.428.871,116.300 us,3 B,,SP,55,Read Transaction,00 00 18*
0,3001,0:34.433.314,79.100 us,2 B,,SP,55,Write Transaction,00 00
0,3002,0:34.438.667,86.700 us,2 B,,SP,55,Read Transaction,00 08*
0,3003,0:34.439.030,79.100 us,2 B,,SP,55,Write Transaction,12 01
0,3004,0:34.444.380,659.600 us,25 B,,SP,55,Read Transaction,00 00 00 00 00 02 9E 64 00 00 00 00 00 00 00 00 00 00 00 00 00 00 01 03 00*
0,3005,0:34.452.940,676.900 us,26 B,,SP,55,Write Transaction,14 00 03 3E 9A 03 F8 AB 06 F2 48 06 C2 EA 00 00 00 00 00 00 FF F3 00 61 FC 2F
0,3006,0:34.468.881,116.300 us,3 B,,SP,55,Read Transaction,00 00 18*
0,3007,0:34.473.272,79.100 us,2 B,,SP,55,Write Transaction,00 00
0,3008,0:34.478.623,86.700 us,2 B,,SP,55,Read Transaction,00 08*
0,3009,0:34.478.985,79.000 us,2 B,,SP,55,Write Transaction,12 01
0,3010,0:34.484.334,659.600 us,25 B,,SP,55,Read Transaction,00 00 00 00 00 02 9E 64 00 00 00 00 00 00 00 00 00 00 00 00 00 00 01 03 00*
0,3011,0:34.492.844,676.900 us,26 B,,SP,55,Write Transaction,14 00 03 37 6B 03 F0 9E 06 F0 14 06 C1 F8 00 00 00 00 00 00 FF F7 00 62 FC 28
0,3012,0:34.508.782,116.300 us,3 B,,SP,55,Read Transaction,00 00 18*
0,3013,0:34.513.179,79.100 us,2 B,,SP,55,Write Transaction,00 00
0,3014,0:34.518.530,86.800 us,2 B,,SP,55,Read Transaction,00 08*
0,3015,0:34.518.892,79.100 us,2 B,,SP,55,Write Transaction,12 01
0,3016,0:34.524.249,660.600 us,25 B,,SP,55,Read Transaction,00 00 00 00 00 02 9E 64 00 00 00 00 00 00 00 00 00 00 00 00 00 00 01 03 00*
0,3017,0:34.532.816,676.800 us,26 B,,SP,55,Write Transaction,14 00 03 34 1E 03 EC A3 06 EF AB 06 C2 2C 00 00 00 00 00 00 FF F2 00 61 FC 37
0,3018,0:34.548.758,116.300 us,3 B,,SP,55,Read Transaction,00 00 18*
0,3019,0:34.553.151,79.000 us,2 B,,SP,55,Write Transaction,00 00
0,3020,0:34.558.501,86.700 us,2 B,,SP,55,Read Transaction,00 08*
0,3021,0:34.558.863,79.100 us,2 B,,SP,55,Write Transaction,12 01
0,3022,0:34.564.215,659.600 us,25 B,,SP,55,Read Transaction,00 00 00 00 00 02 9E 64 00 00 00 00 00 00 00 00 00 00 00 00 00 00 01 03 00*
0,3023,0:34.572.772,676.900 us,26 B,,SP,55,Write Transaction,14 00 03 31 BE 03 E9 CA 06 EF EF 06 C2 C9 00 00 00 00 00 00 FF F5 00 60 FC 2A
0,3024,0:34.588.714,116.200 us,3 B,,SP,55,Read Transaction,00 00 18*
0,3025,0:34.593.106,79.000 us,2 B,,SP,55,Write Transaction,00 00
0,3026,0:34.598.455,86.700 us,2 B,,SP,55,Read Transaction,00 08*
0,3027,0:34.598.816,79.100 us,2 B,,SP,55,Write Transaction,12 01
0,3028,0:34.604.166,659.200 us,25 B,,SP,55,Read Transaction,00 00 00 00 00 02 9E 64 00 00 00 00 00 00 00 00 00 00 00 00 00 00 01 03 00*
0,3029,0:34.612.712,676.800 us,26 B,,SP,55,Write Transaction,14 00 03 34 44 03 EC 39 06 F1 B9 06 C3 0A 00 00 00 00 00 00 FF F1 00 63 FC 2F
0,3030,0:34.628.653,116.400 us,3 B,,SP,55,Read Transaction,00 00 18*
0,3031,0:34.633.045,79.100 us,2 B,,SP,55,Write Transaction,00 00
0,3032,0:34.638.396,86.700 us,2 B,,SP,55,Read Transaction,00 08*
0,3033,0:34.638.759,79.100 us,2 B,,SP,55,Write Transaction,12 01
0,3034,0:34.644.109,659.700 us,25 B,,SP,55,Read Transaction,00 00 00 00 00 02 9E 64 00 00 00 00 00 00 00 00 00 00 00 00 00 00 01 03 00*
0,3035,0:34.652.708,677.800 us,26 B,,SP,55,Write Transaction,14 00 03 38 28 03 F0 1D 06 F6 C4 06 C7 0F 00 00 00 00 00 00 FF F4 00 61 FC 2B
0,3036,0:34.668.649,116.100 us,3 B,,SP,55,Read Transaction,00 00 18*
0,3037,0:34.673.042,79.100 us,2 B,,SP,55,Write Transaction,00 00
0,3038,0:34.678.391,86.700 us,2 B,,SP,55,Read Transaction,00 08*
0,3039,0:34.678.754,79.100 us,2 B,,SP,55,Write Transaction,12 01
0,3040,0:34.684.102,659.600 us,25 B,,SP,55,Read Transaction,00 00 00 00 00 02 9E 64 00 00 00 00 00 00 00 00 00 00 00 00 00 00 01 03 00*
0,3041,0:34.692.616,677.000 us,26 B,,SP,55,Write Transaction,14 00 03 39 CE 03 F2 0B 06 F7 EC 06 C7 80 00 00 00 00 00 00 FF F5 00 5C FC 30
0,3042,0:34.708.561,116.200 us,3 B,,SP,55,Read Transaction,00 00 18*
0,3043,0:34.712.952,79.000 us,2 B,,SP,55,Write Transaction,00 00
0,3044,0:34.718.302,86.700 us,2 B,,SP,55,Read Transaction,00 08*
0,3045,0:34.718.664,79.000 us,2 B,,SP,55,Write Transaction,12 01
0,3046,0:34.724.015,659.600 us,25 B,,SP,55,Read Transaction,00 00 00 00 00 02 9E 64 00 00 00 00 00 00 00 00 00 00 00 00 00 00 01 03 00*
0,3047,0:34.732.624,676.900 us,26 B,,SP,55,Write Transaction,14 00 03 3A FA 03 F3 3D 06 F6 9B 06 C5 97 00 00 00 00 00 00 FF F3 00 62 FC 2E
0,3048,0:34.748.576,116.500 us,3 B,,SP,55,Read Transaction,00 00 18*
0,3049,0:34.752.970,79.000 us,2 B,,SP,55,Write Transaction,00 00
0,3050,0:34.758.324,86.800 us,2 B,,SP,55,Read Transaction,00 08*
0,3051,0:34.758.687,79.200 us,2 B,,SP,55,Write Transaction,12 01
0,3052,0:34.764.037,659.200 us,25 B,,SP,55,Read Transaction,00 00 00 00 00 02 9E 64 00 00 00 00 00 00 00 00 00 00 00 00 00 00 01 03 00*
0,3053,0:34.772.498,677.900 us,26 B,,SP,55,Write Transaction,14 00 03 3E F6 03 F7 2A 06 FB 63 06 C9 5D 00 00 00 00 00 00 FF F7 00 65 FC 30
0,3054,0:34.788.440,116.300 us,3 B,,SP,55,Read Transaction,00 00 18*
0,3055,0:34.792.836,79.100 us,2 B,,SP,55,Write Transaction,00 00
0,3056,0:34.798.185,86.700 us,2 B,,SP,55,Read Transaction,00 08*
0,3057,0:34.798.546,79.100 us,2 B,,SP,55,Write Transaction,12 01
0,3058,0:34.803.898,660.600 us,25 B,,SP,55,Read Transaction,00 00 00 00 00 02 A8 64 00 00 00 00 00 00 00 00 00 00 00 00 00 00 01 03 00*
0,3059,0:34.812.536,676.900 us,26 B,,SP,55,Write Transaction,14 00 03 43 E8 03 FC E1 07 00 A3 06 CC 78 00 00 00 00 00 00 FF F3 00 63 FC 29
0,3060,0:34.828.478,116.300 us,3 B,,SP,55,Read Transaction,00 00 18*
0,3061,0:34.832.871,79.000 us,2 B,,SP,55,Write Transaction,00 00
0,3062,0:34.838.222,86.700 us,2 B,,SP,55,Read Transaction,00 08*
0,3063,0:34.838.584,79.100 us,2 B,,SP,55,Write Transaction,12 01
0,3064,0:34.843.934,659.700 us,25 B,,SP,55,Read Transaction,00 00 00 00 00 02 A8 64 00 00 00 00 00 00 00 00 00 00 00 00 00 00 01 03 00*
0,3065,0:34.852.403,677.800 us,26 B,,SP,55,Write Transaction,14 00 03 48 0C 04 01 D8 07 03 39 06 CE 2D 00 00 00 00 00 00 FF F3 00 60 FC 2D
0,3066,0:34.868.353,116.200 us,3 B,,SP,55,Read Transaction,00 00 18*
0,3067,0:34.872.746,79.100 us,2 B,,SP,55,Write Transaction,00 00
0,3068,0:34.878.095,86.700 us,2 B,,SP,55,Read Transaction,00 08*
0,3069,0:34.878.457,79.000 us,2 B,,SP,55,Write Transaction,12 01
0,3070,0:34.883.806,659.400 us,25 B,,SP,55,Read Transaction,00 00 00 00 00 02 A8 64 22 A6 64 00 00 00 00 00 00 00 00 00 00 00 01 03 00*
0,3071,0:34.892.440,676.600 us,26 B,,SP,55,Write Transaction,14 00 03 4C 49 04 07 18 07 07 AE 06 D1 39 00 00 00 00 00 00 FF F0 00 65 FC 31
0,3072,0:34.908.381,116.300 us,3 B,,SP,55,Read Transaction,00 00 18*
0,3073,0:34.912.773,79.000 us,2 B,,SP,55,Write Transaction,00 00
0,3074,0:34.918.123,86.700 us,2 B,,SP,55,Read Transaction,00 08*
0,3075,0:34.918.485,79.000 us,2 B,,SP,55,Write Transaction,12 01
0,3076,0:34.923.834,659.500 us,25 B,,SP,55,Read Transaction,00 00 00 00 00 02 A8 64 00 00 00 00 00 00 00 00 00 00 00 00 00 00 01 03 00*
0,3077,0:34.932.356,676.800 us,26 B,,SP,55,Write Transaction,14 00 03 50 AF 04 0C 24 07 0A E0 06 D3 17 00 00 00 00 00 00 FF F5 00 65 FC 30
0,3078,0:34.948.295,116.300 us,3 B,,SP,55,Read Transaction,00 00 18*
0,3079,0:34.952.689,79.000 us,2 B,,SP,55,Write Transaction,00 00
0,3080,0:34.958.039,86.700 us,2 B,,SP,55,Read Transaction,00 08*
0,3081,0:34.958.400,79.200 us,2 B,,SP,55,Write Transaction,12 01
0,3082,0:34.963.764,660.100 us,25 B,,SP,55,Read Transaction,00 00 00 00 00 02 A8 64 00 00 00 00 00 00 00 00 00 00 00 00 00 00 01 03 00*
0,3083,0:34.972.310,676.700 us,26 B,,SP,55,Write Transaction,14 00 03 55 C9 04 11 BF 07 0F 73 06 D6 2D 00 00 00 00 00 00 FF F0 00 64 FC 30
0,3084,0:34.988.245,116.200 us,3 B,,SP,55,Read Transaction,00 00 18*
0,3085,0:34.992.637,79.000 us,2 B,,SP,55,Write Transaction,00 00
0,3086,0:34.997.988,86.700 us,2 B,,SP,55,Read Transaction,00 08*
0,3087,0:34.998.350,79.100 us,2 B,,SP,55,Write Transaction,12 01
0,3088,0:35.003.700,659.500 us,25 B,,SP,55,Read Transaction,00 00 00 00 00 02 A8 64 00 00 00 00 00 00 00 00 00 00 00 00 00 00 01 03 00*
0,3089,0:35.012.229,676.800 us,26 B,,SP,55,Write Transaction,14 00 03 5B 48 04 17 E3 07 14 45 06 D8 F0 00 00 00 00 00 00 FF F3 00 61 FC 2B
0,3090,0:35.028.171,116.300 us,3 B,,SP,55,Read Transaction,00 00 18*
0,3091,0:35.032.588,79.100 us,2 B,,SP,55,Write Transaction,00 00
0,3092,0:35.037.940,86.700 us,2 B,,SP,55,Read Transaction,00 08*
0,3093,0:35.038.302,79.100 us,2 B,,SP,55,Write Transaction,12 01
0,3094,0:35.043.650,659.500 us,25 B,,SP,55,Read Transaction,00 00 00 00 00 02 A8 64 00 00 00 00 00 00 00 00 00 00 00 00 00 00 01 03 00*
0,3095,0:35.052.198,676.900 us,26 B,,SP,55,Write Transaction,14 00 03 5F DB 04 1C E9 07 16 C7 06 DA 26 00 00 00 00 00 00 FF F5 00 63 FC 2D
0,3096,0:35.068.141,116.100 us,3 B,,SP,55,Read Transaction,00 00 18*
0,3097,0:35.072.587,79.000 us,2 B,,SP,55,Write Transaction,00 00
0,3098,0:35.077.939,86.700 us,2 B,,SP,55,Read Transaction,00 08*
0,3099,0:35.078.300,79.000 us,2 B,,SP,55,Write Transaction,12 01
0,3100,0:35.083.650,659.100 us,25 B,,SP,55,Read Transaction,00 00 00 00 00 02 A8 64 00 00 00 00 00 00 00 00 00 00 00 00 00 00 01 03 00*
0,3101,0:35.092.169,676.900 us,26 B,,SP,55,Write Transaction,14 00 03 64 AA 04 22 1C 07 19 D0 06 DB DB 00 00 00 00 00 00 FF F7 00 5F FC 2C
0,3102,0:35.108.108,116.300 us,3 B,,SP,55,Read Transaction,00 00 18*
0,3103,0:35.112.500,79.000 us,2 B,,SP,55,Write Transaction,00 00
0,3104,0:35.117.851,86.700 us,2 B,,SP,55,Read Transaction,00 08*
0,3105,0:35.118.213,79.000 us,2 B,,SP,55,Write Transaction,12 01
0,3106,0:35.123.560,659.100 us,25 B,,SP,55,Read Transaction,00 00 00 00 00 02 A8 64 00 00 00 00 00 00 00 00 00 00 00 00 00 00 01 03 00*
0,3107,0:35.132.099,676.800 us,26 B,,SP,55,Write Transaction,14 00 03 69 1A 04 27 1C 07 1D 71 06 DE 5F 00 00 00 00 00 00 FF F6 00 61 FC 30
0,3108,0:35.148.035,116.200 us,3 B,,SP,55,Read Transaction,00 00 18*
0,3109,0:35.152.429,79.100 us,2 B,,SP,55,Write Transaction,00 00
0,3110,0:35.157.779,86.800 us,2 B,,SP,55,Read Transaction,00 08*
0,3111,0:35.158.141,79.100 us,2 B,,SP,55,Write Transaction,12 01
0,3112,0:35.163.498,659.500 us,25 B,,SP,55,Read Transaction,00 00 00 00 00 02 A8 64 00 00 00 00 00 00 00 00 00 00 00 00 00 00 01 03 00*
0,3113,0:35.172.069,676.900 us,26 B,,SP,55,Write Transaction,14 00 03 6D C4 04 2C 35 07 22 08 06 E1 67 00 00 00 00 00 00 FF F1 00 66 FC 2A
0,3114,0:35.188.010,116.300 us,3 B,,SP,55,Read Transaction,00 00 18*
0,3115,0:35.192.402,79.100 us,2 B,,SP,55,Write Transaction,00 00
0,3116,0:35.197.752,86.700 us,2 B,,SP,55,Read Transaction,00 08*
0,3117,0:35.198.115,79.000 us,2 B,,SP,55,Write Transaction,12 01
0,3118,0:35.203.464,660.500 us,25 B,,SP,55,Read Transaction,00 00 00 00 00 02 A8 64 00 00 00 00 00 00 00 00 00 00 00 00 00 00 01 03 00*
0,3119,0:35.212.023,676.900 us,26 B,,SP,55,Write Transaction,14 00 03 72 E5 04 31 A2 07 27 A2 06 E4 F2 00 00 00 00 00 00 FF F7 00 62 FC 2E
0,3120,0:35.227.964,116.300 us,3 B,,SP,55,Read Transaction,00 00 18*
0,3121,0:35.232.358,79.100 us,2 B,,SP,55,Write Transaction,00 00
0,3122,0:35.237.712,86.800 us,2 B,,SP,55,Read Transaction,00 08*
0,3123,0:35.238.073,79.100 us,2 B,,SP,55,Write Transaction,12 01
0,3124,0:35.243.424,659.600 us,25 B,,SP,55,Read Transaction,00 00 00 00 00 02 A8 64 00 00 00 00 00 00 00 00 00 00 00 00 00 00 01 03 00*
0,3125,0:35.251.982,676.900 us,26 B,,SP,55,Write Transaction,14 00 03 76 C2 04 35 B2 07 26 E7 06 E2 CF 00 00 00 00 00 00 FF F4 00 5F FC 32
0,3126,0:35.267.923,116.300 us,3 B,,SP,55,Read Transaction,00 00 18*
0,3127,0:35.272.315,79.100 us,2 B,,SP,55,Write Transaction,00 00
0,3128,0:35.277.665,86.600 us,2 B,,SP,55,Read Transaction,00 08*
0,3129,0:35.278.027,79.100 us,2 B,,SP,55,Write Transaction,12 01
0,3130,0:35.283.378,660.500 us,25 B,,SP,55,Read Transaction,00 00 00 00 00 02 A8 64 00 00 00 00 00 00 00 00 00 00 00 00 00 00 01 03 00*
0,3131,0:35.291.939,677.900 us,26 B,,SP,55,Write Transaction,14 00 03 6D BC 04 2C 4E 07 1B 25 06 DC 47 00 00 00 00 00 00 FF F8 00 5F FC 30
0,3132,0:35.307.881,116.300 us,3 B,,SP,55,Read Transaction,00 00 18*
0,3133,0:35.312.273,79.100 us,2 B,,SP,55,Write Transaction,00 00
0,3134,0:35.317.624,86.600 us,2 B,,SP,55,Read Transaction,00 08*
0,3135,0:35.317.987,79.100 us,2 B,,SP,55,Write Transaction,12 01
0,3136,0:35.323.333,659.700 us,25 B,,SP,55,Read Transaction,00 00 00 00 00 02 A8 64 00 00 00 00 00 00 00 00 00 00 00 00 00 00 01 03 00*
0,3137,0:35.331.831,676.900 us,26 B,,SP,55,Write Transaction,14 00 03 5C 1E 04 1C 3C 07 10 B0 06 D7 D9 00 00 00 00 00 00 FF F3 00 65 FC 30
0,3138,0:35.347.781,116.500 us,3 B,,SP,55,Read Transaction,00 00 18*
0,3139,0:35.352.176,79.000 us,2 B,,SP,55,Write Transaction,00 00
0,3140,0:35.357.526,86.700 us,2 B,,SP,55,Read Transaction,00 08*
0,3141,0:35.357.888,79.000 us,2 B,,SP,55,Write Transaction,12 01
0,3142,0:35.363.237,659.600 us,25 B,,SP,55,Read Transaction,00 00 00 00 00 02 A8 64 00 00 00 00 00 00 00 00 00 00 00 00 00 00 01 03 00*
0,3143,0:35.371.885,677.200 us,26 B,,SP,55,Write Transaction,14 00 03 4D FE 04 0F A7 07 08 D4 06 D3 D6 00 00 00 00 00 00 FF F6 00 60 FC 30
0,3144,0:35.387.823,116.200 us,3 B,,SP,55,Read Transaction,00 00 18*
0,3145,0:35.392.218,79.100 us,2 B,,SP,55,Write Transaction,00 00
0,3146,0:35.397.568,86.700 us,2 B,,SP,55,Read Transaction,00 08*
0,3147,0:35.397.930,79.000 us,2 B,,SP,55,Write Transaction,12 01
0,3148,0:35.403.280,659.600 us,25 B,,SP,55,Read Transaction,00 00 00 00 00 02 A8 64 00 00 00 00 00 00 00 00 00 00 00 00 00 00 01 03 00*
0,3149,0:35.411.754,677.900 us,26 B,,SP,55,Write Transaction,14 00 03 48 43 04 0A 2F 07 06 E9 06 D3 29 00 00 00 00 00 00 FF F4 00 65 FC 2C
0,3150,0:35.427.715,116.300 us,3 B,,SP,55,Read Transaction,00 00 18*
0,3151,0:35.432.109,79.000 us,2 B,,SP,55,Write Transaction,00 00
0,3152,0:35.437.458,86.700 us,2 B,,SP,55,Read Transaction,00 08*
0,3153,0:35.437.819,79.000 us,2 B,,SP,55,Write Transaction,12 01
0,3154,0:35.443.169,659.600 us,25 B,,SP,55,Read Transaction,00 00 00 00 00 02 A8 64 00 00 00 00 00 00 00 00 00 00 00 00 00 00 01 03 00*
0,3155,0:35.451.767,676.700 us,26 B,,SP,55,Write Transaction,14 00 03 44 4A 04 06 76 07 04 AF 06 D1 B0 00 00 00 00 00 00 FF F4 00 61 FC 2F
0,3156,0:35.467.714,116.200 us,3 B,,SP,55,Read Transaction,00 00 18*
0,3157,0:35.472.109,79.200 us,2 B,,SP,55,Write Transaction,00 00
0,3158,0:35.477.466,86.700 us,2 B,,SP,55,Read Transaction,00 08*
0,3159,0:35.477.829,79.000 us,2 B,,SP,55,Write Transaction,12 01
0,3160,0:35.483.176,659.600 us,25 B,,SP,55,Read Transaction,00 00 00 00 00 02 A8 64 00 00 00 00 00 00 00 00 00 00 00 00 00 00 01 03 00*
0,3161,0:35.491.652,676.800 us,26 B,,SP,55,Write Transaction,14 00 03 41 E4 04 04 32 07 04 B5 06 D2 72 00 00 00 00 00 00 FF F1 00 62 FC 2E
0,3162,0:35.507.588,116.300 us,3 B,,SP,55,Read Transaction,00 00 18*
0,3163,0:35.511.983,79.000 us,2 B,,SP,55,Write Transaction,00 00
0,3164,0:35.517.331,86.700 us,2 B,,SP,55,Read Transaction,00 08*
0,3165,0:35.517.692,79.000 us,2 B,,SP,55,Write Transaction,12 01
0,3166,0:35.523.043,660.400 us,25 B,,SP,55,Read Transaction,00 00 00 00 00 02 A8 64 00 00 00 00 00 00 00 00 00 00 00 00 00 00 01 03 00*
0,3167,0:35.531.627,676.700 us,26 B,,SP,55,Write Transaction,14 00 03 44 12 04 06 E4 07 08 AA 06 D4 CE 00 00 00 00 00 00 FF F6 00 64 FC 2E
0,3168,0:35.547.568,116.300 us,3 B,,SP,55,Read Transaction,00 00 18*
0,3169,0:35.551.960,79.100 us,2 B,,SP,55,Write Transaction,00 00
0,3170,0:35.557.310,86.700 us,2 B,,SP,55,Read Transaction,00 08*
0,3171,0:35.557.672,79.100 us,2 B,,SP,55,Write Transaction,12 01
0,3172,0:35.563.021,659.600 us,25 B,,SP,55,Read Transaction,00 00 00 00 00 02 A8 64 00 00 00 00 00 00 00 00 00 00 00 00 00 00 01 03 00*
0,3173,0:35.571.592,676.800 us,26 B,,SP,55,Write Transaction,14 00 03 47 B6 04 0A 8E 07 0A DB 06 D5 6C 00 00 00 00 00 00 FF F5 00 64 FC 2B
0,3174,0:35.587.529,116.300 us,3 B,,SP,55,Read Transaction,00 00 18*
0,3175,0:35.591.922,79.000 us,2 B,,SP,55,Write Transaction,00 00
0,3176,0:35.597.270,86.700 us,2 B,,SP,55,Read Transaction,00 08*
0,3177,0:35.597.633,79.000 us,2 B,,SP,55,Write Transaction,12 01
0,3178,0:35.602.985,659.600 us,25 B,,SP,55,Read Transaction,00 00 00 00 00 02 A8 64 00 00 00 00 00 00 00 00 00 00 00 00 00 00 01 03 00*
0,3179,0:35.611.528,676.800 us,26 B,,SP,55,Write Transaction,14 00 03 4A 69 04 0D 2B 07 0B B5 06 D5 8C 00 00 00 00 00 00 FF F4 00 66 FC 31
0,3180,0:35.627.464,116.200 us,3 B,,SP,55,Read Transaction,00 00 18*
0,3181,0:35.631.856,79.000 us,2 B,,SP,55,Write Transaction,00 00
0,3182,0:35.637.205,86.700 us,2 B,,SP,55,Read Transaction,00 08*
0,3183,0:35.637.567,79.000 us,2 B,,SP,55,Write Transaction,12 01
0,3184,0:35.642.916,659.500 us,25 B,,SP,55,Read Transaction,00 00 00 00 00 02 A8 64 00 00 00 00 00 00 00 00 00 00 00 00 00 00 01 03 00*
0,3185,0:35.651.495,676.800 us,26 B,,SP,55,Write Transaction,14 00 03 4D 3A 04 0F DA 07 0C 26 06 D5 37 00 00 00 00 00 00 FF F5 00 65 FC 30
0,3186,0:35.667.438,116.300 us,3 B,,SP,55,Read Transaction,00 00 18*
0,3187,0:35.671.831,79.100 us,2 B,,SP,55,Write Transaction,00 00
0,3188,0:35.677.179,86.700 us,2 B,,SP,55,Read Transaction,00 08*
0,3189,0:35.677.542,79.100 us,2 B,,SP,55,Write Transaction,12 01
0,3190,0:35.682.889,659.500 us,25 B,,SP,55,Read Transaction,00 00 00 00 00 02 A8 64 00 00 00 00 00 00 00 00 00 00 00 00 00 00 01 03 00*
0,3191,0:35.691.440,676.700 us,26 B,,SP,55,Write Transaction,14 00 03 50 C9 04 13 35 07 0E 51 06 D6 3C 00 00 00 00 00 00 FF FB 00 67 FC 2F
0,3192,0:35.707.388,116.500 us,3 B,,SP,55,Read Transaction,00 00 18*
0,3193,0:35.711.783,79.100 us,2 B,,SP,55,Write Transaction,00 00
0,3194,0:35.717.131,86.700 us,2 B,,SP,55,Read Transaction,00 08*
0,3195,0:35.717.491,79.100 us,2 B,,SP,55,Write Transaction,12 01
0,3196,0:35.722.842,659.600 us,25 B,,SP,55,Read Transaction,00 00 00 00 00 02 A8 64 00 00 00 00 00 00 00 00 00 00 00 00 00 00 01 03 00*
0,3197,0:35.731.404,676.900 us,26 B,,SP,55,Write Transaction,14 00 03 56 18 04 18 3A 07 10 A2 06 D6 C8 00 00 00 00 00 00 FF F1 00 62 FC 31
0,3198,0:35.747.343,116.300 us,3 B,,SP,55,Read Transaction,00 00 18*
0,3199,0:35.751.735,79.100 us,2 B,,SP,55,Write Transaction,00 00
0,3200,0:35.757.083,86.700 us,2 B,,SP,55,Read Transaction,00 08*
0,3201,0:35.757.445,79.100 us,2 B,,SP,55,Write Transaction,12 01
0,3202,0:35.762.794,659.700 us,25 B,,SP,55,Read Transaction,00 00 00 00 00 02 A8 64 00 00 00 00 00 00 00 00 00 00 00 00 00 00 01 03 00*
0,3203,0:35.771.343,676.800 us,26 B,,SP,55,Write Transaction,14 00 03 5B D3 04 1D E3 07 16 E1 06 DB 86 00 00 00 00 00 00 FF F3 00 64 FC 29
0,3204,0:35.787.283,116.300 us,3 B,,SP,55,Read Transaction,00 00 18*
0,3205,0:35.791.677,79.100 us,2 B,,SP,55,Write Transaction,00 00
0,3206,0:35.797.027,86.600 us,2 B,,SP,55,Read Transaction,00 08*
0,3207,0:35.797.388,79.000 us,2 B,,SP,55,Write Transaction,12 01
0,3208,0:35.802.739,659.500 us,25 B,,SP,55,Read Transaction,00 00 00 00 00 02 A8 64 23 BD 64 00 00 00 00 00 00 00 00 00 00 00 01 03 00*
0,3209,0:35.811.319,676.900 us,26 B,,SP,55,Write Transaction,14 00 03 60 7F 04 22 B8 07 1A 44 06 DD 18 00 00 00 00 00 00 FF F6 00 63 FC 2C
0,3210,0:35.827.262,116.300 us,3 B,,SP,55,Read Transaction,00 00 18*
0,3211,0:35.831.654,79.100 us,2 B,,SP,55,Write Transaction,00 00
0,3212,0:35.837.004,86.700 us,2 B,,SP,55,Read Transaction,00 08*
0,3213,0:35.837.366,79.000 us,2 B,,SP,55,Write Transaction,12 01
0,3214,0:35.842.716,659.600 us,25 B,,SP,55,Read Transaction,00 00 00 00 00 02 A8 64 00 00 00 00 00 00 00 00 00 00 00 00 00 00 01 03 00*
0,3215,0:35.851.241,676.900 us,26 B,,SP,55,Write Transaction,14 00 03 65 89 04 27 C7 07 1B 5E 06 DC DB 00 00 00 00 00 00 FF F3 00 65 FC 30
0,3216,0:35.867.184,116.500 us,3 B,,SP,55,Read Transaction,00 00 18*
0,3217,0:35.871.583,79.000 us,2 B,,SP,55,Write Transaction,00 00
0,3218,0:35.876.931,86.700 us,2 B,,SP,55,Read Transaction,00 08*
0,3219,0:35.877.292,79.100 us,2 B,,SP,55,Write Transaction,12 01
0,3220,0:35.882.644,659.500 us,25 B,,SP,55,Read Transaction,00 00 00 00 00 02 A8 64 00 00 00 00 00 00 00 00 00 00 00 00 00 00 01 03 00*
0,3221,0:35.891.254,676.800 us,26 B,,SP,55,Write Transaction,14 00 03 6A 82 04 2C BA 07 1F EC 06 E0 48 00 00 00 00 00 00 FF F3 00 5F FC 2C
0,3222,0:35.907.192,116.300 us,3 B,,SP,55,Read Transaction,00 00 18*
0,3223,0:35.911.584,79.100 us,2 B,,SP,55,Write Transaction,00 00
0,3224,0:35.916.935,86.700 us,2 B,,SP,55,Read Transaction,00 08*
0,3225,0:35.917.297,79.100 us,2 B,,SP,55,Write Transaction,12 01
0,3226,0:35.922.647,659.600 us,25 B,,SP,55,Read Transaction,00 00 00 00 00 02 A8 64 00 00 00 00 00 00 00 00 00 00 00 00 00 00 01 03 00*
0,3227,0:35.931.169,676.800 us,26 B,,SP,55,Write Transaction,14 00 03 6F A3 04 31 FA 07 22 FA 06 E1 A8 00 00 00 00 00 00 FF F3 00 62 FC 2D
0,3228,0:35.947.105,116.300 us,3 B,,SP,55,Read Transaction,00 00 18*
0,3229,0:35.951.499,79.000 us,2 B,,SP,55,Write Transaction,00 00
0,3230,0:35.956.848,86.800 us,2 B,,SP,55,Read Transaction,00 08*
0,3231,0:35.957.211,79.200 us,2 B,,SP,55,Write Transaction,12 01
0,3232,0:35.962.564,659.500 us,25 B,,SP,55,Read Transaction,00 00 00 00 00 02 A8 64 00 00 00 00 00 00 00 00 00 00 00 00 00 00 01 03 00*
0,3233,0:35.971.122,677.800 us,26 B,,SP,55,Write Transaction,14 00 03 74 87 04 36 C5 07 24 59 06 E1 C5 00 00 00 00 00 00 FF F2 00 68 FC 2D
0,3234,0:35.987.069,116.300 us,3 B,,SP,55,Read Transaction,00 00 18*
0,3235,0:35.991.462,79.100 us,2 B,,SP,55,Write Transaction,00 00
0,3236,0:35.996.810,86.700 us,2 B,,SP,55,Read Transaction,00 08*
0,3237,0:35.997.172,79.100 us,2 B,,SP,55,Write Transaction,12 01
0,3238,0:36.002.522,659.500 us,25 B,,SP,55,Read Transaction,00 00 00 00 00 02 A8 64 00 00 00 00 00 00 00 00 00 00 00 00 00 00 01 03 00*
0,3239,0:36.011.074,677.100 us,26 B,,SP,55,Write Transaction,14 00 03 79 03 04 3B 09 07 27 44 06 E3 56 00 00 00 00 00 00 FF F2 00 63 FC 2D
0,3240,0:36.027.024,116.400 us,3 B,,SP,55,Read Transaction,00 00 18*
0,3241,0:36.031.418,79.100 us,2 B,,SP,55,Write Transaction,00 00
0,3242,0:36.036.768,86.700 us,2 B,,SP,55,Read Transaction,00 08*
0,3243,0:36.037.131,79.100 us,2 B,,SP,55,Write Transaction,12 01
0,3244,0:36.042.477,659.000 us,25 B,,SP,55,Read Transaction,00 00 00 00 00 02 A8 64 00 00 00 00 00 00 63 00 00 E4 00 00 00 00 01 03 00*
0,3245,0:36.051.011,676.700 us,26 B,,SP,55,Write Transaction,14 00 03 7C E3 04 3E C1 07 2A 82 06 E5 8E 00 00 00 00 00 00 FF F5 00 61 FC 2D
0,3246,0:36.066.950,116.300 us,3 B,,SP,55,Read Transaction,00 00 18*
0,3247,0:36.071.343,79.100 us,2 B,,SP,55,Write Transaction,00 00
0,3248,0:36.076.691,86.700 us,2 B,,SP,55,Read Transaction,00 08*
0,3249,0:36.077.053,79.000 us,2 B,,SP,55,Write Transaction,12 01
0,3250,0:36.082.402,660.200 us,25 B,,SP,55,Read Transaction,00 00 00 00 00 02 A8 64 00 00 00 00 02 63 63 03 D0 00 00 00 00 00 01 03 00*
0,3251,0:36.090.963,676.900 us,26 B,,SP,55,Write Transaction,14 00 03 81 67 04 43 24 07 2F 47 06 E8 DC 00 00 00 00 00 00 FF F5 00 61 FC 34
0,3252,0:36.106.907,116.400 us,3 B,,SP,55,Read Transaction,00 00 18*
0,3253,0:36.111.306,79.100 us,2 B,,SP,55,Write Transaction,00 00
0,3254,0:36.116.657,86.700 us,2 B,,SP,55,Read Transaction,00 08*
0,3255,0:36.117.019,79.100 us,2 B,,SP,55,Write Transaction,12 01
0,3256,0:36.122.366,659.500 us,25 B,,SP,55,Read Transaction,00 00 00 00 00 02 A8 64 00 00 00 00 02 63 63 03 D0 00 00 00 00 00 01 03 00*
0,3257,0:36.130.915,677.800 us,26 B,,SP,55,Write Transaction,14 00 03 85 1D 04 46 E2 07 32 80 06 EA E7 00 00 00 00 00 00 FF F4 00 66 FC 30
0,3258,0:36.146.858,116.300 us,3 B,,SP,55,Read Transaction,00 00 18*
0,3259,0:36.151.256,79.100 us,2 B,,SP,55,Write Transaction,00 00
0,3260,0:36.156.610,86.700 us,2 B,,SP,55,Read Transaction,00 08*
0,3261,0:36.156.972,79.100 us,2 B,,SP,55,Write Transaction,12 01
0,3262,0:36.162.326,660.400 us,25 B,,SP,55,Read Transaction,00 00 00 00 00 02 A8 64 00 00 00 00 02 63 63 03 D0 00 00 00 00 00 01 03 00*
0,3263,0:36.170.872,676.800 us,26 B,,SP,55,Write Transaction,14 00 03 89 44 04 4A B3 07 34 18 06 EA BF 00 00 00 00 00 00 FF F6 00 64 FC 30
0,3264,0:36.186.810,116.300 us,3 B,,SP,55,Read Transaction,00 00 18*
0,3265,0:36.191.202,79.100 us,2 B,,SP,55,Write Transaction,00 00
0,3266,0:36.196.552,86.700 us,2 B,,SP,55,Read Transaction,00 08*
0,3267,0:36.196.915,79.000 us,2 B,,SP,55,Write Transaction,12 01
0,3268,0:36.202.265,659.600 us,25 B,,SP,55,Read Transaction,00 00 00 00 00 02 A8 64 00 00 00 00 02 63 63 03 D0 00 00 00 00 00 01 03 00*
0,3269,0:36.210.849,676.900 us,26 B,,SP,55,Write Transaction,14 00 03 84 67 04 46 51 07 2A 2D 06 E4 3A 00 00 00 00 00 00 FF F5 00 64 FC 2C
0,3270,0:36.226.797,116.400 us,3 B,,SP,55,Read Transaction,00 00 18*
0,3271,0:36.231.195,79.100 us,2 B,,SP,55,Write Transaction,00 00
0,3272,0:36.236.544,86.700 us,2 B,,SP,55,Read Transaction,00 08*
0,3273,0:36.236.907,79.100 us,2 B,,SP,55,Write Transaction,12 01
0,3274,0:36.242.255,659.600 us,25 B,,SP,55,Read Transaction,00 00 00 00 00 02 A8 64 00 00 00 00 02 63 63 03 D0 00 00 00 00 00 01 03 00*
0,3275,0:36.250.764,676.800 us,26 B,,SP,55,Write Transaction,14 00 03 72 D9 04 35 27 07 1C D9 06 DD 78 00 00 00 00 00 00 FF F4 00 61 FC 2B
0,3276,0:36.266.704,116.300 us,3 B,,SP,55,Read Transaction,00 00 18*
0,3277,0:36.271.094,79.000 us,2 B,,SP,55,Write Transaction,00 00
0,3278,0:36.276.446,86.700 us,2 B,,SP,55,Read Transaction,00 08*
0,3279,0:36.276.808,79.000 us,2 B,,SP,55,Write Transaction,12 01
0,3280,0:36.282.158,659.600 us,25 B,,SP,55,Read Transaction,00 00 00 00 00 02 A8 64 00 00 00 00 02 63 63 03 D0 00 00 00 00 00 01 03 00*
0,3281,0:36.290.776,676.800 us,26 B,,SP,55,Write Transaction,14 00 03 62 BC 04 27 D7 07 13 50 06 D8 D9 00 00 00 00 00 00 FF F1 00 6A FC 2D
0,3282,0:36.306.728,116.500 us,3 B,,SP,55,Read Transaction,00 00 18*
0,3283,0:36.311.125,79.100 us,2 B,,SP,55,Write Transaction,00 00
0,3284,0:36.316.476,86.700 us,2 B,,SP,55,Read Transaction,00 08*
0,3285,0:36.316.838,79.100 us,2 B,,SP,55,Write Transaction,12 01
0,3286,0:36.322.187,659.600 us,25 B,,SP,55,Read Transaction,00 00 00 00 00 02 A8 64 00 00 00 00 02 63 63 03 D0 00 00 00 00 00 01 03 00*
0,3287,0:36.330.659,676.800 us,26 B,,SP,55,Write Transaction,14 00 03 59 0A 04 1F 7D 07 0F C3 06 D7 CC 00 00 00 00 00 00 FF F1 00 66 FC 2B
0,3288,0:36.346.595,116.300 us,3 B,,SP,55,Read Transaction,00 00 18*
0,3289,0:36.350.989,79.000 us,2 B,,SP,55,Write Transaction,00 00
0,3290,0:36.356.336,86.600 us,2 B,,SP,55,Read Transaction,00 08*
0,3291,0:36.356.698,79.000 us,2 B,,SP,55,Write Transaction,12 01
0,3292,0:36.362.048,659.600 us,25 B,,SP,55,Read Transaction,00 00 00 00 00 02 A8 64 00 00 00 00 02 63 63 03 D0 00 00 00 00 00 01 03 00*
0,3293,0:36.370.653,676.800 us,26 B,,SP,55,Write Transaction,14 00 03 53 C8 04 1A 5B 07 0C 84 06 D5 90 00 00 00 00 00 00 FF F4 00 62 FC 2F
0,3294,0:36.386.590,116.300 us,3 B,,SP,55,Read Transaction,00 00 18*
0,3295,0:36.390.982,79.000 us,2 B,,SP,55,Write Transaction,00 00
0,3296,0:36.396.336,86.700 us,2 B,,SP,55,Read Transaction,00 08*
0,3297,0:36.396.698,79.000 us,2 B,,SP,55,Write Transaction,12 01
0,3298,0:36.402.046,659.600 us,25 B,,SP,55,Read Transaction,00 00 00 00 00 02 A8 64 00 00 00 00 02 63 63 03 D0 00 00 00 00 00 01 03 00*
0,3299,0:36.410.565,676.800 us,26 B,,SP,55,Write Transaction,14 00 03 4F 60 04 15 F7 07 0A DA 06 D5 36 00 00 00 00 00 00 FF F8 00 66 FC 2F
0,3300,0:36.426.509,116.300 us,3 B,,SP,55,Read Transaction,00 00 18*
0,3301,0:36.430.903,79.100 us,2 B,,SP,55,Write Transaction,00 00
0,3302,0:36.436.252,86.700 us,2 B,,SP,55,Read Transaction,00 08*
0,3303,0:36.436.614,79.100 us,2 B,,SP,55,Write Transaction,12 01
0,3304,0:36.441.964,659.700 us,25 B,,SP,55,Read Transaction,00 00 00 00 00 02 A8 64 00 00 00 00 02 63 63 03 D0 00 00 00 00 00 01 03 00*
0,3305,0:36.450.565,677.600 us,26 B,,SP,55,Write Transaction,14 00 03 50 55 04 16 E6 07 0E A8 06 D7 BF 00 00 00 00 00 00 FF F2 00 60 FC 31
0,3306,0:36.466.510,116.200 us,3 B,,SP,55,Read Transaction,00 00 18*
0,3307,0:36.470.901,79.000 us,2 B,,SP,55,Write Transaction,00 00
0,3308,0:36.476.251,86.700 us,2 B,,SP,55,Read Transaction,00 08*
0,3309,0:36.476.614,79.100 us,2 B,,SP,55,Write Transaction,12 01
0,3310,0:36.481.965,659.500 us,25 B,,SP,55,Read Transaction,00 00 00 00 00 02 A8 64 00 00 00 00 02 63 63 03 D0 00 00 00 00 00 01 03 00*
0,3311,0:36.490.508,676.800 us,26 B,,SP,55,Write Transaction,14 00 03 54 49 04 1A 9B 07 11 39 06 D8 B6 00 00 00 00 00 00 FF F2 00 62 FC 2F
0,3312,0:36.506.453,116.400 us,3 B,,SP,55,Read Transaction,00 00 18*
0,3313,0:36.510.851,79.100 us,2 B,,SP,55,Write Transaction,00 00
0,3314,0:36.516.264,86.700 us,2 B,,SP,55,Read Transaction,00 08*
0,3315,0:36.516.628,79.100 us,2 B,,SP,55,Write Transaction,12 01
0,3316,0:36.521.975,659.500 us,25 B,,SP,55,Read Transaction,00 00 00 00 00 02 A8 64 00 00 00 00 02 63 63 03 D0 00 00 00 00 00 01 03 00*
0,3317,0:36.530.467,676.800 us,26 B,,SP,55,Write Transaction,14 00 03 55 C8 04 1C 1F 07 12 CB 06 DA 41 00 00 00 00 00 00 FF F4 00 64 FC 2C
0,3318,0:36.546.406,116.300 us,3 B,,SP,55,Read Transaction,00 00 18*
0,3319,0:36.550.796,79.100 us,2 B,,SP,55,Write Transaction,00 00
0,3320,0:36.556.151,86.800 us,2 B,,SP,55,Read Transaction,00 08*
0,3321,0:36.556.514,79.200 us,2 B,,SP,55,Write Transaction,12 01
0,3322,0:36.561.866,659.600 us,25 B,,SP,55,Read Transaction,00 00 00 00 00 02 A8 64 00 00 00 00 02 63 63 03 D0 00 00 00 00 00 01 03 00*
0,3323,0:36.570.432,677.800 us,26 B,,SP,55,Write Transaction,14 00 03 55 DB 04 1C CE 07 14 27 06 DB 74 00 00 00 00 00 00 FF F6 00 68 FC 2E
0,3324,0:36.586.372,116.300 us,3 B,,SP,55,Read Transaction,00 00 18*
0,3325,0:36.590.766,79.100 us,2 B,,SP,55,Write Transaction,00 00
0,3326,0:36.596.117,86.700 us,2 B,,SP,55,Read Transaction,00 08*
0,3327,0:36.596.479,79.100 us,2 B,,SP,55,Write Transaction,12 01
0,3328,0:36.601.828,659.500 us,25 B,,SP,55,Read Transaction,00 00 00 00 00 02 A8 64 00 00 00 00 02 63 63 03 D0 00 00 00 00 00 01 03 00*
0,3329,0:36.610.355,676.800 us,26 B,,SP,55,Write Transaction,14 00 03 58 2A 04 1F 57 07 17 5F 06 DD B4 00 00 00 00 00 00 FF F4 00 5F FC 30
0,3330,0:36.626.294,116.300 us,3 B,,SP,55,Read Transaction,00 00 18*
0,3331,0:36.630.688,79.000 us,2 B,,SP,55,Write Transaction,00 00
0,3332,0:36.636.037,86.700 us,2 B,,SP,55,Read Transaction,00 08*
0,3333,0:36.636.399,79.100 us,2 B,,SP,55,Write Transaction,12 01
0,3334,0:36.641.749,659.600 us,25 B,,SP,55,Read Transaction,00 00 00 00 00 02 A8 64 00 00 00 00 02 63 63 03 D0 00 00 00 00 00 01 03 00*
0,3335,0:36.650.342,676.900 us,26 B,,SP,55,Write Transaction,14 00 03 5B 16 04 22 87 07 19 6F 06 DE BF 00 00 00 00 00 00 FF F8 00 66 FC 30
0,3336,0:36.666.286,116.400 us,3 B,,SP,55,Read Transaction,00 00 18*
0,3337,0:36.670.681,79.100 us,2 B,,SP,55,Write Transaction,00 00
0,3338,0:36.676.033,86.600 us,2 B,,SP,55,Read Transaction,00 08*
0,3339,0:36.676.395,79.100 us,2 B,,SP,55,Write Transaction,12 01
0,3340,0:36.681.744,659.700 us,25 B,,SP,55,Read Transaction,00 00 00 00 00 02 A8 64 00 00 00 00 02 63 63 03 D0 00 00 00 00 00 01 03 00*
0,3341,0:36.690.259,676.900 us,26 B,,SP,55,Write Transaction,14 00 03 5E E2 04 26 73 07 1B F6 06 DF FC 00 00 00 00 00 00 FF F4 00 60 FC 2C
0,3342,0:36.706.197,116.200 us,3 B,,SP,55,Read Transaction,00 00 18*
0,3343,0:36.710.592,79.100 us,2 B,,SP,55,Write Transaction,00 00
0,3344,0:36.715.942,86.700 us,2 B,,SP,55,Read Transaction,00 08*
0,3345,0:36.716.303,79.100 us,2 B,,SP,55,Write Transaction,12 01
0,3346,0:36.721.653,659.500 us,25 B,,SP,55,Read Transaction,00 00 00 00 00 02 A8 64 23 5D 64 00 02 63 63 03 D0 00 00 00 00 00 01 03 00*
0,3347,0:36.730.223,676.900 us,26 B,,SP,55,Write Transaction,14 00 03 62 CE 04 2A 7B 07 1E 65 06 E1 61 00 00 00 00 00 00 FF F0 00 64 FC 2A
0,3348,0:36.746.165,116.300 us,3 B,,SP,55,Read Transaction,00 00 18*
0,3349,0:36.750.557,79.000 us,2 B,,SP,55,Write Transaction,00 00
0,3350,0:36.755.907,86.800 us,2 B,,SP,55,Read Transaction,00 08*
0,3351,0:36.756.269,79.100 us,2 B,,SP,55,Write Transaction,12 01
0,3352,0:36.761.620,659.500 us,25 B,,SP,55,Read Transaction,00 00 00 00 00 02 A8 64 00 00 00 00 02 63 63 03 D0 00 00 00 00 00 01 03 00*
0,3353,0:36.770.216,676.900 us,26 B,,SP,55,Write Transaction,14 00 03 67 22 04 2E C7 07 20 D8 06 E2 73 00 00 00 00 00 00 FF F6 00 64 FC 32
0,3354,0:36.786.156,116.300 us,3 B,,SP,55,Read Transaction,00 00 18*
0,3355,0:36.790.556,79.100 us,2 B,,SP,55,Write Transaction,00 00
0,3356,0:36.795.905,86.700 us,2 B,,SP,55,Read Transaction,00 08*
0,3357,0:36.796.304,79.100 us,2 B,,SP,55,Write Transaction,12 01
0,3358,0:36.801.662,660.600 us,25 B,,SP,55,Read Transaction,00 00 00 00 00 02 A8 64 00 00 00 00 02 63 63 03 D0 00 00 00 00 00 01 03 00*
0,3359,0:36.810.100,676.900 us,26 B,,SP,55,Write Transaction,14 00 03 6C 10 04 33 65 07 23 41 06 E3 63 00 00 00 00 00 00 FF F5 00 64 FC 31
0,3360,0:36.826.039,116.200 us,3 B,,SP,55,Read Transaction,00 00 18*
0,3361,0:36.830.433,79.100 us,2 B,,SP,55,Write Transaction,00 00
0,3362,0:36.835.788,86.800 us,2 B,,SP,55,Read Transaction,00 08*
0,3363,0:36.836.152,79.200 us,2 B,,SP,55,Write Transaction,12 01
0,3364,0:36.841.507,659.600 us,25 B,,SP,55,Read Transaction,00 00 00 00 00 02 A8 64 00 00 00 00 02 63 63 03 D0 00 00 00 00 00 01 03 00*
0,3365,0:36.850.108,676.900 us,26 B,,SP,55,Write Transaction,14 00 03 70 51 04 37 5E 07 25 A9 06 E4 B3 00 00 00 00 00 00 FF F2 00 63 FC 30
0,3366,0:36.866.068,116.400 us,3 B,,SP,55,Read Transaction,00 00 18*
0,3367,0:36.870.468,79.200 us,2 B,,SP,55,Write Transaction,00 00
0,3368,0:36.875.822,86.800 us,2 B,,SP,55,Read Transaction,00 08*
0,3369,0:36.876.184,79.100 us,2 B,,SP,55,Write Transaction,12 01
0,3370,0:36.881.533,659.600 us,25 B,,SP,55,Read Transaction,00 00 00 00 00 02 A8 64 00 00 00 00 02 63 63 03 D0 00 00 00 00 00 01 03 00*
0,3371,0:36.890.017,677.000 us,26 B,,SP,55,Write Transaction,14 00 03 74 B1 04 3B 7B 07 27 CF 06 E5 EA 00 00 00 00 00 00 FF F8 00 65 FC 2A
0,3372,0:36.905.961,116.300 us,3 B,,SP,55,Read Transaction,00 00 18*
0,3373,0:36.910.355,79.000 us,2 B,,SP,55,Write Transaction,00 00
0,3374,0:36.915.706,86.900 us,2 B,,SP,55,Read Transaction,00 08*
0,3375,0:36.916.068,79.200 us,2 B,,SP,55,Write Transaction,12 01
0,3376,0:36.921.418,659.600 us,25 B,,SP,55,Read Transaction,00 00 00 00 00 02 A8 64 00 00 00 00 02 63 63 03 D0 00 00 00 00 00 01 03 00*
0,3377,0:36.930.032,677.000 us,26 B,,SP,55,Write Transaction,14 00 03 78 88 04 3F 4A 07 2A DA 06 E7 F4 00 00 00 00 00 00 FF F4 00 5F FC 33
0,3378,0:36.945.972,116.300 us,3 B,,SP,55,Read Transaction,00 00 18*
0,3379,0:36.950.365,79.100 us,2 B,,SP,55,Write Transaction,00 00
0,3380,0:36.955.715,86.800 us,2 B,,SP,55,Read Transaction,00 08*
0,3381,0:36.956.078,79.100 us,2 B,,SP,55,Write Transaction,12 01
0,3382,0:36.961.426,659.500 us,25 B,,SP,55,Read Transaction,00 00 00 00 00 02 A8 64 00 00 00 00 02 63 63 03 D0 00 00 00 00 00 01 03 00*
0,3383,0:36.969.904,676.900 us,26 B,,SP,55,Write Transaction,14 00 03 7D 29 04 44 00 07 2E 6B 06 EA 04 00 00 00 00 00 00 FF F0 00 62 FC 2C
0,3384,0:36.985.844,116.500 us,3 B,,SP,55,Read Transaction,00 00 18*
0,3385,0:36.990.245,79.200 us,2 B,,SP,55,Write Transaction,00 00
0,3386,0:36.995.599,86.800 us,2 B,,SP,55,Read Transaction,00 08*
0,3387,0:36.995.961,79.200 us,2 B,,SP,55,Write Transaction,12 01
0,3388,0:37.001.317,659.600 us,25 B,,SP,55,Read Transaction,00 00 00 00 00 02 A8 64 00 00 00 00 02 63 63 03 D0 00 00 00 00 00 01 03 00*
0,3389,0:37.009.908,676.600 us,26 B,,SP,55,Write Transaction,14 00 03 82 02 04 48 C5 07 30 EA 06 EB 0A 00 00 00 00 00 00 FF F2 00 66 FC 2A
0,3390,0:37.025.848,116.400 us,3 B,,SP,55,Read Transaction,00 00 18*
0,3391,0:37.030.241,79.100 us,2 B,,SP,55,Write Transaction,00 00
0,3392,0:37.035.591,86.800 us,2 B,,SP,55,Read Transaction,00 08*
0,3393,0:37.035.954,79.100 us,2 B,,SP,55,Write Transaction,12 01
0,3394,0:37.041.334,659.600 us,25 B,,SP,55,Read Transaction,00 00 00 00 00 02 A8 64 00 00 00 00 02 63 63 03 D0 E4 00 00 00 00 01 03 00*
0,3395,0:37.049.816,676.900 us,26 B,,SP,55,Write Transaction,14 00 03 86 46 04 4C DA 07 34 6C 06 ED 91 00 00 00 00 00 00 FF F6 00 63 FC 30
0,3396,0:37.065.776,116.300 us,3 B,,SP,55,Read Transaction,00 00 18*
0,3397,0:37.070.171,79.100 us,2 B,,SP,55,Write Transaction,00 00
0,3398,0:37.075.521,86.700 us,2 B,,SP,55,Read Transaction,00 08*
0,3399,0:37.075.882,79.100 us,2 B,,SP,55,Write Transaction,12 01
0,3400,0:37.081.237,660.500 us,25 B,,SP,55,Read Transaction,00 00 00 00 00 02 A8 64 00 00 00 00 02 63 63 03 D0 00 00 00 00 00 01 03 00*
0,3401,0:37.089.829,678.000 us,26 B,,SP,55,Write Transaction,14 00 03 8C 0E 04 51 F4 07 39 12 06 EF 6A 00 00 00 00 00 00 FF F6 00 63 FC 2B
0,3402,0:37.105.782,116.400 us,3 B,,SP,55,Read Transaction,00 00 18*
0,3403,0:37.110.181,79.000 us,2 B,,SP,55,Write Transaction,00 00
0,3404,0:37.115.532,86.700 us,2 B,,SP,55,Read Transaction,00 08*
0,3405,0:37.115.895,79.000 us,2 B,,SP,55,Write Transaction,12 01
0,3406,0:37.121.246,659.700 us,25 B,,SP,55,Read Transaction,00 00 00 00 00 02 A8 64 00 00 00 00 02 63 63 03 D0 00 00 00 00 00 01 03 00*
0,3407,0:37.129.743,676.900 us,26 B,,SP,55,Write Transaction,14 00 03 8D 93 04 53 3F 07 33 D5 06 EA B4 00 00 00 00 00 00 FF F4 00 62 FC 2D
0,3408,0:37.145.685,116.400 us,3 B,,SP,55,Read Transaction,00 00 18*
0,3409,0:37.150.080,79.000 us,2 B,,SP,55,Write Transaction,00 00
0,3410,0:37.155.431,86.700 us,2 B,,SP,55,Read Transaction,00 08*
0,3411,0:37.155.793,79.100 us,2 B,,SP,55,Write Transaction,12 01
0,3412,0:37.161.147,660.500 us,25 B,,SP,55,Read Transaction,00 00 00 00 00 02 A8 64 00 00 00 00 02 63 63 03 D0 00 00 00 00 00 01 03 00*
0,3413,0:37.169.690,677.000 us,26 B,,SP,55,Write Transaction,14 00 03 80 96 04 46 36 07 28 29 06 E5 19 00 00 00 00 00 00 FF F9 00 66 FC 2B
0,3414,0:37.185.631,116.300 us,3 B,,SP,55,Read Transaction,00 00 18*
0,3415,0:37.190.030,79.200 us,2 B,,SP,55,Write Transaction,00 00
0,3416,0:37.195.388,86.800 us,2 B,,SP,55,Read Transaction,00 08*
0,3417,0:37.195.750,79.100 us,2 B,,SP,55,Write Transaction,12 01
0,3418,0:37.201.102,659.700 us,25 B,,SP,55,Read Transaction,00 00 00 00 00 02 A8 64 00 00 00 00 02 63 63 03 D0 00 00 00 00 00 01 03 00*
0,3419,0:37.209.704,677.000 us,26 B,,SP,55,Write Transaction,14 00 03 70 98 04 38 56 07 1B CE 06 DD A8 00 00 00 00 00 00 FF F1 00 62 FC 2A
0,3420,0:37.225.645,116.300 us,3 B,,SP,55,Read Transaction,00 00 18*
0,3421,0:37.230.037,79.100 us,2 B,,SP,55,Write Transaction,00 00
0,3422,0:37.235.388,86.700 us,2 B,,SP,55,Read Transaction,00 08*
0,3423,0:37.235.751,79.100 us,2 B,,SP,55,Write Transaction,12 01
0,3424,0:37.241.099,659.100 us,25 B,,SP,55,Read Transaction,00 00 00 00 00 02 A8 64 00 00 00 00 02 63 63 03 D0 00 00 00 00 00 01 03 00*
0,3425,0:37.249.585,677.000 us,26 B,,SP,55,Write Transaction,14 00 03 67 04 04 2F E0 07 16 99 06 DB 9A 00 00 00 00 00 00 FF F4 00 68 FC 32
0,3426,0:37.265.523,116.300 us,3 B,,SP,55,Read Transaction,00 00 18*
0,3427,0:37.269.924,79.200 us,2 B,,SP,55,Write Transaction,00 00
0,3428,0:37.275.274,86.700 us,2 B,,SP,55,Read Transaction,00 08*
0,3429,0:37.275.635,79.100 us,2 B,,SP,55,Write Transaction,12 01
0,3430,0:37.280.987,659.600 us,25 B,,SP,55,Read Transaction,00 00 00 00 00 02 A8 64 00 00 00 00 02 63 63 03 D0 00 00 00 00 00 01 03 00*
0,3431,0:37.289.615,677.000 us,26 B,,SP,55,Write Transaction,14 00 03 61 FD 04 2B 0E 07 13 C2 06 D9 91 00 00 00 00 00 00 FF F7 00 62 FC 2B
0,3432,0:37.305.559,116.400 us,3 B,,SP,55,Read Transaction,00 00 18*
0,3433,0:37.309.952,79.000 us,2 B,,SP,55,Write Transaction,00 00
0,3434,0:37.315.303,86.700 us,2 B,,SP,55,Read Transaction,00 08*
0,3435,0:37.315.666,79.100 us,2 B,,SP,55,Write Transaction,12 01
0,3436,0:37.321.018,660.600 us,25 B,,SP,55,Read Transaction,00 00 00 00 00 02 A8 64 00 00 00 00 02 63 63 03 D0 00 00 00 00 00 01 03 00*
0,3437,0:37.329.496,677.000 us,26 B,,SP,55,Write Transaction,14 00 03 5F 04 04 27 94 07 10 C9 06 D7 A6 00 00 00 00 00 00 FF F5 00 61 FC 30
0,3438,0:37.345.438,116.100 us,3 B,,SP,55,Read Transaction,00 00 18*
0,3439,0:37.349.835,79.100 us,2 B,,SP,55,Write Transaction,00 00
0,3440,0:37.355.184,86.600 us,2 B,,SP,55,Read Transaction,00 08*
0,3441,0:37.355.545,79.000 us,2 B,,SP,55,Write Transaction,12 01
0,3442,0:37.360.894,659.700 us,25 B,,SP,55,Read Transaction,00 00 00 00 00 02 A8 64 00 00 00 00 02 63 63 03 D0 00 00 00 00 00 01 03 00*
0,3443,0:37.369.494,677.000 us,26 B,,SP,55,Write Transaction,14 00 03 5F A7 04 27 BE 07 11 B4 06 D7 F8 00 00 00 00 00 00 FF F2 00 63 FC 28
0,3444,0:37.385.445,116.400 us,3 B,,SP,55,Read Transaction,00 00 18*
0,3445,0:37.389.839,79.100 us,2 B,,SP,55,Write Transaction,00 00
0,3446,0:37.395.189,86.800 us,2 B,,SP,55,Read Transaction,00 08*
0,3447,0:37.395.554,79.200 us,2 B,,SP,55,Write Transaction,12 01
0,3448,0:37.400.911,660.500 us,25 B,,SP,55,Read Transaction,00 00 00 00 00 02 A8 64 00 00 00 00 02 63 63 03 D0 00 00 00 00 00 01 03 00*
0,3449,0:37.409.447,676.900 us,26 B,,SP,55,Write Transaction,14 00 03 63 73 04 2A D4 07 15 B3 06 DA B9 00 00 00 00 00 00 FF F4 00 5D FC 2D
0,3450,0:37.425.389,116.300 us,3 B,,SP,55,Read Transaction,00 00 18*
0,3451,0:37.429.784,79.100 us,2 B,,SP,55,Write Transaction,00 00
0,3452,0:37.435.154,86.700 us,2 B,,SP,55,Read Transaction,00 08*
0,3453,0:37.435.520,79.100 us,2 B,,SP,55,Write Transaction,12 01
0,3454,0:37.440.870,660.600 us,25 B,,SP,55,Read Transaction,00 00 00 00 00 02 A8 64 00 00 00 00 02 63 63 03 D0 00 00 00 00 00 01 03 00*
0,3455,0:37.449.384,676.900 us,26 B,,SP,55,Write Transaction,14 00 03 65 9B 04 2C C7 07 19 26 06 DD 51 00 00 00 00 00 00 FF FA 00 62 FC 2C
0,3456,0:37.465.322,116.400 us,3 B,,SP,55,Read Transaction,00 00 18*
0,3457,0:37.469.714,79.000 us,2 B,,SP,55,Write Transaction,00 00
0,3458,0:37.475.066,86.900 us,2 B,,SP,55,Read Transaction,00 08*
0,3459,0:37.475.429,79.200 us,2 B,,SP,55,Write Transaction,12 01
0,3460,0:37.480.787,660.500 us,25 B,,SP,55,Read Transaction,00 00 00 00 00 02 A8 64 00 00 00 00 02 63 63 03 D0 00 00 00 00 00 01 03 00*
0,3461,0:37.489.346,677.900 us,26 B,,SP,55,Write Transaction,14 00 03 67 2D 04 2E 8D 07 1B 41 06 DF 52 00 00 00 00 00 00 FF F4 00 63 FC 30
0,3462,0:37.505.293,116.300 us,3 B,,SP,55,Read Transaction,00 00 18*
0,3463,0:37.509.686,79.100 us,2 B,,SP,55,Write Transaction,00 00
0,3464,0:37.515.035,86.700 us,2 B,,SP,55,Read Transaction,00 08*
0,3465,0:37.515.398,79.000 us,2 B,,SP,55,Write Transaction,12 01
0,3466,0:37.520.745,659.400 us,25 B,,SP,55,Read Transaction,00 00 00 00 00 02 A8 64 00 00 00 00 02 63 63 03 D0 00 00 00 00 00 01 03 00*
0,3467,0:37.529.290,677.800 us,26 B,,SP,55,Write Transaction,14 00 03 69 86 04 31 3E 07 1E 2D 06 E1 62 00 00 00 00 00 00 FF FA 00 6B FC 2C
0,3468,0:37.545.245,116.100 us,3 B,,SP,55,Read Transaction,00 00 18*
0,3469,0:37.549.640,79.200 us,2 B,,SP,55,Write Transaction,00 00
0,3470,0:37.554.995,86.700 us,2 B,,SP,55,Read Transaction,00 08*
0,3471,0:37.555.357,79.000 us,2 B,,SP,55,Write Transaction,12 01
0,3472,0:37.560.707,659.600 us,25 B,,SP,55,Read Transaction,00 00 00 00 00 02 A8 64 00 00 00 00 02 63 63 03 D0 00 00 00 00 00 01 03 00*
0,3473,0:37.569.257,676.900 us,26 B,,SP,55,Write Transaction,14 00 03 6E 40 04 35 C9 07 20 6B 06 E1 E4 00 00 00 00 00 00 FF EE 00 61 FC 2D
0,3474,0:37.585.199,116.300 us,3 B,,SP,55,Read Transaction,00 00 18*
0,3475,0:37.589.591,79.100 us,2 B,,SP,55,Write Transaction,00 00
0,3476,0:37.594.942,86.700 us,2 B,,SP,55,Read Transaction,00 08*
0,3477,0:37.595.305,79.000 us,2 B,,SP,55,Write Transaction,12 01
0,3478,0:37.600.653,659.900 us,25 B,,SP,55,Read Transaction,00 00 00 00 00 02 A8 64 00 00 00 00 02 63 63 03 D0 00 00 00 00 00 01 03 00*
0,3479,0:37.609.208,676.900 us,26 B,,SP,55,Write Transaction,14 00 03 74 2A 04 3B 38 07 24 BB 06 E4 82 00 00 00 00 00 00 FF F3 00 61 FC 30
0,3480,0:37.625.181,116.300 us,3 B,,SP,55,Read Transaction,00 00 18*
0,3481,0:37.629.576,79.200 us,2 B,,SP,55,Write Transaction,00 00
0,3482,0:37.634.930,86.700 us,2 B,,SP,55,Read Transaction,00 08*
0,3483,0:37.635.291,79.100 us,2 B,,SP,55,Write Transaction,12 01
0,3484,0:37.640.643,660.600 us,25 B,,SP,55,Read Transaction,00 00 00 00 00 02 A8 64 23 84 64 00 02 63 63 03 D0 00 00 00 00 00 01 03 00*
0,3485,0:37.649.158,676.700 us,26 B,,SP,55,Write Transaction,14 00 03 79 30 04 40 0A 07 2A 38 06 E8 B4 00 00 00 00 00 00 FF F5 00 63 FC 34
0,3486,0:37.665.101,116.300 us,3 B,,SP,55,Read Transaction,00 00 18*
0,3487,0:37.669.494,79.100 us,2 B,,SP,55,Write Transaction,00 00
0,3488,0:37.674.846,86.600 us,2 B,,SP,55,Read Transaction,00 08*
0,3489,0:37.675.209,79.100 us,2 B,,SP,55,Write Transaction,12 01
0,3490,0:37.680.560,660.000 us,25 B,,SP,55,Read Transaction,00 00 00 00 00 02 A8 64 00 00 00 00 02 63 63 03 D0 00 00 00 00 00 01 03 00*
0,3491,0:37.689.129,676.800 us,26 B,,SP,55,Write Transaction,14 00 03 7D CC 04 44 AE 07 2C CF 06 E9 A4 00 00 00 00 00 00 FF F1 00 5F FC 31
0,3492,0:37.705.079,116.200 us,3 B,,SP,55,Read Transaction,00 00 18*
0,3493,0:37.709.473,79.100 us,2 B,,SP,55,Write Transaction,00 00
0,3494,0:37.714.822,108.100 us,2 B,,SP,55,Read Transaction,00 08*
0,3495,0:37.715.207,79.100 us,2 B,,SP,55,Write Transaction,12 01
0,3496,0:37.720.557,659.700 us,25 B,,SP,55,Read Transaction,00 00 00 00 00 02 A8 64 00 00 00 00 02 63 63 03 D0 00 00 00 00 00 01 03 00*
0,3497,0:37.729.037,676.800 us,26 B,,SP,55,Write Transaction,14 00 03 81 12 04 47 C2 07 2E D2 06 EB 1D 00 00 00 00 00 00 FF F1 00 65 FC 2E
0,3498,0:37.744.974,116.300 us,3 B,,SP,55,Read Transaction,00 00 18*
0,3499,0:37.749.366,79.100 us,2 B,,SP,55,Write Transaction,00 00
0,3500,0:37.754.718,86.700 us,2 B,,SP,55,Read Transaction,00 08*
0,3501,0:37.755.080,79.000 us,2 B,,SP,55,Write Transaction,12 01
0,3502,0:37.760.433,660.600 us,25 B,,SP,55,Read Transaction,00 00 00 00 00 02 A8 64 00 00 00 00 02 63 63 03 D0 00 00 00 00 00 01 03 00*
0,3503,0:37.769.056,676.400 us,26 B,,SP,55,Write Transaction,14 00 03 84 36 04 4B 02 07 32 CD 06 ED E0 00 00 00 00 00 00 FF F1 00 61 FC 30
0,3504,0:37.784.996,116.400 us,3 B,,SP,55,Read Transaction,00 00 18*
0,3505,0:37.789.398,79.100 us,2 B,,SP,55,Write Transaction,00 00
0,3506,0:37.794.754,86.700 us,2 B,,SP,55,Read Transaction,00 08*
0,3507,0:37.795.117,79.100 us,2 B,,SP,55,Write Transaction,12 01
0,3508,0:37.800.470,660.600 us,25 B,,SP,55,Read Transaction,00 00 00 00 00 02 A8 64 00 00 00 00 02 63 63 03 D0 00 00 00 00 00 01 03 00*
0,3509,0:37.809.336,676.900 us,26 B,,SP,55,Write Transaction,14 00 03 87 E2 04 4E BF 07 35 44 06 EF 56 00 00 00 00 00 00 FF F9 00 6A FC 30
0,3510,0:37.825.275,116.300 us,3 B,,SP,55,Read Transaction,00 00 18*
0,3511,0:37.829.671,79.000 us,2 B,,SP,55,Write Transaction,00 00
0,3512,0:37.835.021,86.700 us,2 B,,SP,55,Read Transaction,00 08*
0,3513,0:37.835.382,79.100 us,2 B,,SP,55,Write Transaction,12 01
0,3514,0:37.840.733,659.600 us,25 B,,SP,55,Read Transaction,00 00 00 00 00 02 A8 64 00 00 00 00 02 63 63 03 D0 00 00 00 00 00 01 03 00*
0,3515,0:37.848.976,677.900 us,26 B,,SP,55,Write Transaction,14 00 03 8B 54 04 52 56 07 36 CF 06 F0 02 00 00 00 00 00 00 FF F6 00 65 FC 29
0,3516,0:37.864.922,116.300 us,3 B,,SP,55,Read Transaction,00 00 18*
0,3517,0:37.869.315,79.000 us,2 B,,SP,55,Write Transaction,00 00
0,3518,0:37.874.667,86.700 us,2 B,,SP,55,Read Transaction,00 08*
0,3519,0:37.875.030,79.100 us,2 B,,SP,55,Write Transaction,12 01
0,3520,0:37.880.377,659.500 us,25 B,,SP,55,Read Transaction,00 00 00 00 00 02 A8 64 00 00 00 00 02 63 63 03 D0 00 00 00 00 00 01 03 00*
0,3521,0:37.888.848,676.900 us,26 B,,SP,55,Write Transaction,14 00 03 8F 08 04 56 05 07 38 84 06 F0 A5 00 00 00 00 00 00 FF F4 00 63 FC 2D
0,3522,0:37.904.790,116.300 us,3 B,,SP,55,Read Transaction,00 00 18*
0,3523,0:37.909.183,79.100 us,2 B,,SP,55,Write Transaction,00 00
0,3524,0:37.914.533,86.700 us,2 B,,SP,55,Read Transaction,00 08*
0,3525,0:37.914.894,79.100 us,2 B,,SP,55,Write Transaction,12 01
0,3526,0:37.920.245,659.600 us,25 B,,SP,55,Read Transaction,00 00 00 00 00 02 A8 64 00 00 00 00 02 63 63 03 D0 00 00 00 00 00 01 03 00*
0,3527,0:37.928.973,676.900 us,26 B,,SP,55,Write Transaction,14 00 03 93 6F 04 5A 25 07 3B 02 06 F1 E4 00 00 00 00 00 00 FF F9 00 66 FC 2F
0,3528,0:37.944.915,116.300 us,3 B,,SP,55,Read Transaction,00 00 18*
0,3529,0:37.949.308,79.100 us,2 B,,SP,55,Write Transaction,00 00
0,3530,0:37.954.662,86.700 us,2 B,,SP,55,Read Transaction,00 08*
0,3531,0:37.955.024,79.100 us,2 B,,SP,55,Write Transaction,12 01
0,3532,0:37.960.376,659.600 us,25 B,,SP,55,Read Transaction,00 00 00 00 00 02 A8 64 00 00 00 00 02 63 63 03 D0 00 00 00 00 00 01 03 00*
0,3533,0:37.968.777,676.800 us,26 B,,SP,55,Write Transaction,14 00 03 97 B3 04 5E 4C 07 3F FB 06 F5 82 00 00 00 00 00 00 FF F3 00 67 FC 2E
0,3534,0:37.984.725,116.100 us,3 B,,SP,55,Read Transaction,00 00 18*
0,3535,0:37.989.119,79.000 us,2 B,,SP,55,Write Transaction,00 00
0,3536,0:37.994.470,86.700 us,2 B,,SP,55,Read Transaction,00 08*
0,3537,0:37.994.831,79.100 us,2 B,,SP,55,Write Transaction,12 01
0,3538,0:38.000.181,660.100 us,25 B,,SP,55,Read Transaction,00 00 00 00 00 02 9E 64 00 00 00 00 02 63 63 03 D0 00 00 00 00 00 01 03 00*
0,3539,0:38.008.765,676.900 us,26 B,,SP,55,Write Transaction,14 00 03 9C 1D 04 62 36 07 3F C2 06 F3 08 00 00 00 00 00 00 FF F2 00 66 FC 30
0,3540,0:38.024.704,116.300 us,3 B,,SP,55,Read Transaction,00 00 18*
0,3541,0:38.029.097,79.100 us,2 B,,SP,55,Write Transaction,00 00
0,3542,0:38.034.448,86.700 us,2 B,,SP,55,Read Transaction,00 08*
0,3543,0:38.034.811,79.100 us,2 B,,SP,55,Write Transaction,12 01
0,3544,0:38.040.161,659.400 us,25 B,,SP,55,Read Transaction,00 00 00 00 00 02 9E 64 00 00 00 00 02 63 64 03 D0 E4 00 00 00 00 01 03 00*
0,3545,0:38.048.704,676.400 us,26 B,,SP,55,Write Transaction,14 00 03 97 E1 04 5E 75 07 33 C9 06 EA C3 00 00 00 00 00 00 FF F0 00 6A FC 2E
0,3546,0:38.064.641,116.300 us,3 B,,SP,55,Read Transaction,00 00 18*
0,3547,0:38.069.035,79.000 us,2 B,,SP,55,Write Transaction,00 00
0,3548,0:38.074.391,86.800 us,2 B,,SP,55,Read Transaction,00 08*
0,3549,0:38.074.753,79.200 us,2 B,,SP,55,Write Transaction,12 01
0,3550,0:38.080.106,659.600 us,25 B,,SP,55,Read Transaction,00 00 00 00 00 02 9E 64 00 00 00 00 02 63 64 03 D0 00 00 00 00 00 01 03 00*
0,3551,0:38.088.644,676.800 us,26 B,,SP,55,Write Transaction,14 00 03 88 33 04 4F 4B 07 28 F5 06 E6 0A 00 00 00 00 00 00 FF F9 00 65 FC 2F
0,3552,0:38.104.583,116.300 us,3 B,,SP,55,Read Transaction,00 00 18*
0,3553,0:38.108.996,79.000 us,2 B,,SP,55,Write Transaction,00 00
0,3554,0:38.114.347,86.700 us,2 B,,SP,55,Read Transaction,00 08*
0,3555,0:38.114.708,79.100 us,2 B,,SP,55,Write Transaction,12 01
0,3556,0:38.120.058,659.700 us,25 B,,SP,55,Read Transaction,00 00 00 00 80 02 9E 64 00 00 00 00 02 63 64 03 D0 00 00 00 00 00 01 03 00*
0,3557,0:38.128.016,104.000 us,3 B,,SP,55,Write Transaction,47 07 27
0,3558,0:38.133.395,560.800 us,21 B,,SP,55,Read Transaction,00 80 3B 00 00 00 80 3B 00 00 00 00 00 00 00 00 00 00 00 00 00*
0,3559,0:38.135.063,129.100 us,4 B,,SP,55,Write Transaction,46 07 28 01
0,3560,0:38.140.468,61.800 us,1 B,,SP,55,Read Transaction,00*
0,3561,0:38.168.462,676.900 us,26 B,,SP,55,Write Transaction,14 00 02 E7 9C 03 93 13 07 1B 92 06 DF B4 00 00 00 00 00 00 FF F5 00 66 FC 2D
0,3562,0:38.184.407,116.300 us,3 B,,SP,55,Read Transaction,00 00 18*
0,3563,0:38.188.799,79.100 us,2 B,,SP,55,Write Transaction,00 00
0,3564,0:38.194.151,86.800 us,2 B,,SP,55,Read Transaction,00 08*
0,3565,0:38.194.512,79.100 us,2 B,,SP,55,Write Transaction,12 01
0,3566,0:38.199.863,659.500 us,25 B,,SP,55,Read Transaction,00 00 00 00 00 02 9E 64 00 00 00 00 02 63 64 03 D0 00 00 00 00 00 01 03 16*
0,3567,0:38.208.521,676.900 us,26 B,,SP,55,Write Transaction,14 00 02 E3 D4 03 8F 8B 07 1A 7A 06 DF 81 00 00 00 00 00 00 FF F9 00 67 FC 30
0,3568,0:38.224.460,116.300 us,3 B,,SP,55,Read Transaction,00 00 18*
0,3569,0:38.228.856,79.200 us,2 B,,SP,55,Write Transaction,00 00
0,3570,0:38.234.211,86.700 us,2 B,,SP,55,Read Transaction,00 08*
0,3571,0:38.234.574,79.000 us,2 B,,SP,55,Write Transaction,12 01
0,3572,0:38.239.920,659.600 us,25 B,,SP,55,Read Transaction,00 00 00 00 00 02 9E 64 00 00 00 00 02 63 64 03 D0 00 00 00 00 00 01 03 00*
0,3573,0:38.248.484,676.900 us,26 B,,SP,55,Write Transaction,14 00 02 E2 09 03 8D F7 07 1B E3 06 E1 2D 00 00 00 00 00 00 FF F4 00 63 FC 2B
0,3574,0:38.264.426,116.300 us,3 B,,SP,55,Read Transaction,00 00 18*
0,3575,0:38.268.820,79.100 us,2 B,,SP,55,Write Transaction,00 00
0,3576,0:38.274.170,86.700 us,2 B,,SP,55,Read Transaction,00 08*
0,3577,0:38.274.532,79.100 us,2 B,,SP,55,Write Transaction,12 01
0,3578,0:38.279.882,659.700 us,25 B,,SP,55,Read Transaction,00 00 00 00 00 02 9E 64 00 00 00 00 02 63 64 03 D0 00 00 00 00 00 01 03 00*
0,3579,0:38.288.426,676.800 us,26 B,,SP,55,Write Transaction,14 00 02 E4 1D 03 8F DC 07 1F E0 06 E3 9D 00 00 00 00 00 00 FF F1 00 65 FC 2A
0,3580,0:38.304.367,116.300 us,3 B,,SP,55,Read Transaction,00 00 18*
0,3581,0:38.308.759,79.000 us,2 B,,SP,55,Write Transaction,00 00
0,3582,0:38.314.110,86.700 us,2 B,,SP,55,Read Transaction,00 08*
0,3583,0:38.314.473,79.100 us,2 B,,SP,55,Write Transaction,12 01
0,3584,0:38.319.823,659.700 us,25 B,,SP,55,Read Transaction,00 00 00 00 00 02 9E 64 00 00 00 00 02 63 64 03 D0 00 00 00 00 00 01 03 00*
0,3585,0:38.328.394,676.800 us,26 B,,SP,55,Write Transaction,14 00 02 E6 8B 03 92 39 07 22 DF 06 E5 A5 00 00 00 00 00 00 FF F7 00 66 FC 2E
0,3586,0:38.344.335,116.400 us,3 B,,SP,55,Read Transaction,00 00 18*
0,3587,0:38.348.729,79.100 us,2 B,,SP,55,Write Transaction,00 00
0,3588,0:38.354.079,86.700 us,2 B,,SP,55,Read Transaction,00 08*
0,3589,0:38.354.442,79.100 us,2 B,,SP,55,Write Transaction,12 01
0,3590,0:38.359.791,659.600 us,25 B,,SP,55,Read Transaction,00 00 00 00 00 02 9E 64 00 00 00 00 02 63 64 03 D0 00 00 00 00 00 01 03 00*
0,3591,0:38.368.325,676.800 us,26 B,,SP,55,Write Transaction,14 00 02 E7 BF 03 93 B2 07 24 5D 06 E6 A0 00 00 00 00 00 00 FF F2 00 61 FC 30
0,3592,0:38.384.264,116.300 us,3 B,,SP,55,Read Transaction,00 00 18*
0,3593,0:38.388.656,79.100 us,2 B,,SP,55,Write Transaction,00 00
0,3594,0:38.394.031,86.700 us,2 B,,SP,55,Read Transaction,00 08*
0,3595,0:38.394.394,79.000 us,2 B,,SP,55,Write Transaction,12 01
0,3596,0:38.399.744,659.500 us,25 B,,SP,55,Read Transaction,00 00 00 00 00 02 9E 64 00 00 00 00 02 63 64 03 D0 00 00 00 00 00 01 03 00*
0,3597,0:38.408.286,676.800 us,26 B,,SP,55,Write Transaction,14 00 02 E8 9A 03 94 E2 07 25 53 06 E7 22 00 00 00 00 00 00 FF F5 00 65 FC 2F
0,3598,0:38.424.278,116.500 us,3 B,,SP,55,Read Transaction,00 00 18*
0,3599,0:38.428.672,79.100 us,2 B,,SP,55,Write Transaction,00 00
0,3600,0:38.434.023,86.700 us,2 B,,SP,55,Read Transaction,00 08*
0,3601,0:38.434.386,79.000 us,2 B,,SP,55,Write Transaction,12 01
0,3602,0:38.439.733,659.600 us,25 B,,SP,55,Read Transaction,00 00 00 00 00 02 9E 64 00 00 00 00 02 63 64 03 D0 00 00 00 00 00 01 03 00*
0,3603,0:38.448.239,676.800 us,26 B,,SP,55,Write Transaction,14 00 02 EB 44 03 97 8B 07 28 AD 06 E9 72 00 00 00 00 00 00 FF F0 00 64 FC 2D
0,3604,0:38.464.180,116.500 us,3 B,,SP,55,Read Transaction,00 00 18*
0,3605,0:38.468.579,79.200 us,2 B,,SP,55,Write Transaction,00 00
0,3606,0:38.473.929,86.700 us,2 B,,SP,55,Read Transaction,00 08*
0,3607,0:38.474.290,79.100 us,2 B,,SP,55,Write Transaction,12 01
0,3608,0:38.479.640,659.600 us,25 B,,SP,55,Read Transaction,00 00 00 00 00 02 9E 64 00 00 00 00 02 63 64 03 D0 00 00 00 00 00 01 03 00*
0,3609,0:38.488.211,676.800 us,26 B,,SP,55,Write Transaction,14 00 02 EF BE 03 9B E7 07 2C 78 06 EB 7A 00 00 00 00 00 00 FF F5 00 65 FC 35
0,3610,0:38.504.149,116.300 us,3 B,,SP,55,Read Transaction,00 00 18*
0,3611,0:38.508.541,79.000 us,2 B,,SP,55,Write Transaction,00 00
0,3612,0:38.513.890,86.700 us,2 B,,SP,55,Read Transaction,00 08*
0,3613,0:38.514.253,79.100 us,2 B,,SP,55,Write Transaction,12 01
0,3614,0:38.519.600,659.500 us,25 B,,SP,55,Read Transaction,00 00 00 00 00 02 9E 64 00 00 00 00 02 63 64 03 D0 00 00 00 00 00 01 03 00*
0,3615,0:38.528.142,676.700 us,26 B,,SP,55,Write Transaction,14 00 02 F4 C5 03 A0 A6 07 30 44 06 ED 81 00 00 00 00 00 00 FF F3 00 66 FC 2C
0,3616,0:38.544.090,116.300 us,3 B,,SP,55,Read Transaction,00 00 18*
0,3617,0:38.548.483,79.000 us,2 B,,SP,55,Write Transaction,00 00
0,3618,0:38.553.831,86.700 us,2 B,,SP,55,Read Transaction,00 08*
0,3619,0:38.554.192,79.000 us,2 B,,SP,55,Write Transaction,12 01
0,3620,0:38.559.542,659.500 us,25 B,,SP,55,Read Transaction,00 00 00 00 00 02 9E 64 00 00 00 00 02 63 64 03 D0 00 00 00 00 00 01 03 00*
0,3621,0:38.568.077,676.900 us,26 B,,SP,55,Write Transaction,14 00 02 F9 52 03 A5 01 07 34 69 06 F0 48 00 00 00 00 00 00 FF F0 00 64 FC 31
0,3622,0:38.584.018,116.300 us,3 B,,SP,55,Read Transaction,00 00 18*
0,3623,0:38.588.409,79.100 us,2 B,,SP,55,Write Transaction,00 00
0,3624,0:38.593.759,86.600 us,2 B,,SP,55,Read Transaction,00 08*
0,3625,0:38.594.121,79.200 us,2 B,,SP,55,Write Transaction,12 01
0,3626,0:38.599.478,660.400 us,25 B,,SP,55,Read Transaction,00 00 00 00 00 02 9E 64 24 39 64 00 02 63 64 03 D0 00 00 00 00 00 01 03 00*
0,3627,0:38.608.081,676.800 us,26 B,,SP,55,Write Transaction,14 00 02 FD 98 03 A9 0C 07 38 29 06 F2 80 00 00 00 00 00 00 FF F6 00 65 FC 30
0,3628,0:38.624.022,116.300 us,3 B,,SP,55,Read Transaction,00 00 18*
0,3629,0:38.628.416,79.100 us,2 B,,SP,55,Write Transaction,00 00
0,3630,0:38.633.764,86.600 us,2 B,,SP,55,Read Transaction,00 08*
0,3631,0:38.634.126,79.100 us,2 B,,SP,55,Write Transaction,12 01
0,3632,0:38.639.476,659.600 us,25 B,,SP,55,Read Transaction,00 00 00 00 00 02 9E 64 00 00 00 00 02 63 64 03 D0 00 00 00 00 00 01 03 00*
0,3633,0:38.647.994,676.400 us,26 B,,SP,55,Write Transaction,14 00 03 00 E0 03 AC 3E 07 3A DB 06 F4 1D 00 00 00 00 00 00 FF F5 00 62 FC 2B
0,3634,0:38.663.930,116.300 us,3 B,,SP,55,Read Transaction,00 00 18*
0,3635,0:38.668.323,79.000 us,2 B,,SP,55,Write Transaction,00 00
0,3636,0:38.673.672,86.700 us,2 B,,SP,55,Read Transaction,00 08*
0,3637,0:38.674.036,79.000 us,2 B,,SP,55,Write Transaction,12 01
0,3638,0:38.679.386,659.500 us,25 B,,SP,55,Read Transaction,00 00 00 00 00 02 9E 64 00 00 00 00 02 63 64 03 D0 00 00 00 00 00 01 03 00*
0,3639,0:38.688.024,676.900 us,26 B,,SP,55,Write Transaction,14 00 03 04 1E 03 AF 54 07 3D B0 06 F5 B0 00 00 00 00 00 00 FF F8 00 68 FC 2C
0,3640,0:38.703.963,116.300 us,3 B,,SP,55,Read Transaction,00 00 18*
0,3641,0:38.708.358,79.100 us,2 B,,SP,55,Write Transaction,00 00
0,3642,0:38.713.709,86.800 us,2 B,,SP,55,Read Transaction,00 08*
0,3643,0:38.714.072,79.100 us,2 B,,SP,55,Write Transaction,12 01
0,3644,0:38.719.422,659.600 us,25 B,,SP,55,Read Transaction,00 00 00 00 00 02 9E 64 00 00 00 00 02 63 64 03 D0 00 00 00 00 00 01 03 00*
0,3645,0:38.727.891,676.800 us,26 B,,SP,55,Write Transaction,14 00 03 07 8B 03 B2 AA 07 40 DD 06 F8 00 00 00 00 00 00 00 FF F3 00 69 FC 2A
0,3646,0:38.743.832,116.300 us,3 B,,SP,55,Read Transaction,00 00 18*
0,3647,0:38.748.228,79.100 us,2 B,,SP,55,Write Transaction,00 00
0,3648,0:38.753.578,86.800 us,2 B,,SP,55,Read Transaction,00 08*
0,3649,0:38.753.940,79.200 us,2 B,,SP,55,Write Transaction,12 01
0,3650,0:38.759.297,660.500 us,25 B,,SP,55,Read Transaction,00 00 00 00 00 02 9E 64 00 00 00 00 02 63 64 03 D0 00 00 00 00 00 01 03 00*
0,3651,0:38.767.898,676.900 us,26 B,,SP,55,Write Transaction,14 00 03 0A 77 03 B5 AB 07 43 CA 06 F9 EF 00 00 00 00 00 00 FF F3 00 68 FC 30
0,3652,0:38.783.840,116.300 us,3 B,,SP,55,Read Transaction,00 00 18*
0,3653,0:38.788.232,79.100 us,2 B,,SP,55,Write Transaction,00 00
0,3654,0:38.793.591,86.800 us,2 B,,SP,55,Read Transaction,00 08*
0,3655,0:38.793.954,79.200 us,2 B,,SP,55,Write Transaction,12 01
0,3656,0:38.799.307,659.500 us,25 B,,SP,55,Read Transaction,00 00 00 00 00 02 9E 64 00 00 00 00 02 63 64 03 D0 00 00 00 00 00 01 03 00*
0,3657,0:38.807.808,676.800 us,26 B,,SP,55,Write Transaction,14 00 03 0D BD 03 B8 DF 07 47 76 06 FC 77 00 00 00 00 00 00 FF FA 00 64 FC 31
0,3658,0:38.823.744,116.300 us,3 B,,SP,55,Read Transaction,00 00 18*
0,3659,0:38.828.140,79.100 us,2 B,,SP,55,Write Transaction,00 00
0,3660,0:38.833.488,86.700 us,2 B,,SP,55,Read Transaction,00 08*
0,3661,0:38.833.849,79.100 us,2 B,,SP,55,Write Transaction,12 01
0,3662,0:38.839.198,659.600 us,25 B,,SP,55,Read Transaction,00 00 00 00 00 02 9E 64 00 00 00 00 02 63 64 03 D0 00 00 00 00 00 01 03 00*
0,3663,0:38.847.803,677.500 us,26 B,,SP,55,Write Transaction,14 00 03 11 0A 03 BB F5 07 4A 83 06 FE 45 00 00 00 00 00 00 FF F4 00 5E FC 2A
0,3664,0:38.863.749,116.300 us,3 B,,SP,55,Read Transaction,00 00 18*
0,3665,0:38.868.141,79.100 us,2 B,,SP,55,Write Transaction,00 00
0,3666,0:38.873.492,86.700 us,2 B,,SP,55,Read Transaction,00 08*
0,3667,0:38.873.854,79.100 us,2 B,,SP,55,Write Transaction,12 01
0,3668,0:38.879.207,659.600 us,25 B,,SP,55,Read Transaction,00 00 00 00 00 02 9E 64 00 00 00 00 02 63 64 03 D0 00 00 00 00 00 01 03 00*
0,3669,0:38.887.698,676.800 us,26 B,,SP,55,Write Transaction,14 00 03 15 52 03 BF 89 07 4E 9F 07 00 5D 00 00 00 00 00 00 FF F5 00 65 FC 2E
0,3670,0:38.903.639,116.300 us,3 B,,SP,55,Read Transaction,00 00 18*
0,3671,0:38.908.033,79.100 us,2 B,,SP,55,Write Transaction,00 00
0,3672,0:38.913.382,86.700 us,2 B,,SP,55,Read Transaction,00 08*
0,3673,0:38.913.742,79.100 us,2 B,,SP,55,Write Transaction,12 01
0,3674,0:38.919.109,659.600 us,25 B,,SP,55,Read Transaction,00 00 00 00 00 02 9E 64 00 00 00 00 02 63 64 03 D0 00 00 00 00 00 01 03 00*
0,3675,0:38.927.700,677.000 us,26 B,,SP,55,Write Transaction,14 00 03 16 94 03 C0 C8 07 49 8A 06 FB 52 00 00 00 00 00 00 FF F2 00 65 FC 30
0,3676,0:38.943.639,116.200 us,3 B,,SP,55,Read Transaction,00 00 18*
0,3677,0:38.948.029,79.100 us,2 B,,SP,55,Write Transaction,00 00
0,3678,0:38.953.383,86.900 us,2 B,,SP,55,Read Transaction,00 08*
0,3679,0:38.953.748,79.200 us,2 B,,SP,55,Write Transaction,12 01
0,3680,0:38.959.099,659.600 us,25 B,,SP,55,Read Transaction,00 00 00 00 00 02 9E 64 00 00 00 00 02 63 64 03 D0 00 00 00 00 00 01 03 00*
0,3681,0:38.967.632,676.800 us,26 B,,SP,55,Write Transaction,14 00 03 0B E7 03 B6 B2 07 39 E9 06 F1 D1 00 00 00 00 00 00 FF F7 00 62 FC 2C
0,3682,0:38.983.576,116.300 us,3 B,,SP,55,Read Transaction,00 00 18*
0,3683,0:38.987.974,79.100 us,2 B,,SP,55,Write Transaction,00 00
0,3684,0:38.993.325,86.700 us,2 B,,SP,55,Read Transaction,00 08*
0,3685,0:38.993.687,79.100 us,2 B,,SP,55,Write Transaction,12 01
0,3686,0:38.999.034,659.400 us,25 B,,SP,55,Read Transaction,00 00 00 00 00 02 9E 64 00 00 00 00 02 63 64 03 D0 00 00 00 00 00 01 03 00*
0,3687,0:39.007.604,676.700 us,26 B,,SP,55,Write Transaction,14 00 02 FD 13 03 A9 7D 07 2C 76 06 EB 0F 00 00 00 00 00 00 FF F8 00 65 FC 2F
0,3688,0:39.023.541,116.300 us,3 B,,SP,55,Read Transaction,00 00 18*
0,3689,0:39.027.936,79.100 us,2 B,,SP,55,Write Transaction,00 00
0,3690,0:39.033.285,86.600 us,2 B,,SP,55,Read Transaction,00 08*
0,3691,0:39.033.647,79.000 us,2 B,,SP,55,Write Transaction,12 01
0,3692,0:39.038.997,659.600 us,25 B,,SP,55,Read Transaction,00 00 00 00 00 02 9E 64 00 00 00 00 02 63 64 03 D0 00 00 00 00 00 01 03 00*
0,3693,0:39.047.557,676.300 us,26 B,,SP,55,Write Transaction,14 00 02 F0 C5 03 9F 93 07 25 EC 06 E8 B6 00 00 00 00 00 00 FF F6 00 63 FC 2C
0,3694,0:39.063.497,116.300 us,3 B,,SP,55,Read Transaction,00 00 18*
0,3695,0:39.067.891,79.000 us,2 B,,SP,55,Write Transaction,00 00
0,3696,0:39.073.241,86.600 us,2 B,,SP,55,Read Transaction,00 08*
0,3697,0:39.073.603,79.100 us,2 B,,SP,55,Write Transaction,12 01
0,3698,0:39.078.952,659.600 us,25 B,,SP,55,Read Transaction,00 00 00 00 00 02 9E 64 00 00 00 00 02 63 63 03 D0 E4 00 00 00 00 01 03 00*
0,3699,0:39.087.507,676.900 us,26 B,,SP,55,Write Transaction,14 00 02 E9 E0 03 99 78 07 21 35 06 E5 B2 00 00 00 00 00 00 FF F7 00 62 FC 2A
0,3700,0:39.103.446,116.300 us,3 B,,SP,55,Read Transaction,00 00 18*
0,3701,0:39.107.841,79.100 us,2 B,,SP,55,Write Transaction,00 00
0,3702,0:39.113.191,86.700 us,2 B,,SP,55,Read Transaction,00 08*
0,3703,0:39.113.552,79.100 us,2 B,,SP,55,Write Transaction,12 01
0,3704,0:39.118.901,659.700 us,25 B,,SP,55,Read Transaction,00 00 00 00 00 02 9E 64 00 00 00 00 02 63 63 03 D0 00 01 00 00 00 01 03 00*
0,3705,0:39.127.502,677.300 us,26 B,,SP,55,Write Transaction,14 00 02 E5 8E 03 95 5F 07 20 CA 06 E6 AA 00 00 00 00 00 00 FF F1 00 66 FC 30
0,3706,0:39.143.446,116.500 us,3 B,,SP,55,Read Transaction,00 00 18*
0,3707,0:39.147.839,79.000 us,2 B,,SP,55,Write Transaction,00 00
0,3708,0:39.153.189,86.700 us,2 B,,SP,55,Read Transaction,00 08*
0,3709,0:39.153.552,79.100 us,2 B,,SP,55,Write Transaction,12 01
0,3710,0:39.158.898,659.600 us,25 B,,SP,55,Read Transaction,00 00 00 00 00 02 9E 64 00 00 00 00 02 63 63 03 D0 00 01 00 00 00 01 03 00*
0,3711,0:39.167.415,676.900 us,26 B,,SP,55,Write Transaction,14 00 02 E3 F7 03 94 2B 07 22 5A 06 E8 0E 00 00 00 00 00 00 FF F8 00 65 FC 25
0,3712,0:39.183.353,116.300 us,3 B,,SP,55,Read Transaction,00 00 18*
0,3713,0:39.187.749,79.100 us,2 B,,SP,55,Write Transaction,00 00
0,3714,0:39.193.096,86.700 us,2 B,,SP,55,Read Transaction,00 08*
0,3715,0:39.193.458,79.100 us,2 B,,SP,55,Write Transaction,12 01
0,3716,0:39.198.813,660.500 us,25 B,,SP,55,Read Transaction,00 00 00 00 00 02 9E 64 00 00 00 00 02 63 63 03 D0 00 01 00 00 00 01 03 00*
0,3717,0:39.207.360,677.500 us,26 B,,SP,55,Write Transaction,14 00 02 E6 71 03 96 7C 07 24 FE 06 E8 E0 00 00 00 00 00 00 FF F8 00 63 FC 36
0,3718,0:39.223.300,116.300 us,3 B,,SP,55,Read Transaction,00 00 18*
0,3719,0:39.227.696,79.200 us,2 B,,SP,55,Write Transaction,00 00
0,3720,0:39.233.052,86.700 us,2 B,,SP,55,Read Transaction,00 08*
0,3721,0:39.233.415,79.100 us,2 B,,SP,55,Write Transaction,12 01
0,3722,0:39.238.764,659.600 us,25 B,,SP,55,Read Transaction,00 00 00 00 00 02 9E 64 00 00 00 00 02 63 63 03 D0 00 01 00 00 00 01 03 00*
0,3723,0:39.247.349,676.900 us,26 B,,SP,55,Write Transaction,14 00 02 E9 07 03 98 E8 07 27 F2 06 EA D0 00 00 00 00 00 00 FF F5 00 69 FC 29
0,3724,0:39.263.288,116.300 us,3 B,,SP,55,Read Transaction,00 00 18*
0,3725,0:39.267.683,79.000 us,2 B,,SP,55,Write Transaction,00 00
0,3726,0:39.273.034,86.800 us,2 B,,SP,55,Read Transaction,00 08*
0,3727,0:39.273.399,79.200 us,2 B,,SP,55,Write Transaction,12 01
0,3728,0:39.278.752,659.600 us,25 B,,SP,55,Read Transaction,00 00 00 00 00 02 9E 64 00 00 00 00 02 63 63 03 D0 00 01 00 00 00 01 03 00*
0,3729,0:39.287.260,677.000 us,26 B,,SP,55,Write Transaction,14 00 02 EA B9 03 9A 9A 07 29 9A 06 EB C3 00 00 00 00 00 00 FF F5 00 68 FC 30
0,3730,0:39.303.197,116.400 us,3 B,,SP,55,Read Transaction,00 00 18*
0,3731,0:39.307.589,79.100 us,2 B,,SP,55,Write Transaction,00 00
0,3732,0:39.312.940,86.700 us,2 B,,SP,55,Read Transaction,00 08*
0,3733,0:39.313.302,79.100 us,2 B,,SP,55,Write Transaction,12 01
0,3734,0:39.318.652,659.600 us,25 B,,SP,55,Read Transaction,00 00 00 00 00 02 9E 64 00 00 00 00 02 63 63 03 D0 00 01 00 00 00 01 03 00*
0,3735,0:39.327.266,677.000 us,26 B,,SP,55,Write Transaction,14 00 02 EC E7 03 9C BB 07 2B A3 06 ED 08 00 00 00 00 00 00 FF F3 00 66 FC 2E
0,3736,0:39.343.208,116.400 us,3 B,,SP,55,Read Transaction,00 00 18*
0,3737,0:39.347.605,79.200 us,2 B,,SP,55,Write Transaction,00 00
0,3738,0:39.352.965,86.800 us,2 B,,SP,55,Read Transaction,00 08*
0,3739,0:39.353.328,79.100 us,2 B,,SP,55,Write Transaction,12 01
0,3740,0:39.358.678,659.700 us,25 B,,SP,55,Read Transaction,00 00 00 00 00 02 9E 64 00 00 00 00 02 63 63 03 D0 00 01 00 00 00 01 03 00*
0,3741,0:39.367.158,676.900 us,26 B,,SP,55,Write Transaction,14 00 02 EF 70 03 9F 68 07 2D 57 06 ED A6 00 00 00 00 00 00 FF F7 00 62 FC 2B
0,3742,0:39.383.100,116.300 us,3 B,,SP,55,Read Transaction,00 00 18*
0,3743,0:39.387.492,79.100 us,2 B,,SP,55,Write Transaction,00 00
0,3744,0:39.392.843,86.800 us,2 B,,SP,55,Read Transaction,00 08*
0,3745,0:39.393.205,79.200 us,2 B,,SP,55,Write Transaction,12 01
0,3746,0:39.398.562,659.600 us,25 B,,SP,55,Read Transaction,00 00 00 00 00 02 9E 64 00 00 00 00 02 63 63 03 D0 00 01 00 00 00 01 03 00*
0,3747,0:39.407.178,676.800 us,26 B,,SP,55,Write Transaction,14 00 02 F2 F0 03 A2 C4 07 2F 1B 06 EE 2D 00 00 00 00 00 00 FF F4 00 62 FC 32
0,3748,0:39.423.118,116.100 us,3 B,,SP,55,Read Transaction,00 00 18*
0,3749,0:39.427.510,79.100 us,2 B,,SP,55,Write Transaction,00 00
0,3750,0:39.432.861,86.700 us,2 B,,SP,55,Read Transaction,00 08*
0,3751,0:39.433.223,79.100 us,2 B,,SP,55,Write Transaction,12 01
0,3752,0:39.438.571,659.600 us,25 B,,SP,55,Read Transaction,00 00 00 00 00 02 9E 64 00 00 00 00 02 63 63 03 D0 00 01 00 00 00 01 03 00*
0,3753,0:39.447.055,677.000 us,26 B,,SP,55,Write Transaction,14 00 02 F7 1D 03 A6 BC 07 34 55 06 F1 DB 00 00 00 00 00 00 FF F8 00 65 FC 2D
0,3754,0:39.462.995,116.300 us,3 B,,SP,55,Read Transaction,00 00 18*
0,3755,0:39.467.390,79.000 us,2 B,,SP,55,Write Transaction,00 00
0,3756,0:39.472.738,86.700 us,2 B,,SP,55,Read Transaction,00 08*
0,3757,0:39.473.100,79.000 us,2 B,,SP,55,Write Transaction,12 01
0,3758,0:39.478.450,659.600 us,25 B,,SP,55,Read Transaction,00 00 00 00 00 02 9E 64 00 00 00 00 02 63 63 03 D0 00 01 00 00 00 01 03 00*
0,3759,0:39.487.071,676.700 us,26 B,,SP,55,Write Transaction,14 00 02 FA 94 03 AA 29 07 35 FA 06 F2 26 00 00 00 00 00 00 FF F5 00 67 FC 2F
0,3760,0:39.503.010,116.300 us,3 B,,SP,55,Read Transaction,00 00 18*
0,3761,0:39.507.400,79.000 us,2 B,,SP,55,Write Transaction,00 00
0,3762,0:39.512.750,86.700 us,2 B,,SP,55,Read Transaction,00 08*
0,3763,0:39.513.112,79.200 us,2 B,,SP,55,Write Transaction,12 01
0,3764,0:39.518.466,660.600 us,25 B,,SP,55,Read Transaction,00 00 00 00 00 02 9E 64 24 E8 64 00 02 63 63 03 D0 00 01 00 00 00 01 03 00*
0,3765,0:39.527.011,677.000 us,26 B,,SP,55,Write Transaction,14 00 02 FD B0 03 AD 00 07 38 74 06 F3 D2 00 00 00 00 00 00 FF FC 00 69 FC 2B
0,3766,0:39.542.953,116.300 us,3 B,,SP,55,Read Transaction,00 00 18*
0,3767,0:39.547.347,79.100 us,2 B,,SP,55,Write Transaction,00 00
0,3768,0:39.552.701,86.800 us,2 B,,SP,55,Read Transaction,00 08*
0,3769,0:39.553.064,79.100 us,2 B,,SP,55,Write Transaction,12 01
0,3770,0:39.558.413,659.700 us,25 B,,SP,55,Read Transaction,00 00 00 00 00 02 9E 64 00 00 00 00 02 63 63 03 D0 00 01 00 00 00 01 03 00*
0,3771,0:39.566.975,676.900 us,26 B,,SP,55,Write Transaction,14 00 03 01 31 03 B0 5E 07 3B 55 06 F5 43 00 00 00 00 00 00 FF F3 00 67 FC 2A
0,3772,0:39.582.915,116.400 us,3 B,,SP,55,Read Transaction,00 00 18*
0,3773,0:39.587.308,79.100 us,2 B,,SP,55,Write Transaction,00 00
0,3774,0:39.592.659,86.700 us,2 B,,SP,55,Read Transaction,00 08*
0,3775,0:39.593.022,79.100 us,2 B,,SP,55,Write Transaction,12 01
0,3776,0:39.598.373,659.600 us,25 B,,SP,55,Read Transaction,00 00 00 00 00 02 9E 64 00 00 00 00 02 63 63 03 D0 00 01 00 00 00 01 03 00*
0,3777,0:39.606.925,676.900 us,26 B,,SP,55,Write Transaction,14 00 03 03 E5 03 B2 E7 07 3D 2A 06 F6 5E 00 00 00 00 00 00 FF F0 00 63 FC 32
0,3778,0:39.622.926,116.300 us,3 B,,SP,55,Read Transaction,00 00 18*
0,3779,0:39.627.321,79.000 us,2 B,,SP,55,Write Transaction,00 00
0,3780,0:39.632.672,86.700 us,2 B,,SP,55,Read Transaction,00 08*
0,3781,0:39.633.035,79.100 us,2 B,,SP,55,Write Transaction,12 01
0,3782,0:39.638.384,659.600 us,25 B,,SP,55,Read Transaction,00 00 00 00 00 02 9E 64 00 00 00 00 02 63 63 03 D0 00 01 00 00 00 01 03 00*
0,3783,0:39.646.843,677.900 us,26 B,,SP,55,Write Transaction,14 00 03 06 46 03 B5 58 07 40 30 06 F8 99 00 00 00 00 00 00 FF F7 00 64 FC 31
0,3784,0:39.662.782,116.100 us,3 B,,SP,55,Read Transaction,00 00 18*
0,3785,0:39.667.180,79.000 us,2 B,,SP,55,Write Transaction,00 00
0,3786,0:39.672.529,86.700 us,2 B,,SP,55,Read Transaction,00 08*
0,3787,0:39.672.890,79.100 us,2 B,,SP,55,Write Transaction,12 01
0,3788,0:39.678.239,659.600 us,25 B,,SP,55,Read Transaction,00 00 00 00 00 02 9E 64 00 00 00 00 02 63 63 03 D0 00 01 00 00 00 01 03 00*
0,3789,0:39.686.887,676.800 us,26 B,,SP,55,Write Transaction,14 00 03 08 F3 03 B7 FA 07 42 55 06 F9 8E 00 00 00 00 00 00 FF F2 00 66 FC 30
0,3790,0:39.702.838,116.300 us,3 B,,SP,55,Read Transaction,00 00 18*
0,3791,0:39.707.232,79.100 us,2 B,,SP,55,Write Transaction,00 00
0,3792,0:39.712.582,86.700 us,2 B,,SP,55,Read Transaction,00 08*
0,3793,0:39.712.945,79.100 us,2 B,,SP,55,Write Transaction,12 01
0,3794,0:39.718.293,659.600 us,25 B,,SP,55,Read Transaction,00 00 00 00 00 02 9E 64 00 00 00 00 02 63 63 03 D0 00 01 00 00 00 01 03 00*
0,3795,0:39.726.748,676.900 us,26 B,,SP,55,Write Transaction,14 00 03 0B 2B 03 BA 38 07 43 99 06 FA 17 00 00 00 00 00 00 FF F7 00 64 FC 2E
0,3796,0:39.742.689,116.400 us,3 B,,SP,55,Read Transaction,00 00 18*
0,3797,0:39.747.084,79.000 us,2 B,,SP,55,Write Transaction,00 00
0,3798,0:39.752.433,86.700 us,2 B,,SP,55,Read Transaction,00 08*
0,3799,0:39.752.795,79.000 us,2 B,,SP,55,Write Transaction,12 01
0,3800,0:39.758.151,660.500 us,25 B,,SP,55,Read Transaction,00 00 00 00 00 02 9E 64 00 00 00 00 02 63 63 03 D0 00 01 00 00 00 01 03 00*
0,3801,0:39.766.771,677.800 us,26 B,,SP,55,Write Transaction,14 00 03 0E CC 03 BD B1 07 49 40 06 FE 39 00 00 00 00 00 00 FF F7 00 63 FC 2C
0,3802,0:39.782.715,116.300 us,3 B,,SP,55,Read Transaction,00 00 18*
0,3803,0:39.787.108,79.000 us,2 B,,SP,55,Write Transaction,00 00
0,3804,0:39.792.458,86.700 us,2 B,,SP,55,Read Transaction,00 08*
0,3805,0:39.792.820,79.100 us,2 B,,SP,55,Write Transaction,12 01
0,3806,0:39.798.209,660.600 us,25 B,,SP,55,Read Transaction,00 00 00 00 00 02 9E 64 00 00 00 00 02 63 63 03 D0 00 01 00 00 00 01 03 00*
0,3807,0:39.806.657,677.900 us,26 B,,SP,55,Write Transaction,14 00 03 13 1D 03 C1 97 07 4D 49 06 FF B2 00 00 00 00 00 00 FF F7 00 64 FC 32
0,3808,0:39.822.610,116.300 us,3 B,,SP,55,Read Transaction,00 00 18*
0,3809,0:39.827.005,79.100 us,2 B,,SP,55,Write Transaction,00 00
0,3810,0:39.832.354,86.700 us,2 B,,SP,55,Read Transaction,00 08*
0,3811,0:39.832.715,79.100 us,2 B,,SP,55,Write Transaction,12 01
0,3812,0:39.838.065,659.700 us,25 B,,SP,55,Read Transaction,00 00 00 00 00 02 9E 64 00 00 00 00 02 63 63 03 D0 00 01 00 00 00 01 03 00*
0,3813,0:39.846.650,676.600 us,26 B,,SP,55,Write Transaction,14 00 03 11 17 03 BF D6 07 45 16 06 F9 E7 00 00 00 00 00 00 FF F7 00 61 FC 30
0,3814,0:39.862.591,116.300 us,3 B,,SP,55,Read Transaction,00 00 18*
0,3815,0:39.866.984,79.000 us,2 B,,SP,55,Write Transaction,00 00
0,3816,0:39.872.337,86.800 us,2 B,,SP,55,Read Transaction,00 08*
0,3817,0:39.872.700,79.000 us,2 B,,SP,55,Write Transaction,12 01
0,3818,0:39.878.050,659.600 us,25 B,,SP,55,Read Transaction,00 00 00 00 00 02 9E 64 00 00 00 00 02 63 63 03 D0 00 01 00 00 00 01 03 00*
0,3819,0:39.886.602,676.900 us,26 B,,SP,55,Write Transaction,14 00 03 03 C3 03 B2 C4 07 38 97 06 F4 20 00 00 00 00 00 00 FF F5 00 65 FC 30
0,3820,0:39.902.541,116.200 us,3 B,,SP,55,Read Transaction,00 00 18*
0,3821,0:39.906.934,79.100 us,2 B,,SP,55,Write Transaction,00 00
0,3822,0:39.912.285,86.800 us,2 B,,SP,55,Read Transaction,00 08*
0,3823,0:39.912.647,79.100 us,2 B,,SP,55,Write Transaction,12 01
0,3824,0:39.917.996,659.600 us,25 B,,SP,55,Read Transaction,00 00 00 00 00 02 9E 64 00 00 00 00 02 63 63 03 D0 00 01 00 00 00 01 03 00*
0,3825,0:39.926.543,676.800 us,26 B,,SP,55,Write Transaction,14 00 02 F5 BD 03 A6 B5 07 2D F4 06 EE 6B 00 00 00 00 00 00 FF F5 00 65 FC 2B
0,3826,0:39.942.489,116.500 us,3 B,,SP,55,Read Transaction,00 00 18*
0,3827,0:39.946.883,79.100 us,2 B,,SP,55,Write Transaction,00 00
0,3828,0:39.952.233,86.700 us,2 B,,SP,55,Read Transaction,00 08*
0,3829,0:39.952.595,79.100 us,2 B,,SP,55,Write Transaction,12 01
0,3830,0:39.957.946,659.600 us,25 B,,SP,55,Read Transaction,00 00 00 00 00 02 9E 64 00 00 00 00 02 63 63 03 D0 00 01 00 00 00 01 03 00*
0,3831,0:39.966.508,676.900 us,26 B,,SP,55,Write Transaction,14 00 02 ED FA 03 9F 9B 07 28 AB 06 EB 54 00 00 00 00 00 00 FF F7 00 66 FC 2D
0,3832,0:39.982.452,116.300 us,3 B,,SP,55,Read Transaction,00 00 18*
0,3833,0:39.986.844,79.100 us,2 B,,SP,55,Write Transaction,00 00
0,3834,0:39.992.199,86.800 us,2 B,,SP,55,Read Transaction,00 08*
0,3835,0:39.992.562,79.200 us,2 B,,SP,55,Write Transaction,12 01
0,3836,0:39.997.917,659.500 us,25 B,,SP,55,Read Transaction,00 00 00 00 00 02 9E 64 00 00 00 00 02 63 63 03 D0 00 01 00 00 00 01 03 00*
0,3837,0:40.006.464,676.800 us,26 B,,SP,55,Write Transaction,14 00 02 E9 30 03 9A D3 07 25 2B 06 E9 6A 00 00 00 00 00 00 FF F5 00 67 FC 2B
0,3838,0:40.022.405,116.200 us,3 B,,SP,55,Read Transaction,00 00 18*
0,3839,0:40.026.799,79.100 us,2 B,,SP,55,Write Transaction,00 00
0,3840,0:40.032.149,86.800 us,2 B,,SP,55,Read Transaction,00 08*
0,3841,0:40.032.511,79.100 us,2 B,,SP,55,Write Transaction,12 01
0,3842,0:40.037.867,659.600 us,25 B,,SP,55,Read Transaction,00 00 00 00 00 02 9E 64 00 00 00 00 02 63 63 03 D0 00 01 00 00 00 01 03 00*
0,3843,0:40.046.464,676.900 us,26 B,,SP,55,Write Transaction,14 00 02 E5 7B 03 96 EF 07 23 6B 06 E8 75 00 00 00 00 00 00 FF F2 00 63 FC 26
0,3844,0:40.062.403,116.300 us,3 B,,SP,55,Read Transaction,00 00 18*
0,3845,0:40.066.796,79.200 us,2 B,,SP,55,Write Transaction,00 00
0,3846,0:40.072.152,86.700 us,2 B,,SP,55,Read Transaction,00 08*
0,3847,0:40.072.515,79.100 us,2 B,,SP,55,Write Transaction,12 01
0,3848,0:40.077.864,659.600 us,25 B,,SP,55,Read Transaction,00 00 00 00 00 02 9E 64 00 00 00 00 02 63 63 03 D0 E4 01 00 00 00 01 03 00*
0,3849,0:40.086.366,676.900 us,26 B,,SP,55,Write Transaction,14 00 02 E6 75 03 97 75 07 26 2B 06 E9 E7 00 00 00 00 00 00 FF F5 00 64 FC 2F
0,3850,0:40.102.310,116.100 us,3 B,,SP,55,Read Transaction,00 00 18*
0,3851,0:40.106.704,79.100 us,2 B,,SP,55,Write Transaction,00 00
0,3852,0:40.112.053,86.700 us,2 B,,SP,55,Read Transaction,00 08*
0,3853,0:40.112.415,79.000 us,2 B,,SP,55,Write Transaction,12 01
0,3854,0:40.117.765,659.600 us,25 B,,SP,55,Read Transaction,00 00 00 00 00 02 9E 64 00 00 00 00 02 63 63 03 D0 00 01 00 00 00 01 03 00*
0,3855,0:40.126.304,676.800 us,26 B,,SP,55,Write Transaction,14 00 02 E8 44 03 99 05 07 29 44 06 EB D1 00 00 00 00 00 00 FF F9 00 66 FC 2D
0,3856,0:40.142.251,116.300 us,3 B,,SP,55,Read Transaction,00 00 18*
0,3857,0:40.146.644,79.100 us,2 B,,SP,55,Write Transaction,00 00
0,3858,0:40.151.994,86.800 us,2 B,,SP,55,Read Transaction,00 08*
0,3859,0:40.152.356,79.100 us,2 B,,SP,55,Write Transaction,12 01
0,3860,0:40.157.706,659.600 us,25 B,,SP,55,Read Transaction,00 00 00 00 00 02 9E 64 00 00 00 00 02 63 63 03 D0 00 01 00 00 00 01 03 00*
0,3861,0:40.166.317,676.900 us,26 B,,SP,55,Write Transaction,14 00 02 E8 BF 03 99 7A 07 2B 48 06 ED 9B 00 00 00 00 00 00 FF F4 00 62 FC 2D
0,3862,0:40.182.257,116.300 us,3 B,,SP,55,Read Transaction,00 00 18*
0,3863,0:40.186.650,79.100 us,2 B,,SP,55,Write Transaction,00 00
0,3864,0:40.192.011,86.800 us,2 B,,SP,55,Read Transaction,00 08*
0,3865,0:40.192.375,79.200 us,2 B,,SP,55,Write Transaction,12 01
0,3866,0:40.197.724,659.600 us,25 B,,SP,55,Read Transaction,00 00 00 00 00 02 9E 64 00 00 00 00 02 63 63 03 D0 00 01 00 00 00 01 03 00*
0,3867,0:40.206.204,676.900 us,26 B,,SP,55,Write Transaction,14 00 02 E8 47 03 99 2C 07 2A 8C 06 EC F0 00 00 00 00 00 00 FF F7 00 66 FC 30
0,3868,0:40.222.144,116.300 us,3 B,,SP,55,Read Transaction,00 00 18*
0,3869,0:40.226.536,79.000 us,2 B,,SP,55,Write Transaction,00 00
0,3870,0:40.231.888,86.800 us,2 B,,SP,55,Read Transaction,00 08*
0,3871,0:40.232.250,79.000 us,2 B,,SP,55,Write Transaction,12 01
0,3872,0:40.237.600,659.600 us,25 B,,SP,55,Read Transaction,00 00 00 00 00 02 9E 64 00 00 00 00 02 63 63 03 D0 00 01 00 00 00 01 03 00*
0,3873,0:40.246.226,676.900 us,26 B,,SP,55,Write Transaction,14 00 02 E9 97 03 9A 79 07 2C 66 06 EE 33 00 00 00 00 00 00 FF F3 00 63 FC 29
0,3874,0:40.262.166,116.300 us,3 B,,SP,55,Read Transaction,00 00 18*
0,3875,0:40.266.557,79.100 us,2 B,,SP,55,Write Transaction,00 00
0,3876,0:40.271.908,86.900 us,2 B,,SP,55,Read Transaction,00 08*
0,3877,0:40.272.271,79.200 us,2 B,,SP,55,Write Transaction,12 01
0,3878,0:40.277.623,659.600 us,25 B,,SP,55,Read Transaction,00 00 00 00 00 02 9E 64 00 00 00 00 02 63 63 03 D0 00 01 00 00 00 01 03 00*
0,3879,0:40.286.126,676.900 us,26 B,,SP,55,Write Transaction,14 00 02 EC 13 03 9C F1 07 2D AC 06 EE 30 00 00 00 00 00 00 FF F4 00 61 FC 2E
0,3880,0:40.302.066,116.400 us,3 B,,SP,55,Read Transaction,00 00 18*
0,3881,0:40.306.459,79.100 us,2 B,,SP,55,Write Transaction,00 00
0,3882,0:40.311.809,86.700 us,2 B,,SP,55,Read Transaction,00 08*
0,3883,0:40.312.171,79.100 us,2 B,,SP,55,Write Transaction,12 01
0,3884,0:40.317.520,659.700 us,25 B,,SP,55,Read Transaction,00 00 00 00 00 02 9E 64 00 00 00 00 02 63 63 03 D0 00 01 00 00 00 01 03 00*
0,3885,0:40.326.126,676.900 us,26 B,,SP,55,Write Transaction,14 00 02 EE CA 03 9F 68 07 30 86 06 F0 30 00 00 00 00 00 00 FF F3 00 62 FC 2F
0,3886,0:40.342.067,116.300 us,3 B,,SP,55,Read Transaction,00 00 18*
0,3887,0:40.346.457,79.000 us,2 B,,SP,55,Write Transaction,00 00
0,3888,0:40.351.809,86.700 us,2 B,,SP,55,Read Transaction,00 08*
0,3889,0:40.352.171,79.100 us,2 B,,SP,55,Write Transaction,12 01
0,3890,0:40.357.519,660.600 us,25 B,,SP,55,Read Transaction,00 00 00 00 00 02 9E 64 00 00 00 00 02 63 63 03 D0 00 01 00 00 00 01 03 00*
0,3891,0:40.366.031,677.000 us,26 B,,SP,55,Write Transaction,14 00 02 F1 A5 03 A2 5B 07 34 A4 06 F3 05 00 00 00 00 00 00 FF F4 00 64 FC 2E
0,3892,0:40.381.972,116.300 us,3 B,,SP,55,Read Transaction,00 00 18*
0,3893,0:40.386.366,79.100 us,2 B,,SP,55,Write Transaction,00 00
0,3894,0:40.391.715,86.700 us,2 B,,SP,55,Read Transaction,00 08*
0,3895,0:40.392.077,79.000 us,2 B,,SP,55,Write Transaction,12 01
0,3896,0:40.397.427,659.500 us,25 B,,SP,55,Read Transaction,00 00 00 00 00 02 9E 64 22 FB 64 00 02 63 63 03 D0 00 01 00 00 00 01 03 00*
0,3897,0:40.406.011,676.900 us,26 B,,SP,55,Write Transaction,14 00 02 F4 92 03 A5 36 07 36 25 06 F3 5F 00 00 00 00 00 00 FF F3 00 67 FC 2D
0,3898,0:40.421.950,116.300 us,3 B,,SP,55,Read Transaction,00 00 18*
0,3899,0:40.426.341,79.000 us,2 B,,SP,55,Write Transaction,00 00
0,3900,0:40.431.690,86.700 us,2 B,,SP,55,Read Transaction,00 08*
0,3901,0:40.432.053,79.000 us,2 B,,SP,55,Write Transaction,12 01
0,3902,0:40.437.402,659.600 us,25 B,,SP,55,Read Transaction,00 00 00 00 00 02 9E 64 00 00 00 00 02 63 63 03 D0 00 01 00 00 00 01 03 00*
0,3903,0:40.445.983,677.000 us,26 B,,SP,55,Write Transaction,14 00 02 F6 B5 03 A7 3B 07 36 B6 06 F3 67 00 00 00 00 00 00 FF F1 00 65 FC 2D
0,3904,0:40.461.924,116.200 us,3 B,,SP,55,Read Transaction,00 00 18*
0,3905,0:40.466.320,79.200 us,2 B,,SP,55,Write Transaction,00 00
0,3906,0:40.471.676,86.700 us,2 B,,SP,55,Read Transaction,00 08*
0,3907,0:40.472.038,79.100 us,2 B,,SP,55,Write Transaction,12 01
0,3908,0:40.477.389,659.600 us,25 B,,SP,55,Read Transaction,00 00 00 00 00 02 9E 64 00 00 00 00 02 63 63 03 D0 00 01 00 00 00 01 03 00*
0,3909,0:40.485.928,676.800 us,26 B,,SP,55,Write Transaction,14 00 02 F9 D3 03 AA 45 07 39 53 06 F4 CE 00 00 00 00 00 00 FF F7 00 61 FC 34
0,3910,0:40.501.866,116.300 us,3 B,,SP,55,Read Transaction,00 00 18*
0,3911,0:40.506.258,79.100 us,2 B,,SP,55,Write Transaction,00 00
0,3912,0:40.511.609,86.700 us,2 B,,SP,55,Read Transaction,00 08*
0,3913,0:40.511.972,79.000 us,2 B,,SP,55,Write Transaction,12 01
0,3914,0:40.517.322,659.500 us,25 B,,SP,55,Read Transaction,00 00 00 00 00 02 9E 64 00 00 00 00 02 63 63 03 D0 00 01 00 00 00 01 03 00*
0,3915,0:40.525.869,677.000 us,26 B,,SP,55,Write Transaction,14 00 02 FC 30 03 AC 8B 07 3A 88 06 F5 62 00 00 00 00 00 00 FF F4 00 62 FC 2F
0,3916,0:40.541.817,116.300 us,3 B,,SP,55,Read Transaction,00 00 18*
0,3917,0:40.546.211,79.100 us,2 B,,SP,55,Write Transaction,00 00
0,3918,0:40.551.564,86.700 us,2 B,,SP,55,Read Transaction,00 08*
0,3919,0:40.551.927,79.000 us,2 B,,SP,55,Write Transaction,12 01
0,3920,0:40.557.275,659.600 us,25 B,,SP,55,Read Transaction,00 00 00 00 00 02 9E 64 00 00 00 00 02 63 63 03 D0 00 01 00 00 00 01 03 00*
0,3921,0:40.565.832,676.900 us,26 B,,SP,55,Write Transaction,14 00 02 FF 1D 03 AF 96 07 3D A9 06 F7 73 00 00 00 00 00 00 FF F5 00 64 FC 30
0,3922,0:40.581.778,116.300 us,3 B,,SP,55,Read Transaction,00 00 18*
0,3923,0:40.586.171,79.100 us,2 B,,SP,55,Write Transaction,00 00
0,3924,0:40.591.519,86.700 us,2 B,,SP,55,Read Transaction,00 08*
0,3925,0:40.591.881,79.000 us,2 B,,SP,55,Write Transaction,12 01
0,3926,0:40.597.230,659.600 us,25 B,,SP,55,Read Transaction,00 00 00 00 00 02 9E 64 00 00 00 00 02 63 63 03 D0 00 01 00 00 00 01 03 00*
0,3927,0:40.605.797,676.700 us,26 B,,SP,55,Write Transaction,14 00 03 02 80 03 B2 F3 07 40 2F 06 F8 BC 00 00 00 00 00 00 FF F9 00 64 FC 2F
0,3928,0:40.621.734,116.300 us,3 B,,SP,55,Read Transaction,00 00 18*
0,3929,0:40.626.127,79.100 us,2 B,,SP,55,Write Transaction,00 00
0,3930,0:40.631.478,86.800 us,2 B,,SP,55,Read Transaction,00 08*
0,3931,0:40.631.841,79.200 us,2 B,,SP,55,Write Transaction,12 01
0,3932,0:40.637.191,659.600 us,25 B,,SP,55,Read Transaction,00 00 00 00 00 02 9E 64 00 00 00 00 02 63 63 03 D0 00 01 00 00 00 01 03 00*
0,3933,0:40.645.738,676.800 us,26 B,,SP,55,Write Transaction,14 00 03 05 B6 03 B6 25 07 42 DA 06 FA 53 00 00 00 00 00 00 FF F3 00 63 FC 29
0,3934,0:40.661.677,116.300 us,3 B,,SP,55,Read Transaction,00 00 18*
0,3935,0:40.666.073,79.000 us,2 B,,SP,55,Write Transaction,00 00
0,3936,0:40.671.422,86.700 us,2 B,,SP,55,Read Transaction,00 08*
0,3937,0:40.671.783,79.000 us,2 B,,SP,55,Write Transaction,12 01
0,3938,0:40.677.139,659.500 us,25 B,,SP,55,Read Transaction,00 00 00 00 00 02 9E 64 00 00 00 00 02 63 63 03 D0 00 01 00 00 00 01 03 00*
0,3939,0:40.685.701,676.800 us,26 B,,SP,55,Write Transaction,14 00 03 09 D4 03 BA 4A 07 45 DB 06 FB 68 00 00 00 00 00 00 FF F2 00 64 FC 2D
0,3940,0:40.701.638,116.300 us,3 B,,SP,55,Read Transaction,00 00 18*
0,3941,0:40.706.030,79.100 us,2 B,,SP,55,Write Transaction,00 00
0,3942,0:40.711.387,86.800 us,2 B,,SP,55,Read Transaction,00 08*
0,3943,0:40.711.750,79.100 us,2 B,,SP,55,Write Transaction,12 01
0,3944,0:40.717.101,659.400 us,25 B,,SP,55,Read Transaction,00 00 00 00 00 02 9E 64 00 00 00 00 02 63 63 03 D0 00 01 00 00 00 01 03 00*
0,3945,0:40.725.671,676.900 us,26 B,,SP,55,Write Transaction,14 00 03 09 97 03 BA 12 07 41 DC 06 F8 8B 00 00 00 00 00 00 FF F5 00 64 FC 30
0,3946,0:40.741.613,116.300 us,3 B,,SP,55,Read Transaction,00 00 18*
0,3947,0:40.746.005,79.100 us,2 B,,SP,55,Write Transaction,00 00
0,3948,0:40.751.355,86.600 us,2 B,,SP,55,Read Transaction,00 08*
0,3949,0:40.751.715,79.100 us,2 B,,SP,55,Write Transaction,12 01
0,3950,0:40.757.067,659.600 us,25 B,,SP,55,Read Transaction,00 00 00 00 00 02 9E 64 00 00 00 00 02 63 63 03 D0 00 01 00 00 00 01 03 00*
0,3951,0:40.765.582,676.900 us,26 B,,SP,55,Write Transaction,14 00 02 FD 81 03 AE 69 07 36 BD 06 F3 02 00 00 00 00 00 00 FF F0 00 67 FC 2D
0,3952,0:40.781.520,116.400 us,3 B,,SP,55,Read Transaction,00 00 18*
0,3953,0:40.785.913,79.000 us,2 B,,SP,55,Write Transaction,00 00
0,3954,0:40.791.266,86.800 us,2 B,,SP,55,Read Transaction,00 08*
0,3955,0:40.791.629,79.100 us,2 B,,SP,55,Write Transaction,12 01
0,3956,0:40.796.982,659.700 us,25 B,,SP,55,Read Transaction,00 00 00 00 00 02 9E 64 00 00 00 00 02 63 63 03 D0 00 01 00 00 00 01 03 00*
0,3957,0:40.805.602,676.900 us,26 B,,SP,55,Write Transaction,14 00 02 EF 3A 03 A0 F9 07 2B 6B 06 EC D2 00 00 00 00 00 00 FF F8 00 5C FC 30
0,3958,0:40.821.546,116.300 us,3 B,,SP,55,Read Transaction,00 00 18*
0,3959,0:40.825.942,79.100 us,2 B,,SP,55,Write Transaction,00 00
0,3960,0:40.831.293,86.700 us,2 B,,SP,55,Read Transaction,00 08*
0,3961,0:40.831.655,79.100 us,2 B,,SP,55,Write Transaction,12 01
0,3962,0:40.837.004,659.700 us,25 B,,SP,55,Read Transaction,00 00 00 00 00 02 9E 64 00 00 00 00 02 63 63 03 D0 00 01 00 00 00 01 03 00*
0,3963,0:40.845.488,677.900 us,26 B,,SP,55,Write Transaction,14 00 02 E5 C7 03 97 78 07 25 FD 06 E9 EA 00 00 00 00 00 00 FF F5 00 63 FC 2E
0,3964,0:40.861.432,116.300 us,3 B,,SP,55,Read Transaction,00 00 18*
0,3965,0:40.865.854,79.100 us,2 B,,SP,55,Write Transaction,00 00
0,3966,0:40.871.204,86.700 us,2 B,,SP,55,Read Transaction,00 08*
0,3967,0:40.871.565,79.100 us,2 B,,SP,55,Write Transaction,12 01
0,3968,0:40.876.916,659.600 us,25 B,,SP,55,Read Transaction,00 00 00 00 00 02 9E 64 00 00 00 00 02 63 63 03 D0 00 01 00 00 00 01 03 00*
0,3969,0:40.885.532,676.900 us,26 B,,SP,55,Write Transaction,14 00 02 E0 C9 03 92 11 07 25 18 06 E9 EF 00 00 00 00 00 00 FF F5 00 61 FC 31
0,3970,0:40.901.472,116.300 us,3 B,,SP,55,Read Transaction,00 00 18*
0,3971,0:40.905.865,79.100 us,2 B,,SP,55,Write Transaction,00 00
0,3972,0:40.911.217,86.800 us,2 B,,SP,55,Read Transaction,00 08*
0,3973,0:40.911.579,79.100 us,2 B,,SP,55,Write Transaction,12 01
0,3974,0:40.916.927,659.700 us,25 B,,SP,55,Read Transaction,00 00 00 00 00 02 9E 64 00 00 00 00 02 63 63 03 D0 00 01 00 00 00 01 03 00*
0,3975,0:40.925.425,676.900 us,26 B,,SP,55,Write Transaction,14 00 02 DD C0 03 8E 97 07 23 F5 06 E9 26 00 00 00 00 00 00 FF F5 00 63 FC 2E
0,3976,0:40.941.364,116.300 us,3 B,,SP,55,Read Transaction,00 00 18*
0,3977,0:40.945.756,79.000 us,2 B,,SP,55,Write Transaction,00 00
0,3978,0:40.951.104,86.700 us,2 B,,SP,55,Read Transaction,00 08*
0,3979,0:40.951.466,79.000 us,2 B,,SP,55,Write Transaction,12 01
0,3980,0:40.956.815,659.600 us,25 B,,SP,55,Read Transaction,00 00 00 00 00 02 9E 64 00 00 00 00 02 63 63 03 D0 00 01 00 00 00 01 03 00*
0,3981,0:40.965.393,676.800 us,26 B,,SP,55,Write Transaction,14 00 02 DD F8 03 8E 75 07 25 4B 06 E9 A0 00 00 00 00 00 00 FF F4 00 62 FC 2F
0,3982,0:40.981.338,116.300 us,3 B,,SP,55,Read Transaction,00 00 18*
0,3983,0:40.985.729,79.100 us,2 B,,SP,55,Write Transaction,00 00
0,3984,0:40.991.081,86.800 us,2 B,,SP,55,Read Transaction,00 08*
0,3985,0:40.991.444,79.200 us,2 B,,SP,55,Write Transaction,12 01
0,3986,0:40.996.858,659.600 us,25 B,,SP,55,Read Transaction,00 00 00 00 00 02 9E 64 00 00 00 00 02 63 63 03 D0 00 01 00 00 00 01 03 00*
0,3987,0:41.005.382,676.600 us,26 B,,SP,55,Write Transaction,14 00 02 DF 87 03 8F CB 07 27 45 06 EA B1 00 00 00 00 00 00 FF F1 00 63 FC 32
0,3988,0:41.021.326,116.200 us,3 B,,SP,55,Read Transaction,00 00 18*
0,3989,0:41.025.720,79.000 us,2 B,,SP,55,Write Transaction,00 00
0,3990,0:41.031.072,86.800 us,2 B,,SP,55,Read Transaction,00 08*
0,3991,0:41.031.434,79.200 us,2 B,,SP,55,Write Transaction,12 01
0,3992,0:41.036.788,659.500 us,25 B,,SP,55,Read Transaction,00 00 00 00 00 02 9E 64 00 00 00 00 02 63 63 03 D0 00 01 00 00 00 01 03 00*
0,3993,0:41.045.313,676.700 us,26 B,,SP,55,Write Transaction,14 00 02 E0 01 03 90 18 07 28 23 06 EB 31 00 00 00 00 00 00 FF F3 00 63 FC 2C
0,3994,0:41.061.254,116.300 us,3 B,,SP,55,Read Transaction,00 00 18*
0,3995,0:41.065.646,79.100 us,2 B,,SP,55,Write Transaction,00 00
0,3996,0:41.070.997,86.700 us,2 B,,SP,55,Read Transaction,00 08*
0,3997,0:41.071.360,79.000 us,2 B,,SP,55,Write Transaction,12 01
0,3998,0:41.076.709,659.600 us,25 B,,SP,55,Read Transaction,00 00 00 00 00 02 9E 64 00 00 00 00 02 63 63 03 D0 E4 01 00 00 00 01 03 00*
0,3999,0:41.085.302,676.900 us,26 B,,SP,55,Write Transaction,14 00 02 E0 90 03 90 70 07 2A 08 06 EC A1 00 00 00 00 00 00 FF F5 00 61 FC 30
0,4000,0:41.101.243,116.300 us,3 B,,SP,55,Read Transaction,00 00 18*
0,4001,0:41.105.638,79.000 us,2 B,,SP,55,Write Transaction,00 00
0,4002,0:41.110.990,86.700 us,2 B,,SP,55,Read Transaction,00 08*
0,4003,0:41.111.353,79.000 us,2 B,,SP,55,Write Transaction,12 01
0,4004,0:41.116.700,659.700 us,25 B,,SP,55,Read Transaction,00 00 00 00 00 02 9E 64 00 00 00 00 02 63 63 03 D0 00 01 00 00 00 01 03 00*
0,4005,0:41.125.197,677.000 us,26 B,,SP,55,Write Transaction,14 00 02 E2 EF 03 92 9E 07 2B 34 06 EC 8D 00 00 00 00 00 00 FF F1 00 68 FC 2E
0,4006,0:41.141.144,116.300 us,3 B,,SP,55,Read Transaction,00 00 18*
0,4007,0:41.145.536,79.100 us,2 B,,SP,55,Write Transaction,00 00
0,4008,0:41.150.888,86.800 us,2 B,,SP,55,Read Transaction,00 08*
0,4009,0:41.151.251,79.100 us,2 B,,SP,55,Write Transaction,12 01
0,4010,0:41.156.602,660.100 us,25 B,,SP,55,Read Transaction,00 00 00 00 00 02 9E 64 00 00 00 00 02 63 63 03 D0 00 01 00 00 00 01 03 00*
0,4011,0:41.165.226,677.000 us,26 B,,SP,55,Write Transaction,14 00 02 E6 62 03 95 98 07 2D E0 06 EE 20 00 00 00 00 00 00 FF F2 00 64 FC 2D
0,4012,0:41.181.168,116.300 us,3 B,,SP,55,Read Transaction,00 00 18*
0,4013,0:41.185.562,79.100 us,2 B,,SP,55,Write Transaction,00 00
0,4014,0:41.190.913,86.800 us,2 B,,SP,55,Read Transaction,00 08*
0,4015,0:41.191.276,79.100 us,2 B,,SP,55,Write Transaction,12 01
0,4016,0:41.196.624,659.600 us,25 B,,SP,55,Read Transaction,00 00 00 00 00 02 9E 64 00 00 00 00 02 63 63 03 D0 00 01 00 00 00 01 03 00*
0,4017,0:41.205.094,676.900 us,26 B,,SP,55,Write Transaction,14 00 02 EA 13 03 99 1F 07 32 74 06 F1 5A 00 00 00 00 00 00 FF F7 00 65 FC 32
0,4018,0:41.221.033,116.300 us,3 B,,SP,55,Read Transaction,00 00 18*
0,4019,0:41.225.427,79.100 us,2 B,,SP,55,Write Transaction,00 00
0,4020,0:41.230.780,86.800 us,2 B,,SP,55,Read Transaction,00 08*
0,4021,0:41.231.142,79.200 us,2 B,,SP,55,Write Transaction,12 01
0,4022,0:41.236.493,660.300 us,25 B,,SP,55,Read Transaction,00 00 00 00 00 02 9E 64 00 00 00 00 02 63 63 03 D0 00 01 00 00 00 01 03 00*
0,4023,0:41.245.107,676.900 us,26 B,,SP,55,Write Transaction,14 00 02 ED A7 03 9C CD 07 35 BE 06 F3 64 00 00 00 00 00 00 FF F2 00 61 FC 30
0,4024,0:41.261.048,116.200 us,3 B,,SP,55,Read Transaction,00 00 18*
0,4025,0:41.265.441,79.100 us,2 B,,SP,55,Write Transaction,00 00
0,4026,0:41.270.792,86.700 us,2 B,,SP,55,Read Transaction,00 08*
0,4027,0:41.271.155,79.100 us,2 B,,SP,55,Write Transaction,12 01
0,4028,0:41.276.505,659.600 us,25 B,,SP,55,Read Transaction,00 00 00 00 00 02 9E 64 00 00 00 00 02 63 63 03 D0 00 01 00 00 00 01 03 00*
0,4029,0:41.285.003,676.900 us,26 B,,SP,55,Write Transaction,14 00 02 F1 89 03 A0 B8 07 3A E8 06 F7 2F 00 00 00 00 00 00 FF F3 00 64 FC 30
0,4030,0:41.300.945,116.300 us,3 B,,SP,55,Read Transaction,00 00 18*
0,4031,0:41.305.341,79.100 us,2 B,,SP,55,Write Transaction,00 00
0,4032,0:41.310.691,86.800 us,2 B,,SP,55,Read Transaction,00 08*
0,4033,0:41.311.053,79.200 us,2 B,,SP,55,Write Transaction,12 01
0,4034,0:41.316.409,659.600 us,25 B,,SP,55,Read Transaction,00 00 00 00 00 02 9E 64 21 F4 64 00 02 63 63 03 D0 00 01 00 00 00 01 03 00*
0,4035,0:41.325.026,677.100 us,26 B,,SP,55,Write Transaction,14 00 02 F5 A2 03 A4 D4 07 3E 0D 06 F8 70 00 00 00 00 00 00 FF F5 00 61 FC 2A
0,4036,0:41.340.981,116.500 us,3 B,,SP,55,Read Transaction,00 00 18*
0,4037,0:41.345.374,79.100 us,2 B,,SP,55,Write Transaction,00 00
0,4038,0:41.350.726,86.800 us,2 B,,SP,55,Read Transaction,00 08*
0,4039,0:41.351.088,79.100 us,2 B,,SP,55,Write Transaction,12 01
0,4040,0:41.356.443,660.400 us,25 B,,SP,55,Read Transaction,00 00 00 00 00 02 9E 64 00 00 00 00 02 63 63 03 D0 00 01 00 00 00 01 03 00*
0,4041,0:41.364.968,676.900 us,26 B,,SP,55,Write Transaction,14 00 02 F9 96 03 A8 A6 07 40 A4 06 FA 23 00 00 00 00 00 00 FF F3 00 65 FC 2B
0,4042,0:41.380.913,116.300 us,3 B,,SP,55,Read Transaction,00 00 18*
0,4043,0:41.385.306,79.000 us,2 B,,SP,55,Write Transaction,00 00
0,4044,0:41.390.678,86.700 us,2 B,,SP,55,Read Transaction,00 08*
0,4045,0:41.391.042,79.100 us,2 B,,SP,55,Write Transaction,12 01
0,4046,0:41.396.389,659.600 us,25 B,,SP,55,Read Transaction,00 00 00 00 00 02 9E 64 00 00 00 00 02 63 63 03 D0 00 01 00 00 00 01 03 00*
0,4047,0:41.404.910,676.900 us,26 B,,SP,55,Write Transaction,14 00 02 FC AD 03 AB CD 07 42 B1 06 FA F9 00 00 00 00 00 00 FF F1 00 5E FC 2D
0,4048,0:41.420.850,116.300 us,3 B,,SP,55,Read Transaction,00 00 18*
0,4049,0:41.425.242,79.100 us,2 B,,SP,55,Write Transaction,00 00
0,4050,0:41.430.593,86.700 us,2 B,,SP,55,Read Transaction,00 08*
0,4051,0:41.430.956,79.000 us,2 B,,SP,55,Write Transaction,12 01
0,4052,0:41.436.310,659.700 us,25 B,,SP,55,Read Transaction,00 00 00 00 00 02 9E 64 00 00 00 00 02 63 63 03 D0 00 01 00 00 00 01 03 00*
0,4053,0:41.444.894,676.900 us,26 B,,SP,55,Write Transaction,14 00 02 FF D4 03 AE F0 07 44 EC 06 FC 75 00 00 00 00 00 00 FF F1 00 60 FC 30
0,4054,0:41.460.861,116.300 us,3 B,,SP,55,Read Transaction,00 00 18*
0,4055,0:41.465.253,79.000 us,2 B,,SP,55,Write Transaction,00 00
0,4056,0:41.470.605,86.700 us,2 B,,SP,55,Read Transaction,00 08*
0,4057,0:41.470.967,79.100 us,2 B,,SP,55,Write Transaction,12 01
0,4058,0:41.476.315,659.500 us,25 B,,SP,55,Read Transaction,00 00 00 00 00 02 9E 64 00 00 00 00 02 63 63 03 D0 00 01 00 00 00 01 03 00*
0,4059,0:41.484.815,676.900 us,26 B,,SP,55,Write Transaction,14 00 03 02 A2 03 B1 FD 07 48 BB 06 FF 3B 00 00 00 00 00 00 FF F4 00 63 FC 2B
0,4060,0:41.500.763,116.300 us,3 B,,SP,55,Read Transaction,00 00 18*
0,4061,0:41.505.157,79.100 us,2 B,,SP,55,Write Transaction,00 00
0,4062,0:41.510.506,86.700 us,2 B,,SP,55,Read Transaction,00 08*
0,4063,0:41.510.868,79.100 us,2 B,,SP,55,Write Transaction,12 01
0,4064,0:41.516.219,659.600 us,25 B,,SP,55,Read Transaction,00 00 00 00 00 02 9E 64 00 00 00 00 02 63 63 03 D0 00 01 00 00 00 01 03 00*
0,4065,0:41.524.786,678.000 us,26 B,,SP,55,Write Transaction,14 00 03 05 BB 03 B5 43 07 4A 96 06 FF A4 00 00 00 00 00 00 FF F5 00 66 FC 2C
0,4066,0:41.540.741,116.300 us,3 B,,SP,55,Read Transaction,00 00 18*
0,4067,0:41.545.133,79.000 us,2 B,,SP,55,Write Transaction,00 00
0,4068,0:41.550.485,86.700 us,2 B,,SP,55,Read Transaction,00 08*
0,4069,0:41.550.848,79.100 us,2 B,,SP,55,Write Transaction,12 01
0,4070,0:41.556.197,664.100 us,25 B,,SP,55,Read Transaction,00 00 00 00 00 02 9E 64 00 00 00 00 02 63 63 03 D0 00 01 00 00 00 01 03 00*
0,4071,0:41.564.742,678.000 us,26 B,,SP,55,Write Transaction,14 00 03 09 C1 03 B9 59 07 4D 93 07 01 1C 00 00 00 00 00 00 FF F6 00 63 FC 2D
0,4072,0:41.580.714,116.300 us,3 B,,SP,55,Read Transaction,00 00 18*
0,4073,0:41.585.108,79.100 us,2 B,,SP,55,Write Transaction,00 00
0,4074,0:41.590.459,86.700 us,2 B,,SP,55,Read Transaction,00 08*
0,4075,0:41.590.821,79.100 us,2 B,,SP,55,Write Transaction,12 01
0,4076,0:41.596.172,659.700 us,25 B,,SP,55,Read Transaction,00 00 00 00 00 02 9E 64 00 00 00 00 02 63 63 03 D0 00 01 00 00 00 01 03 00*
0,4077,0:41.604.682,676.800 us,26 B,,SP,55,Write Transaction,14 00 03 08 C8 03 B8 80 07 47 D9 06 FC 65 00 00 00 00 00 00 FF F2 00 68 FC 2D
0,4078,0:41.620.623,116.300 us,3 B,,SP,55,Read Transaction,00 00 18*
0,4079,0:41.625.017,79.100 us,2 B,,SP,55,Write Transaction,00 00
0,4080,0:41.630.367,86.700 us,2 B,,SP,55,Read Transaction,00 08*
0,4081,0:41.630.730,79.100 us,2 B,,SP,55,Write Transaction,12 01
0,4082,0:41.636.084,660.700 us,25 B,,SP,55,Read Transaction,00 00 00 00 00 02 94 64 00 00 00 00 02 63 63 03 D0 00 01 00 00 00 01 03 00*
0,4083,0:41.644.695,677.900 us,26 B,,SP,55,Write Transaction,14 00 02 FC 4F 03 AB CB 07 3A 3C 06 F4 CB 00 00 00 00 00 00 FF F2 00 69 FC 30
0,4084,0:41.660.643,116.300 us,3 B,,SP,55,Read Transaction,00 00 18*
0,4085,0:41.665.041,79.100 us,2 B,,SP,55,Write Transaction,00 00
0,4086,0:41.670.390,86.700 us,2 B,,SP,55,Read Transaction,00 08*
0,4087,0:41.670.752,79.100 us,2 B,,SP,55,Write Transaction,12 01
0,4088,0:41.676.102,659.600 us,25 B,,SP,55,Read Transaction,00 00 00 00 00 02 94 64 00 00 00 00 02 63 63 03 D0 00 01 00 00 00 01 03 00*
0,4089,0:41.684.594,677.000 us,26 B,,SP,55,Write Transaction,14 00 02 EC A5 03 9C A6 07 30 5F 06 F0 88 00 00 00 00 00 00 FF F7 00 65 FC 2A
0,4090,0:41.700.536,116.100 us,3 B,,SP,55,Read Transaction,00 00 18*
0,4091,0:41.704.928,79.000 us,2 B,,SP,55,Write Transaction,00 00
0,4092,0:41.710.281,86.800 us,2 B,,SP,55,Read Transaction,00 08*
0,4093,0:41.710.644,79.100 us,2 B,,SP,55,Write Transaction,12 01
0,4094,0:41.715.994,659.700 us,25 B,,SP,55,Read Transaction,00 00 00 00 00 02 94 64 00 00 00 00 02 63 63 03 D0 00 01 00 00 00 01 03 00*
0,4095,0:41.724.619,676.900 us,26 B,,SP,55,Write Transaction,14 00 02 E1 97 03 91 5E 07 2A 0D 06 EC D4 00 00 00 00 00 00 FF F4 00 67 FC 2F
0,4096,0:41.740.559,116.300 us,3 B,,SP,55,Read Transaction,00 00 18*
0,4097,0:41.744.958,79.200 us,2 B,,SP,55,Write Transaction,00 00
0,4098,0:41.750.313,86.700 us,2 B,,SP,55,Read Transaction,00 08*
0,4099,0:41.750.675,79.100 us,2 B,,SP,55,Write Transaction,12 01
0,4100,0:41.756.025,659.700 us,25 B,,SP,55,Read Transaction,00 00 00 00 00 02 94 64 00 00 00 00 02 63 63 03 D0 00 01 00 00 00 01 03 00*
0,4101,0:41.764.486,677.800 us,26 B,,SP,55,Write Transaction,14 00 02 DA 3D 03 89 42 07 25 E8 06 EA E5 00 00 00 00 00 00 FF F4 00 65 FC 33
0,4102,0:41.780.436,116.300 us,3 B,,SP,55,Read Transaction,00 00 18*
0,4103,0:41.784.830,79.100 us,2 B,,SP,55,Write Transaction,00 00
0,4104,0:41.790.186,86.800 us,2 B,,SP,55,Read Transaction,00 08*
0,4105,0:41.790.548,79.200 us,2 B,,SP,55,Write Transaction,12 01
0,4106,0:41.795.900,659.700 us,25 B,,SP,55,Read Transaction,00 00 00 00 00 02 94 64 00 00 00 00 02 63 63 03 D0 00 01 00 00 00 01 03 00*
0,4107,0:41.804.504,676.900 us,26 B,,SP,55,Write Transaction,14 00 02 D3 FF 03 82 1E 07 23 B5 06 E9 ED 00 00 00 00 00 00 FF F9 00 62 FC 2E
0,4108,0:41.820.445,116.300 us,3 B,,SP,55,Read Transaction,00 00 18*
0,4109,0:41.824.837,79.000 us,2 B,,SP,55,Write Transaction,00 00
0,4110,0:41.830.189,86.700 us,2 B,,SP,55,Read Transaction,00 08*
0,4111,0:41.830.551,79.000 us,2 B,,SP,55,Write Transaction,12 01
0,4112,0:41.835.899,659.700 us,25 B,,SP,55,Read Transaction,00 00 00 00 00 02 94 64 00 00 00 00 02 63 63 03 D0 00 01 00 00 00 01 03 00*
0,4113,0:41.844.401,677.000 us,26 B,,SP,55,Write Transaction,14 00 02 D1 40 03 7E 48 07 23 62 06 E9 70 00 00 00 00 00 00 FF F6 00 68 FC 2F
0,4114,0:41.860.348,116.100 us,3 B,,SP,55,Read Transaction,00 00 18*
0,4115,0:41.864.742,79.000 us,2 B,,SP,55,Write Transaction,00 00
0,4116,0:41.870.091,86.700 us,2 B,,SP,55,Read Transaction,00 08*
0,4117,0:41.870.452,79.100 us,2 B,,SP,55,Write Transaction,12 01
0,4118,0:41.875.802,659.500 us,25 B,,SP,55,Read Transaction,00 00 00 00 00 02 94 64 00 00 00 00 02 63 63 03 D0 00 01 00 00 00 01 03 00*
0,4119,0:41.884.408,678.000 us,26 B,,SP,55,Write Transaction,14 00 02 D3 30 03 7F 55 07 25 34 06 EA 01 00 00 00 00 00 00 FF F5 00 5E FC 2F
0,4120,0:41.900.351,116.300 us,3 B,,SP,55,Read Transaction,00 00 18*
0,4121,0:41.904.743,79.100 us,2 B,,SP,55,Write Transaction,00 00
0,4122,0:41.910.096,86.700 us,2 B,,SP,55,Read Transaction,00 08*
0,4123,0:41.910.459,79.100 us,2 B,,SP,55,Write Transaction,12 01
0,4124,0:41.915.812,659.400 us,25 B,,SP,55,Read Transaction,00 00 00 00 00 02 94 64 00 00 00 00 02 63 63 03 D0 00 01 00 00 00 01 03 00*
0,4125,0:41.924.325,676.900 us,26 B,,SP,55,Write Transaction,14 00 02 D3 A1 03 7F 66 07 26 F5 06 EB 9F 00 00 00 00 00 00 FF F7 00 60 FC 2D
0,4126,0:41.940.265,116.300 us,3 B,,SP,55,Read Transaction,00 00 18*
0,4127,0:41.944.659,79.100 us,2 B,,SP,55,Write Transaction,00 00
0,4128,0:41.950.009,86.700 us,2 B,,SP,55,Read Transaction,00 08*
0,4129,0:41.950.370,79.100 us,2 B,,SP,55,Write Transaction,12 01
0,4130,0:41.955.721,659.600 us,25 B,,SP,55,Read Transaction,00 00 00 00 00 02 94 64 00 00 00 00 02 63 63 03 D0 00 01 00 00 00 01 03 00*
0,4131,0:41.964.290,676.900 us,26 B,,SP,55,Write Transaction,14 00 02 D3 72 03 7E A7 07 26 B3 06 EA DA 00 00 00 00 00 00 FF F4 00 63 FC 30
0,4132,0:41.980.229,116.300 us,3 B,,SP,55,Read Transaction,00 00 18*
0,4133,0:41.984.621,79.100 us,2 B,,SP,55,Write Transaction,00 00
0,4134,0:41.989.972,86.700 us,2 B,,SP,55,Read Transaction,00 08*
0,4135,0:41.990.335,79.100 us,2 B,,SP,55,Write Transaction,12 01
0,4136,0:41.995.686,659.600 us,25 B,,SP,55,Read Transaction,00 00 00 00 00 02 94 64 00 00 00 00 02 63 63 03 D0 00 01 00 00 00 01 03 00*
0,4137,0:42.004.248,676.800 us,26 B,,SP,55,Write Transaction,14 00 02 D4 F5 03 7F B0 07 28 32 06 EB CC 00 00 00 00 00 00 FF F6 00 62 FC 32
0,4138,0:42.020.194,116.300 us,3 B,,SP,55,Read Transaction,00 00 18*
0,4139,0:42.024.590,79.100 us,2 B,,SP,55,Write Transaction,00 00
0,4140,0:42.029.939,86.700 us,2 B,,SP,55,Read Transaction,00 08*
0,4141,0:42.030.302,79.100 us,2 B,,SP,55,Write Transaction,12 01
0,4142,0:42.035.649,659.500 us,25 B,,SP,55,Read Transaction,00 00 00 00 00 02 94 64 00 00 00 00 02 63 63 03 D0 00 01 00 00 00 01 03 00*
0,4143,0:42.044.224,677.800 us,26 B,,SP,55,Write Transaction,14 00 02 D7 A9 03 82 01 07 2A 6C 06 EC F2 00 00 00 00 00 00 FF ED 00 61 FC 2F
0,4144,0:42.060.171,116.300 us,3 B,,SP,55,Read Transaction,00 00 18*
0,4145,0:42.064.563,79.100 us,2 B,,SP,55,Write Transaction,00 00
0,4146,0:42.069.915,86.700 us,2 B,,SP,55,Read Transaction,00 08*
0,4147,0:42.070.276,79.000 us,2 B,,SP,55,Write Transaction,12 01
0,4148,0:42.075.626,659.600 us,25 B,,SP,55,Read Transaction,00 00 00 00 00 02 94 64 00 00 00 00 02 63 63 03 D0 E4 01 00 00 00 01 03 00*
0,4149,0:42.084.187,676.900 us,26 B,,SP,55,Write Transaction,14 00 02 DB B9 03 85 8C 07 2D 52 06 ED EF 00 00 00 00 00 00 FF EE 00 64 FC 30
0,4150,0:42.100.129,116.300 us,3 B,,SP,55,Read Transaction,00 00 18*
0,4151,0:42.104.521,79.100 us,2 B,,SP,55,Write Transaction,00 00
0,4152,0:42.109.872,86.800 us,2 B,,SP,55,Read Transaction,00 08*
0,4153,0:42.110.235,79.100 us,2 B,,SP,55,Write Transaction,12 01
0,4154,0:42.115.585,659.500 us,25 B,,SP,55,Read Transaction,00 00 00 00 00 02 94 64 00 00 00 00 02 63 63 03 D0 00 01 00 00 00 01 03 00*
0,4155,0:42.124.133,677.100 us,26 B,,SP,55,Write Transaction,14 00 02 DF E6 03 89 46 07 30 03 06 EF 62 00 00 00 00 00 00 FF F4 00 65 FC 2C
0,4156,0:42.140.079,116.400 us,3 B,,SP,55,Read Transaction,00 00 18*
0,4157,0:42.144.477,79.100 us,2 B,,SP,55,Write Transaction,00 00
0,4158,0:42.149.832,86.700 us,2 B,,SP,55,Read Transaction,00 08*
0,4159,0:42.150.194,79.100 us,2 B,,SP,55,Write Transaction,12 01
0,4160,0:42.155.544,659.700 us,25 B,,SP,55,Read Transaction,00 00 00 00 00 02 94 64 00 00 00 00 02 63 63 03 D0 00 01 00 00 00 01 03 00*
0,4161,0:42.164.043,676.900 us,26 B,,SP,55,Write Transaction,14 00 02 E4 45 03 8D 61 07 33 A3 06 F1 76 00 00 00 00 00 00 FF F3 00 65 FC 2E
0,4162,0:42.179.998,116.300 us,3 B,,SP,55,Read Transaction,00 00 18*
0,4163,0:42.184.391,79.200 us,2 B,,SP,55,Write Transaction,00 00
0,4164,0:42.189.749,86.700 us,2 B,,SP,55,Read Transaction,00 08*
0,4165,0:42.190.112,79.200 us,2 B,,SP,55,Write Transaction,12 01
0,4166,0:42.195.467,660.600 us,25 B,,SP,55,Read Transaction,00 00 00 00 00 02 94 64 23 34 64 00 02 63 63 03 D0 00 01 00 00 00 01 03 00*
0,4167,0:42.204.012,676.800 us,26 B,,SP,55,Write Transaction,14 00 02 E7 B7 03 90 B7 07 36 7E 06 F3 5C 00 00 00 00 00 00 FF EB 00 61 FC 2C
0,4168,0:42.219.955,116.300 us,3 B,,SP,55,Read Transaction,00 00 18*
0,4169,0:42.224.349,79.100 us,2 B,,SP,55,Write Transaction,00 00
0,4170,0:42.229.699,86.800 us,2 B,,SP,55,Read Transaction,00 08*
0,4171,0:42.230.060,79.200 us,2 B,,SP,55,Write Transaction,12 01
0,4172,0:42.235.416,660.100 us,25 B,,SP,55,Read Transaction,00 00 00 00 00 02 94 64 00 00 00 00 02 63 63 03 D0 00 01 00 00 00 01 03 00*
0,4173,0:42.243.986,676.900 us,26 B,,SP,55,Write Transaction,14 00 02 EB 83 03 94 6B 07 39 89 06 F5 23 00 00 00 00 00 00 FF F7 00 63 FC 32
0,4174,0:42.259.925,116.300 us,3 B,,SP,55,Read Transaction,00 00 18*
0,4175,0:42.264.317,79.100 us,2 B,,SP,55,Write Transaction,00 00
0,4176,0:42.269.668,86.700 us,2 B,,SP,55,Read Transaction,00 08*
0,4177,0:42.270.030,79.100 us,2 B,,SP,55,Write Transaction,12 01
0,4178,0:42.275.380,659.500 us,25 B,,SP,55,Read Transaction,00 00 00 00 00 02 94 64 00 00 00 00 02 63 63 03 D0 00 01 00 00 00 01 03 00*
0,4179,0:42.283.924,676.900 us,26 B,,SP,55,Write Transaction,14 00 02 EE F2 03 97 E1 07 3C 70 06 F6 C3 00 00 00 00 00 00 FF F3 00 63 FC 2C
0,4180,0:42.299.865,116.300 us,3 B,,SP,55,Read Transaction,00 00 18*
0,4181,0:42.304.263,79.200 us,2 B,,SP,55,Write Transaction,00 00
0,4182,0:42.309.616,86.700 us,2 B,,SP,55,Read Transaction,00 08*
0,4183,0:42.309.981,79.000 us,2 B,,SP,55,Write Transaction,12 01
0,4184,0:42.315.328,659.700 us,25 B,,SP,55,Read Transaction,00 00 00 00 00 02 94 64 00 00 00 00 02 63 63 03 D0 00 01 00 00 00 01 03 00*
0,4185,0:42.323.910,677.500 us,26 B,,SP,55,Write Transaction,14 00 02 F2 01 03 9A CF 07 3D 95 06 F6 E5 00 00 00 00 00 00 FF F4 00 67 FC 30
0,4186,0:42.339.851,116.500 us,3 B,,SP,55,Read Transaction,00 00 18*
0,4187,0:42.344.242,79.100 us,2 B,,SP,55,Write Transaction,00 00
0,4188,0:42.349.593,86.700 us,2 B,,SP,55,Read Transaction,00 08*
0,4189,0:42.349.956,79.100 us,2 B,,SP,55,Write Transaction,12 01
0,4190,0:42.355.311,660.500 us,25 B,,SP,55,Read Transaction,00 00 00 00 00 02 94 64 00 00 00 00 02 63 63 03 D0 00 01 00 00 00 01 03 00*
0,4191,0:42.363.863,676.900 us,26 B,,SP,55,Write Transaction,14 00 02 F5 A7 03 9E 6E 07 40 40 06 F8 59 00 00 00 00 00 00 FF F2 00 63 FC 30
0,4192,0:42.379.812,116.300 us,3 B,,SP,55,Read Transaction,00 00 18*
0,4193,0:42.384.203,79.000 us,2 B,,SP,55,Write Transaction,00 00
0,4194,0:42.389.554,86.700 us,2 B,,SP,55,Read Transaction,00 08*
0,4195,0:42.389.916,79.000 us,2 B,,SP,55,Write Transaction,12 01
0,4196,0:42.395.264,660.400 us,25 B,,SP,55,Read Transaction,00 00 00 00 00 02 94 64 00 00 00 00 02 63 63 03 D0 00 01 00 00 00 01 03 00*
0,4197,0:42.403.812,677.000 us,26 B,,SP,55,Write Transaction,14 00 02 F9 6A 03 A2 3E 07 43 9A 06 FA A2 00 00 00 00 00 00 FF F2 00 66 FC 30
0,4198,0:42.419.752,116.300 us,3 B,,SP,55,Read Transaction,00 00 18*
0,4199,0:42.424.147,79.100 us,2 B,,SP,55,Write Transaction,00 00
0,4200,0:42.429.498,86.700 us,2 B,,SP,55,Read Transaction,00 08*
0,4201,0:42.429.859,79.100 us,2 B,,SP,55,Write Transaction,12 01
0,4202,0:42.435.209,659.600 us,25 B,,SP,55,Read Transaction,00 00 00 00 00 02 94 64 00 00 00 00 02 63 63 03 D0 00 01 00 00 00 01 03 00*
0,4203,0:42.443.759,676.800 us,26 B,,SP,55,Write Transaction,14 00 02 FD 10 03 A6 02 07 47 1C 06 FC 9D 00 00 00 00 00 00 FF F3 00 62 FC 2F
0,4204,0:42.459.704,116.400 us,3 B,,SP,55,Read Transaction,00 00 18*
0,4205,0:42.464.097,79.000 us,2 B,,SP,55,Write Transaction,00 00
0,4206,0:42.469.447,86.700 us,2 B,,SP,55,Read Transaction,00 08*
0,4207,0:42.469.810,79.100 us,2 B,,SP,55,Write Transaction,12 01
0,4208,0:42.475.159,660.000 us,25 B,,SP,55,Read Transaction,00 00 00 00 00 02 94 64 00 00 00 00 02 63 63 03 D0 00 01 00 00 00 01 03 00*
0,4209,0:42.483.742,677.000 us,26 B,,SP,55,Write Transaction,14 00 02 FF E9 03 A8 E9 07 45 CC 06 FA 4C 00 00 00 00 00 00 FF F1 00 64 FC 2E
0,4210,0:42.499.688,116.100 us,3 B,,SP,55,Read Transaction,00 00 18*
0,4211,0:42.504.082,79.100 us,2 B,,SP,55,Write Transaction,00 00
0,4212,0:42.509.432,86.800 us,2 B,,SP,55,Read Transaction,00 08*
0,4213,0:42.509.794,79.200 us,2 B,,SP,55,Write Transaction,12 01
0,4214,0:42.515.147,659.700 us,25 B,,SP,55,Read Transaction,00 00 00 00 00 02 94 64 00 00 00 00 02 63 63 03 D0 00 01 00 00 00 01 03 00*
0,4215,0:42.523.686,676.900 us,26 B,,SP,55,Write Transaction,14 00 02 F7 C0 03 A0 8F 07 3C 51 06 F5 64 00 00 00 00 00 00 FF F7 00 62 FC 30
0,4216,0:42.539.625,116.300 us,3 B,,SP,55,Read Transaction,00 00 18*
0,4217,0:42.544.016,79.100 us,2 B,,SP,55,Write Transaction,00 00
0,4218,0:42.549.370,86.800 us,2 B,,SP,55,Read Transaction,00 08*
0,4219,0:42.549.733,79.100 us,2 B,,SP,55,Write Transaction,12 01
0,4220,0:42.555.084,659.600 us,25 B,,SP,55,Read Transaction,00 00 00 00 00 02 94 64 00 00 00 00 02 63 63 03 D0 00 01 00 00 00 01 03 00*
0,4221,0:42.563.666,676.900 us,26 B,,SP,55,Write Transaction,14 00 02 E6 75 03 8F 5A 07 30 54 06 EF 82 00 00 00 00 00 00 FF F9 00 66 FC 2F
0,4222,0:42.579.608,116.300 us,3 B,,SP,55,Read Transaction,00 00 18*
0,4223,0:42.584.002,79.100 us,2 B,,SP,55,Write Transaction,00 00
0,4224,0:42.589.350,86.700 us,2 B,,SP,55,Read Transaction,00 08*
0,4225,0:42.589.713,79.000 us,2 B,,SP,55,Write Transaction,12 01
0,4226,0:42.595.062,659.800 us,25 B,,SP,55,Read Transaction,00 00 00 00 00 02 94 64 00 00 00 00 02 63 63 03 D0 00 01 00 00 00 01 03 00*
0,4227,0:42.603.585,677.400 us,26 B,,SP,55,Write Transaction,14 00 02 D7 D0 03 7F B3 07 27 F8 06 EB 7F 00 00 00 00 00 00 FF F4 00 64 FC 33
0,4228,0:42.619.524,116.100 us,3 B,,SP,55,Read Transaction,00 00 18*
0,4229,0:42.623.917,79.100 us,2 B,,SP,55,Write Transaction,00 00
0,4230,0:42.629.268,86.700 us,2 B,,SP,55,Read Transaction,00 08*
0,4231,0:42.629.630,79.100 us,2 B,,SP,55,Write Transaction,12 01
0,4232,0:42.634.981,659.500 us,25 B,,SP,55,Read Transaction,00 00 00 00 00 02 94 64 00 00 00 00 02 63 63 03 D0 00 01 00 00 00 01 03 00*
0,4233,0:42.643.578,676.900 us,26 B,,SP,55,Write Transaction,14 00 02 CE 21 03 74 72 07 23 4D 06 E9 1F 00 00 00 00 00 00 FF F4 00 64 FC 2D
0,4234,0:42.659.577,116.300 us,3 B,,SP,55,Read Transaction,00 00 18*
0,4235,0:42.663.972,79.100 us,2 B,,SP,55,Write Transaction,00 00
0,4236,0:42.669.321,86.700 us,2 B,,SP,55,Read Transaction,00 08*
0,4237,0:42.669.684,79.000 us,2 B,,SP,55,Write Transaction,12 01
0,4238,0:42.675.032,659.600 us,25 B,,SP,55,Read Transaction,00 00 00 00 00 02 94 64 00 00 00 00 02 63 63 03 D0 00 01 00 00 00 01 03 00*
0,4239,0:42.683.491,676.800 us,26 B,,SP,55,Write Transaction,14 00 02 C6 CB 03 6B 43 07 1D D5 06 E5 33 00 00 00 00 00 00 FF F4 00 66 FC 2F
0,4240,0:42.699.429,116.400 us,3 B,,SP,55,Read Transaction,00 00 18*
0,4241,0:42.703.821,79.100 us,2 B,,SP,55,Write Transaction,00 00
0,4242,0:42.709.170,86.700 us,2 B,,SP,55,Read Transaction,00 08*
0,4243,0:42.709.531,79.100 us,2 B,,SP,55,Write Transaction,12 01
0,4244,0:42.714.882,660.400 us,25 B,,SP,55,Read Transaction,00 00 00 00 00 02 94 64 00 00 00 00 02 63 63 03 D0 00 01 00 00 00 01 03 00*
0,4245,0:42.723.471,676.900 us,26 B,,SP,55,Write Transaction,14 00 02 C2 42 03 64 D2 07 1D 8E 06 E6 09 00 00 00 00 00 00 FF F5 00 64 FC 2E
0,4246,0:42.739.418,116.300 us,3 B,,SP,55,Read Transaction,00 00 18*
0,4247,0:42.743.810,79.100 us,2 B,,SP,55,Write Transaction,00 00
0,4248,0:42.749.162,86.700 us,2 B,,SP,55,Read Transaction,00 08*
0,4249,0:42.749.524,79.000 us,2 B,,SP,55,Write Transaction,12 01
0,4250,0:42.754.873,659.600 us,25 B,,SP,55,Read Transaction,00 00 00 00 00 02 94 64 00 00 00 00 02 63 63 03 D0 00 00 00 00 00 01 03 00*
0,4251,0:42.763.400,677.900 us,26 B,,SP,55,Write Transaction,14 00 02 C2 F9 03 64 8E 07 20 1F 06 E6 EA 00 00 00 00 00 00 FF F8 00 61 FC 30
0,4252,0:42.779.355,116.500 us,3 B,,SP,55,Read Transaction,00 00 18*
0,4253,0:42.783.750,79.000 us,2 B,,SP,55,Write Transaction,00 00
0,4254,0:42.789.100,86.700 us,2 B,,SP,55,Read Transaction,00 08*
0,4255,0:42.789.462,79.100 us,2 B,,SP,55,Write Transaction,12 01
0,4256,0:42.794.812,659.600 us,25 B,,SP,55,Read Transaction,00 00 00 00 00 02 94 64 00 00 00 00 02 63 63 03 D0 00 00 00 00 00 01 03 00*
0,4257,0:42.803.422,676.900 us,26 B,,SP,55,Write Transaction,14 00 02 C4 B5 03 65 4D 07 21 70 06 E7 8B 00 00 00 00 00 00 FF F3 00 64 FC 2C
0,4258,0:42.819.363,116.300 us,3 B,,SP,55,Read Transaction,00 00 18*
0,4259,0:42.823.758,79.100 us,2 B,,SP,55,Write Transaction,00 00
0,4260,0:42.829.109,86.700 us,2 B,,SP,55,Read Transaction,00 08*
0,4261,0:42.829.471,79.100 us,2 B,,SP,55,Write Transaction,12 01
0,4262,0:42.834.861,659.300 us,25 B,,SP,55,Read Transaction,00 00 00 00 00 02 94 64 00 00 00 00 02 63 63 03 D0 00 00 00 00 00 01 03 00*
0,4263,0:42.843.314,676.900 us,26 B,,SP,55,Write Transaction,14 00 02 C4 E8 03 64 7F 07 20 EA 06 E6 B5 00 00 00 00 00 00 FF F3 00 61 FC 31
0,4264,0:42.859.253,116.300 us,3 B,,SP,55,Read Transaction,00 00 18*
0,4265,0:42.863.647,79.000 us,2 B,,SP,55,Write Transaction,00 00
0,4266,0:42.868.996,86.700 us,2 B,,SP,55,Read Transaction,00 08*
0,4267,0:42.869.365,79.000 us,2 B,,SP,55,Write Transaction,12 01
0,4268,0:42.874.716,659.700 us,25 B,,SP,55,Read Transaction,00 00 00 00 00 02 94 64 00 00 00 00 02 63 63 03 D0 00 00 00 00 00 01 03 00*
0,4269,0:42.883.290,676.900 us,26 B,,SP,55,Write Transaction,14 00 02 C6 8C 03 64 F6 07 22 7F 06 E7 F3 00 00 00 00 00 00 FF F4 00 66 FC 30
0,4270,0:42.899.232,116.300 us,3 B,,SP,55,Read Transaction,00 00 18*
0,4271,0:42.903.624,79.100 us,2 B,,SP,55,Write Transaction,00 00
0,4272,0:42.908.974,86.800 us,2 B,,SP,55,Read Transaction,00 08*
0,4273,0:42.909.337,79.100 us,2 B,,SP,55,Write Transaction,12 01
0,4274,0:42.914.687,659.600 us,25 B,,SP,55,Read Transaction,00 00 00 00 00 02 94 64 00 00 00 00 02 63 63 03 D0 00 00 00 00 00 01 03 00*
0,4275,0:42.923.263,677.000 us,26 B,,SP,55,Write Transaction,14 00 02 C9 BD 03 67 4A 07 26 74 06 EA 5E 00 00 00 00 00 00 FF F5 00 66 FC 31
0,4276,0:42.939.205,116.300 us,3 B,,SP,55,Read Transaction,00 00 18*
0,4277,0:42.943.599,79.000 us,2 B,,SP,55,Write Transaction,00 00
0,4278,0:42.948.948,86.700 us,2 B,,SP,55,Read Transaction,00 08*
0,4279,0:42.949.311,79.100 us,2 B,,SP,55,Write Transaction,12 01
0,4280,0:42.954.659,659.600 us,25 B,,SP,55,Read Transaction,00 00 00 00 00 02 94 64 00 00 00 00 02 63 63 03 D0 00 00 00 00 00 01 03 00*
0,4281,0:42.963.205,676.800 us,26 B,,SP,55,Write Transaction,14 00 02 CD 92 03 6A 6A 07 28 6F 06 EA BE 00 00 00 00 00 00 FF F3 00 64 FC 30
0,4282,0:42.979.146,116.300 us,3 B,,SP,55,Read Transaction,00 00 18*
0,4283,0:42.983.538,79.100 us,2 B,,SP,55,Write Transaction,00 00
0,4284,0:42.988.889,86.800 us,2 B,,SP,55,Read Transaction,00 08*
0,4285,0:42.989.251,79.100 us,2 B,,SP,55,Write Transaction,12 01
0,4286,0:42.994.602,659.700 us,25 B,,SP,55,Read Transaction,00 00 00 00 00 02 94 64 00 00 00 00 02 63 63 03 D0 00 00 00 00 00 01 03 00*
0,4287,0:43.003.161,677.200 us,26 B,,SP,55,Write Transaction,14 00 02 D2 11 03 6E 53 07 2B B5 06 EC B8 00 00 00 00 00 00 FF F3 00 60 FC 30
0,4288,0:43.019.103,116.300 us,3 B,,SP,55,Read Transaction,00 00 18*
0,4289,0:43.023.495,79.100 us,2 B,,SP,55,Write Transaction,00 00
0,4290,0:43.028.844,86.700 us,2 B,,SP,55,Read Transaction,00 08*
0,4291,0:43.029.207,79.000 us,2 B,,SP,55,Write Transaction,12 01
0,4292,0:43.034.556,659.600 us,25 B,,SP,55,Read Transaction,00 00 00 00 00 02 94 64 00 00 00 00 02 63 63 03 D0 00 00 00 00 00 01 03 00*
0,4293,0:43.043.122,677.000 us,26 B,,SP,55,Write Transaction,14 00 02 D6 5C 03 72 60 07 2F 2C 06 EE DE 00 00 00 00 00 00 FF F2 00 63 FC 2C
0,4294,0:43.059.061,116.300 us,3 B,,SP,55,Read Transaction,00 00 18*
0,4295,0:43.063.456,79.100 us,2 B,,SP,55,Write Transaction,00 00
0,4296,0:43.068.806,86.700 us,2 B,,SP,55,Read Transaction,00 08*
0,4297,0:43.069.167,79.100 us,2 B,,SP,55,Write Transaction,12 01
0,4298,0:43.074.518,659.600 us,25 B,,SP,55,Read Transaction,00 00 00 00 00 02 94 64 22 E4 64 00 02 63 63 03 D0 E4 00 00 00 00 01 03 00*
0,4299,0:43.083.117,677.800 us,26 B,,SP,55,Write Transaction,14 00 02 D9 D2 03 75 E8 07 33 87 06 F2 25 00 00 00 00 00 00 FF F2 00 69 FC 2C
0,4300,0:43.099.058,116.300 us,3 B,,SP,55,Read Transaction,00 00 18*
0,4301,0:43.103.451,79.200 us,2 B,,SP,55,Write Transaction,00 00
0,4302,0:43.108.809,86.700 us,2 B,,SP,55,Read Transaction,00 08*
0,4303,0:43.109.172,79.000 us,2 B,,SP,55,Write Transaction,12 01
0,4304,0:43.114.520,659.700 us,25 B,,SP,55,Read Transaction,00 00 00 00 00 02 94 64 00 00 00 00 02 63 63 03 D0 00 00 00 00 00 01 03 00*
0,4305,0:43.123.012,677.000 us,26 B,,SP,55,Write Transaction,14 00 02 DC FA 03 79 3E 07 34 EC 06 F2 1A 00 00 00 00 00 00 FF F6 00 63 FC 30
0,4306,0:43.138.956,116.300 us,3 B,,SP,55,Read Transaction,00 00 18*
0,4307,0:43.143.352,79.100 us,2 B,,SP,55,Write Transaction,00 00
0,4308,0:43.148.700,86.700 us,2 B,,SP,55,Read Transaction,00 08*
0,4309,0:43.149.061,79.000 us,2 B,,SP,55,Write Transaction,12 01
0,4310,0:43.154.416,659.600 us,25 B,,SP,55,Read Transaction,00 00 00 00 00 02 94 64 00 00 00 00 02 63 63 03 D0 00 00 00 00 00 01 03 00*
0,4311,0:43.162.967,676.900 us,26 B,,SP,55,Write Transaction,14 00 02 E0 DA 03 7C F7 07 35 D5 06 F2 0B 00 00 00 00 00 00 FF F4 00 66 FC 2B
0,4312,0:43.178.909,116.300 us,3 B,,SP,55,Read Transaction,00 00 18*
0,4313,0:43.183.302,79.000 us,2 B,,SP,55,Write Transaction,00 00
0,4314,0:43.188.653,86.700 us,2 B,,SP,55,Read Transaction,00 08*
0,4315,0:43.189.015,79.100 us,2 B,,SP,55,Write Transaction,12 01
0,4316,0:43.194.367,659.600 us,25 B,,SP,55,Read Transaction,00 00 00 00 00 02 94 64 00 00 00 00 02 63 63 03 D0 00 00 00 00 00 01 03 00*
0,4317,0:43.202.967,676.900 us,26 B,,SP,55,Write Transaction,14 00 02 E4 19 03 80 3C 07 37 B6 06 F3 18 00 00 00 00 00 00 FF F4 00 66 FC 2F
0,4318,0:43.218.911,116.300 us,3 B,,SP,55,Read Transaction,00 00 18*
0,4319,0:43.223.306,79.100 us,2 B,,SP,55,Write Transaction,00 00
0,4320,0:43.228.663,86.600 us,2 B,,SP,55,Read Transaction,00 08*
0,4321,0:43.229.025,79.000 us,2 B,,SP,55,Write Transaction,12 01
0,4322,0:43.234.374,659.600 us,25 B,,SP,55,Read Transaction,00 00 00 00 00 02 94 64 00 00 00 00 02 63 63 03 D0 00 00 00 00 00 01 03 00*
0,4323,0:43.242.874,676.800 us,26 B,,SP,55,Write Transaction,14 00 02 E7 24 03 83 61 07 3A 8D 06 F5 19 00 00 00 00 00 00 FF F2 00 64 FC 30
0,4324,0:43.258.813,116.300 us,3 B,,SP,55,Read Transaction,00 00 18*
0,4325,0:43.263.203,79.100 us,2 B,,SP,55,Write Transaction,00 00
0,4326,0:43.268.554,86.700 us,2 B,,SP,55,Read Transaction,00 08*
0,4327,0:43.268.917,79.000 us,2 B,,SP,55,Write Transaction,12 01
0,4328,0:43.274.266,659.600 us,25 B,,SP,55,Read Transaction,00 00 00 00 00 02 94 64 00 00 00 00 02 63 63 03 D0 00 00 00 00 00 01 03 00*
0,4329,0:43.282.876,677.500 us,26 B,,SP,55,Write Transaction,14 00 02 EA E0 03 87 3B 07 3D F1 06 F7 22 00 00 00 00 00 00 FF F3 00 69 FC 2D
0,4330,0:43.298.823,116.300 us,3 B,,SP,55,Read Transaction,00 00 18*
0,4331,0:43.303.218,79.100 us,2 B,,SP,55,Write Transaction,00 00
0,4332,0:43.308.569,86.800 us,2 B,,SP,55,Read Transaction,00 08*
0,4333,0:43.308.931,79.000 us,2 B,,SP,55,Write Transaction,12 01
0,4334,0:43.314.284,659.600 us,25 B,,SP,55,Read Transaction,00 00 00 00 00 02 94 64 00 00 00 00 02 63 63 03 D0 00 00 00 00 00 01 03 00*
0,4335,0:43.322.787,676.900 us,26 B,,SP,55,Write Transaction,14 00 02 EE 48 03 8A E3 07 41 CD 06 F9 F2 00 00 00 00 00 00 FF F0 00 66 FC 2D
0,4336,0:43.338.733,116.400 us,3 B,,SP,55,Read Transaction,00 00 18*
0,4337,0:43.343.129,79.100 us,2 B,,SP,55,Write Transaction,00 00
0,4338,0:43.348.478,86.700 us,2 B,,SP,55,Read Transaction,00 08*
0,4339,0:43.348.840,79.100 us,2 B,,SP,55,Write Transaction,12 01
0,4340,0:43.354.190,659.600 us,25 B,,SP,55,Read Transaction,00 00 00 00 00 02 94 64 00 00 00 00 02 63 63 03 D0 00 00 00 00 00 01 03 00*
0,4341,0:43.362.780,678.000 us,26 B,,SP,55,Write Transaction,14 00 02 F2 E8 03 8F B6 07 45 84 06 FB C0 00 00 00 00 00 00 FF F5 00 63 FC 30
0,4342,0:43.378.729,116.300 us,3 B,,SP,55,Read Transaction,00 00 18*
0,4343,0:43.383.122,79.000 us,2 B,,SP,55,Write Transaction,00 00
0,4344,0:43.388.473,86.600 us,2 B,,SP,55,Read Transaction,00 08*
0,4345,0:43.388.835,79.100 us,2 B,,SP,55,Write Transaction,12 01
0,4346,0:43.394.183,660.100 us,25 B,,SP,55,Read Transaction,00 00 00 00 00 02 94 64 00 00 00 00 02 63 63 03 D0 00 00 00 00 00 01 03 00*
0,4347,0:43.402.704,678.000 us,26 B,,SP,55,Write Transaction,14 00 02 F4 5A 03 91 3A 07 42 B4 06 F8 FC 00 00 00 00 00 00 FF F1 00 62 FC 30
0,4348,0:43.418.668,116.500 us,3 B,,SP,55,Read Transaction,00 00 18*
0,4349,0:43.423.066,79.100 us,2 B,,SP,55,Write Transaction,00 00
0,4350,0:43.428.417,86.800 us,2 B,,SP,55,Read Transaction,00 08*
0,4351,0:43.428.779,79.000 us,2 B,,SP,55,Write Transaction,12 01
0,4352,0:43.434.129,659.700 us,25 B,,SP,55,Read Transaction,00 00 00 00 00 02 94 64 00 00 00 00 02 63 63 03 D0 00 00 00 00 00 01 03 00*
0,4353,0:43.442.679,676.900 us,26 B,,SP,55,Write Transaction,14 00 02 EA 34 03 87 0F 07 38 61 06 F3 F5 00 00 00 00 00 00 FF F3 00 63 FC 2D
0,4354,0:43.458.617,116.300 us,3 B,,SP,55,Read Transaction,00 00 18*
0,4355,0:43.463.009,79.100 us,2 B,,SP,55,Write Transaction,00 00
0,4356,0:43.468.360,86.700 us,2 B,,SP,55,Read Transaction,00 08*
0,4357,0:43.468.723,79.100 us,2 B,,SP,55,Write Transaction,12 01
0,4358,0:43.474.075,659.600 us,25 B,,SP,55,Read Transaction,00 00 00 00 00 02 94 64 00 00 00 00 02 63 63 03 D0 00 00 00 00 00 01 03 00*
0,4359,0:43.482.635,676.900 us,26 B,,SP,55,Write Transaction,14 00 02 DA 6B 03 76 D0 07 2D E3 06 EE CB 00 00 00 00 00 00 FF F4 00 60 FC 30
0,4360,0:43.498.582,116.300 us,3 B,,SP,55,Read Transaction,00 00 18*
0,4361,0:43.502.978,79.000 us,2 B,,SP,55,Write Transaction,00 00
0,4362,0:43.508.327,86.700 us,2 B,,SP,55,Read Transaction,00 08*
0,4363,0:43.508.690,79.100 us,2 B,,SP,55,Write Transaction,12 01
0,4364,0:43.514.041,659.700 us,25 B,,SP,55,Read Transaction,00 00 00 00 00 02 94 64 00 00 00 00 02 63 63 03 D0 00 00 00 00 00 01 03 00*
0,4365,0:43.522.556,677.100 us,26 B,,SP,55,Write Transaction,14 00 02 D0 FD 03 6B E0 07 28 35 06 EB 86 00 00 00 00 00 00 FF F6 00 64 FC 2F
0,4366,0:43.538.499,116.300 us,3 B,,SP,55,Read Transaction,00 00 18*
0,4367,0:43.542.891,79.100 us,2 B,,SP,55,Write Transaction,00 00
0,4368,0:43.548.241,86.700 us,2 B,,SP,55,Read Transaction,00 08*
0,4369,0:43.548.603,79.100 us,2 B,,SP,55,Write Transaction,12 01
0,4370,0:43.553.957,660.600 us,25 B,,SP,55,Read Transaction,00 00 00 00 00 02 94 64 00 00 00 00 02 63 63 03 D0 00 00 00 00 00 01 03 00*
0,4371,0:43.562.566,676.800 us,26 B,,SP,55,Write Transaction,14 00 02 CC 0D 03 65 C4 07 26 7A 06 EB 40 00 00 00 00 00 00 FF F2 00 60 FC 31
0,4372,0:43.578.506,116.200 us,3 B,,SP,55,Read Transaction,00 00 18*
0,4373,0:43.582.899,79.000 us,2 B,,SP,55,Write Transaction,00 00
0,4374,0:43.588.249,86.700 us,2 B,,SP,55,Read Transaction,00 08*
0,4375,0:43.588.612,79.000 us,2 B,,SP,55,Write Transaction,12 01
0,4376,0:43.593.965,659.600 us,25 B,,SP,55,Read Transaction,00 00 00 00 00 02 94 64 00 00 00 00 02 63 63 03 D0 00 00 00 00 00 01 03 00*
0,4377,0:43.602.485,676.800 us,26 B,,SP,55,Write Transaction,14 00 02 C7 DA 03 60 B1 07 24 95 06 EA 1F 00 00 00 00 00 00 FF F6 00 66 FC 2B
0,4378,0:43.618.424,116.300 us,3 B,,SP,55,Read Transaction,00 00 18*
0,4379,0:43.622.818,79.000 us,2 B,,SP,55,Write Transaction,00 00
0,4380,0:43.628.167,86.800 us,2 B,,SP,55,Read Transaction,00 08*
0,4381,0:43.628.528,79.000 us,2 B,,SP,55,Write Transaction,12 01
0,4382,0:43.633.878,659.600 us,25 B,,SP,55,Read Transaction,00 00 00 00 00 02 94 64 00 00 00 00 02 63 63 03 D0 00 00 00 00 00 01 03 00*
0,4383,0:43.642.529,677.900 us,26 B,,SP,55,Write Transaction,14 00 02 C7 DF 03 5F C1 07 23 72 06 E8 3C 00 00 00 00 00 00 FF F4 00 64 FC 30
0,4384,0:43.658.472,116.300 us,3 B,,SP,55,Read Transaction,00 00 18*
0,4385,0:43.662.864,79.100 us,2 B,,SP,55,Write Transaction,00 00
0,4386,0:43.668.215,86.700 us,2 B,,SP,55,Read Transaction,00 08*
0,4387,0:43.668.577,79.100 us,2 B,,SP,55,Write Transaction,12 01
0,4388,0:43.673.925,659.500 us,25 B,,SP,55,Read Transaction,00 00 00 00 00 02 94 64 00 00 00 00 02 63 63 03 D0 00 00 00 00 00 01 03 00*
0,4389,0:43.682.385,676.900 us,26 B,,SP,55,Write Transaction,14 00 02 CB 68 03 62 70 07 26 F2 06 EA B4 00 00 00 00 00 00 FF EF 00 65 FC 2F
0,4390,0:43.698.332,116.300 us,3 B,,SP,55,Read Transaction,00 00 18*
0,4391,0:43.702.726,79.100 us,2 B,,SP,55,Write Transaction,00 00
0,4392,0:43.708.076,86.700 us,2 B,,SP,55,Read Transaction,00 08*
0,4393,0:43.708.437,79.100 us,2 B,,SP,55,Write Transaction,12 01
0,4394,0:43.713.788,660.600 us,25 B,,SP,55,Read Transaction,00 00 00 00 00 02 94 64 00 00 00 00 02 63 63 03 D0 00 00 00 00 00 01 03 00*
0,4395,0:43.722.431,676.400 us,26 B,,SP,55,Write Transaction,14 00 02 CC 9A 03 63 0D 07 28 C0 06 EC 37 00 00 00 00 00 00 FF F9 00 64 FC 2D
0,4396,0:43.738.375,116.300 us,3 B,,SP,55,Read Transaction,00 00 18*
0,4397,0:43.742.768,79.100 us,2 B,,SP,55,Write Transaction,00 00
0,4398,0:43.748.119,86.700 us,2 B,,SP,55,Read Transaction,00 08*
0,4399,0:43.748.481,79.100 us,2 B,,SP,55,Write Transaction,12 01
0,4400,0:43.753.833,659.700 us,25 B,,SP,55,Read Transaction,00 00 00 00 00 02 94 64 00 00 00 00 02 63 63 03 D0 00 00 00 00 00 01 03 00*
0,4401,0:43.762.364,676.900 us,26 B,,SP,55,Write Transaction,14 00 02 CC 70 03 62 6B 07 28 A1 06 EB FF 00 00 00 00 00 00 FF F9 00 65 FC 30
0,4402,0:43.778.304,116.300 us,3 B,,SP,55,Read Transaction,00 00 18*
0,4403,0:43.782.698,79.100 us,2 B,,SP,55,Write Transaction,00 00
0,4404,0:43.788.047,86.700 us,2 B,,SP,55,Read Transaction,00 08*
0,4405,0:43.788.478,79.100 us,2 B,,SP,55,Write Transaction,12 01
0,4406,0:43.793.829,659.600 us,25 B,,SP,55,Read Transaction,00 00 00 00 00 02 94 64 00 00 00 00 02 63 63 03 D0 00 00 00 00 00 01 03 00*
0,4407,0:43.802.290,676.900 us,26 B,,SP,55,Write Transaction,14 00 02 CE 35 03 63 C0 07 2A 66 06 ED 25 00 00 00 00 00 00 FF F5 00 64 FC 30
0,4408,0:43.818.231,116.400 us,3 B,,SP,55,Read Transaction,00 00 18*
0,4409,0:43.822.630,79.200 us,2 B,,SP,55,Write Transaction,00 00
0,4410,0:43.827.988,86.800 us,2 B,,SP,55,Read Transaction,00 08*
0,4411,0:43.828.351,79.200 us,2 B,,SP,55,Write Transaction,12 01
0,4412,0:43.833.701,659.600 us,25 B,,SP,55,Read Transaction,00 00 00 00 00 02 94 64 00 00 00 00 02 63 63 03 D0 00 00 00 00 00 01 03 00*
0,4413,0:43.842.251,676.900 us,26 B,,SP,55,Write Transaction,14 00 02 D1 69 03 66 D0 07 2D 35 06 EE AF 00 00 00 00 00 00 FF F6 00 64 FC 30
0,4414,0:43.858.190,116.300 us,3 B,,SP,55,Read Transaction,00 00 18*
0,4415,0:43.862.584,79.000 us,2 B,,SP,55,Write Transaction,00 00
0,4416,0:43.867.935,86.600 us,2 B,,SP,55,Read Transaction,00 08*
0,4417,0:43.868.298,79.000 us,2 B,,SP,55,Write Transaction,12 01
0,4418,0:43.873.646,659.700 us,25 B,,SP,55,Read Transaction,00 00 00 00 00 02 94 64 00 00 00 00 02 63 63 03 D0 00 00 00 00 00 01 03 00*
0,4419,0:43.882.198,676.900 us,26 B,,SP,55,Write Transaction,14 00 02 D5 64 03 6A D7 07 30 77 06 F0 AD 00 00 00 00 00 00 FF F2 00 67 FC 2F
0,4420,0:43.898.136,116.200 us,3 B,,SP,55,Read Transaction,00 00 18*
0,4421,0:43.902.528,79.000 us,2 B,,SP,55,Write Transaction,00 00
0,4422,0:43.907.877,86.700 us,2 B,,SP,55,Read Transaction,00 08*
0,4423,0:43.908.239,79.100 us,2 B,,SP,55,Write Transaction,12 01
0,4424,0:43.913.589,659.500 us,25 B,,SP,55,Read Transaction,00 00 00 00 00 02 94 64 00 00 00 00 02 63 63 03 D0 00 00 00 00 00 01 03 00*
0,4425,0:43.922.183,676.900 us,26 B,,SP,55,Write Transaction,14 00 02 D9 C4 03 6F 6B 07 34 C3 06 F3 D0 00 00 00 00 00 00 FF F3 00 67 FC 2B
0,4426,0:43.938.124,116.300 us,3 B,,SP,55,Read Transaction,00 00 18*
0,4427,0:43.942.517,79.100 us,2 B,,SP,55,Write Transaction,00 00
0,4428,0:43.947.868,86.700 us,2 B,,SP,55,Read Transaction,00 08*
0,4429,0:43.948.230,79.100 us,2 B,,SP,55,Write Transaction,12 01
0,4430,0:43.953.579,659.700 us,25 B,,SP,55,Read Transaction,00 00 00 00 00 02 94 64 00 00 00 00 02 63 63 03 D0 00 00 00 00 00 01 03 00*
0,4431,0:43.962.108,676.900 us,26 B,,SP,55,Write Transaction,14 00 02 DE B2 03 74 B7 07 39 7F 06 F6 AB 00 00 00 00 00 00 FF F5 00 64 FC 28
0,4432,0:43.978.053,116.300 us,3 B,,SP,55,Read Transaction,00 00 18*
0,4433,0:43.982.449,79.100 us,2 B,,SP,55,Write Transaction,00 00
0,4434,0:43.987.798,86.700 us,2 B,,SP,55,Read Transaction,00 08*
0,4435,0:43.988.160,79.100 us,2 B,,SP,55,Write Transaction,12 01
0,4436,0:43.993.511,659.700 us,25 B,,SP,55,Read Transaction,00 00 00 00 00 02 94 64 22 79 64 00 02 63 63 03 D0 00 00 00 00 00 01 03 00*
0,4437,0:44.002.072,676.900 us,26 B,,SP,55,Write Transaction,14 00 02 E3 74 03 79 9E 07 3C 3F 06 F8 11 00 00 00 00 00 00 FF F6 00 63 FC 2D
0,4438,0:44.018.010,116.300 us,3 B,,SP,55,Read Transaction,00 00 18*
0,4439,0:44.022.401,79.200 us,2 B,,SP,55,Write Transaction,00 00
0,4440,0:44.027.757,86.700 us,2 B,,SP,55,Read Transaction,00 08*
0,4441,0:44.028.120,79.100 us,2 B,,SP,55,Write Transaction,12 01
0,4442,0:44.033.509,659.600 us,25 B,,SP,55,Read Transaction,00 00 00 00 00 02 94 64 00 00 00 00 02 63 63 03 D0 00 00 00 00 00 01 03 00*
0,4443,0:44.042.041,676.800 us,26 B,,SP,55,Write Transaction,14 00 02 E7 E8 03 7E 6F 07 3F 97 06 FA 14 00 00 00 00 00 00 FF F9 00 65 FC 30
0,4444,0:44.057.981,116.300 us,3 B,,SP,55,Read Transaction,00 00 18*
0,4445,0:44.062.374,79.100 us,2 B,,SP,55,Write Transaction,00 00
0,4446,0:44.067.722,86.700 us,2 B,,SP,55,Read Transaction,00 08*
0,4447,0:44.068.083,79.000 us,2 B,,SP,55,Write Transaction,12 01
0,4448,0:44.073.440,660.500 us,25 B,,SP,55,Read Transaction,00 00 00 00 00 02 94 64 00 00 00 00 02 63 63 03 D0 E4 00 00 00 00 01 03 00*
0,4449,0:44.081.974,676.800 us,26 B,,SP,55,Write Transaction,14 00 02 EB FF 03 82 CA 07 41 9E 06 FA D3 00 00 00 00 00 00 FF F2 00 68 FC 30
0,4450,0:44.097.912,116.400 us,3 B,,SP,55,Read Transaction,00 00 18*
0,4451,0:44.102.304,79.100 us,2 B,,SP,55,Write Transaction,00 00
0,4452,0:44.107.654,86.700 us,2 B,,SP,55,Read Transaction,00 08*
0,4453,0:44.108.016,79.000 us,2 B,,SP,55,Write Transaction,12 01
0,4454,0:44.113.366,659.500 us,25 B,,SP,55,Read Transaction,00 00 00 00 00 02 94 64 00 00 00 00 02 60 63 03 D1 00 00 00 00 00 01 03 00*
0,4455,0:44.121.968,676.900 us,26 B,,SP,55,Write Transaction,14 00 02 F0 70 03 87 5C 07 45 6E 06 FD 7C 00 00 00 00 00 00 FF F3 00 62 FC 2C
0,4456,0:44.137.913,116.300 us,3 B,,SP,55,Read Transaction,00 00 18*
0,4457,0:44.142.307,79.100 us,2 B,,SP,55,Write Transaction,00 00
0,4458,0:44.147.658,86.700 us,2 B,,SP,55,Read Transaction,00 08*
0,4459,0:44.148.020,79.000 us,2 B,,SP,55,Write Transaction,12 01
0,4460,0:44.153.371,659.600 us,25 B,,SP,55,Read Transaction,00 00 00 00 00 02 94 64 00 00 00 00 02 60 63 03 D1 00 00 00 00 00 01 03 00*
0,4461,0:44.161.887,677.000 us,26 B,,SP,55,Write Transaction,14 00 02 F4 BC 03 8B FD 07 48 87 06 FF 09 00 00 00 00 00 00 FF F7 00 62 FC 2D
0,4462,0:44.177.824,116.300 us,3 B,,SP,55,Read Transaction,00 00 18*
0,4463,0:44.182.281,79.200 us,2 B,,SP,55,Write Transaction,00 00
0,4464,0:44.187.634,86.800 us,2 B,,SP,55,Read Transaction,00 08*
0,4465,0:44.187.995,79.200 us,2 B,,SP,55,Write Transaction,12 01
0,4466,0:44.193.350,660.400 us,25 B,,SP,55,Read Transaction,00 00 00 00 00 02 94 64 00 00 00 00 02 60 63 03 D1 00 00 00 00 00 01 03 00*
0,4467,0:44.201.924,676.800 us,26 B,,SP,55,Write Transaction,14 00 02 F8 2D 03 8F C2 07 4A 78 07 00 16 00 00 00 00 00 00 FF F2 00 61 FC 2D
0,4468,0:44.217.863,116.200 us,3 B,,SP,55,Read Transaction,00 00 18*
0,4469,0:44.222.254,79.000 us,2 B,,SP,55,Write Transaction,00 00
0,4470,0:44.227.606,86.700 us,2 B,,SP,55,Read Transaction,00 08*
0,4471,0:44.227.968,79.100 us,2 B,,SP,55,Write Transaction,12 01
0,4472,0:44.233.316,659.600 us,25 B,,SP,55,Read Transaction,00 00 00 00 00 02 94 64 00 00 00 00 02 60 63 03 D1 00 00 00 00 00 01 03 00*
0,4473,0:44.241.798,676.800 us,26 B,,SP,55,Write Transaction,14 00 02 FC E5 03 94 90 07 4C A2 07 00 2A 00 00 00 00 00 00 FF FE 00 6C FC 31
0,4474,0:44.257.733,116.400 us,3 B,,SP,55,Read Transaction,00 00 18*
0,4475,0:44.262.127,79.100 us,2 B,,SP,55,Write Transaction,00 00
0,4476,0:44.267.477,86.700 us,2 B,,SP,55,Read Transaction,00 08*
0,4477,0:44.267.838,79.100 us,2 B,,SP,55,Write Transaction,12 01
0,4478,0:44.273.188,659.500 us,25 B,,SP,55,Read Transaction,00 00 00 00 00 02 94 64 00 00 00 00 02 60 63 03 D1 00 00 00 00 00 01 03 00*
0,4479,0:44.281.819,676.800 us,26 B,,SP,55,Write Transaction,14 00 02 