# Total Phase Data Center(tm) v6.73
# (c) 2005-2017 Total Phase, Inc.
# www.totalphase.com
#
# 
#
# Level,Index,m:s.ms.us,Dur,Len,Err,S/P,Addr,Record,Data
0,0,0:00.000.000,,,,,,Capture started,[09/19/22 21:08:55]
0,1,0:36.270.999,128.900 us,4 B,,SP,55,Write Transaction,46 07 0B 01
0,2,0:36.276.398,61.700 us,1 B,,SP,55,Read Transaction,00*
0,3,0:36.276.732,128.900 us,4 B,,SP,55,Write Transaction,46 07 12 01
0,4,0:36.282.134,61.600 us,1 B,,SP,55,Read Transaction,00*
0,5,0:36.282.471,153.700 us,5 B,,SP,55,Write Transaction,46 07 1A 00 03
0,6,0:36.287.895,61.900 us,1 B,,SP,55,Read Transaction,00*
0,7,0:36.288.232,153.800 us,5 B,,SP,55,Write Transaction,46 07 15 01 03
0,8,0:36.293.655,61.700 us,1 B,,SP,55,Read Transaction,00*
0,9,0:36.293.990,153.800 us,5 B,,SP,55,Write Transaction,46 07 15 02 03
0,10,0:36.299.412,61.600 us,1 B,,SP,55,Read Transaction,00*
0,11,0:36.299.749,153.800 us,5 B,,SP,55,Write Transaction,46 07 1B 00 01
0,12,0:36.305.173,61.800 us,1 B,,SP,55,Read Transaction,00*
0,13,0:36.305.510,153.700 us,5 B,,SP,55,Write Transaction,46 07 1B 01 01
0,14,0:36.310.931,61.800 us,1 B,,SP,55,Read Transaction,00*
0,15,0:36.311.266,153.700 us,5 B,,SP,55,Write Transaction,46 07 14 01 04
0,16,0:36.316.696,61.600 us,1 B,,SP,55,Read Transaction,00*
0,17,0:36.317.033,153.800 us,5 B,,SP,55,Write Transaction,46 07 16 01 10
0,18,0:36.322.455,61.600 us,1 B,,SP,55,Read Transaction,00*
0,19,0:36.322.791,153.800 us,5 B,,SP,55,Write Transaction,46 07 1B 02 01
0,20,0:36.328.212,61.800 us,1 B,,SP,55,Read Transaction,00*
0,21,0:36.328.547,153.800 us,5 B,,SP,55,Write Transaction,46 07 14 02 04
0,22,0:36.333.970,61.600 us,1 B,,SP,55,Read Transaction,00*
0,23,0:36.334.307,153.800 us,5 B,,SP,55,Write Transaction,46 07 16 02 10
0,24,0:36.339.733,61.700 us,1 B,,SP,55,Read Transaction,00*
0,25,0:36.340.070,153.700 us,5 B,,SP,55,Write Transaction,46 07 0F 00 7D
0,26,0:36.345.493,61.700 us,1 B,,SP,55,Read Transaction,00*
0,27,0:36.345.828,153.700 us,5 B,,SP,55,Write Transaction,46 07 10 01 38
0,28,0:36.351.252,61.700 us,1 B,,SP,55,Read Transaction,00*
0,29,0:36.351.589,153.700 us,5 B,,SP,55,Write Transaction,46 07 0D 07 08
0,30,0:36.357.011,61.800 us,1 B,,SP,55,Read Transaction,00*
0,31,0:36.357.350,154.000 us,5 B,,SP,55,Write Transaction,46 07 0E 00 32
0,32,0:36.362.774,61.700 us,1 B,,SP,55,Read Transaction,00*
0,33,0:36.363.109,153.700 us,5 B,,SP,55,Write Transaction,46 07 23 00 00
0,34,0:36.368.533,61.700 us,1 B,,SP,55,Read Transaction,00*
0,35,0:36.368.869,153.700 us,5 B,,SP,55,Write Transaction,46 07 24 00 00
0,36,0:36.374.290,61.800 us,1 B,,SP,55,Read Transaction,00*
0,37,0:36.374.627,153.800 us,5 B,,SP,55,Write Transaction,46 07 1C 00 00
0,38,0:36.380.050,61.700 us,1 B,,SP,55,Read Transaction,00*
0,39,0:36.380.385,153.800 us,5 B,,SP,55,Write Transaction,46 07 23 01 00
0,40,0:36.385.809,61.800 us,1 B,,SP,55,Read Transaction,00*
0,41,0:36.386.146,153.700 us,5 B,,SP,55,Write Transaction,46 07 24 01 00
0,42,0:36.391.568,61.800 us,1 B,,SP,55,Read Transaction,00*
0,43,0:36.391.911,153.700 us,5 B,,SP,55,Write Transaction,46 07 23 02 00
0,44,0:36.397.335,61.700 us,1 B,,SP,55,Read Transaction,00*
0,45,0:36.397.671,153.700 us,5 B,,SP,55,Write Transaction,46 07 24 02 00
0,46,0:36.403.094,61.800 us,1 B,,SP,55,Read Transaction,00*
0,47,0:36.403.432,153.800 us,5 B,,SP,55,Write Transaction,46 07 11 01 38
0,48,0:36.408.854,61.600 us,1 B,,SP,55,Read Transaction,00*
0,49,0:36.409.187,128.900 us,4 B,,SP,55,Write Transaction,46 07 0C 01
0,50,0:36.414.587,61.700 us,1 B,,SP,55,Read Transaction,00*
0,51,0:36.415.307,178.700 us,6 B,,SP,55,Write Transaction,46 07 25 00 00 64
0,52,0:36.420.756,61.900 us,1 B,,SP,55,Read Transaction,00*
0,53,0:36.421.193,178.700 us,6 B,,SP,55,Write Transaction,46 07 25 01 00 C8
0,54,0:36.426.638,61.800 us,1 B,,SP,55,Read Transaction,00*
0,55,0:36.427.096,178.700 us,6 B,,SP,55,Write Transaction,46 07 25 02 00 C8
0,56,0:36.432.546,61.900 us,1 B,,SP,55,Read Transaction,00*
0,57,0:36.434.070,103.900 us,3 B,,SP,55,Write Transaction,10 00 03
0,58,0:36.439.445,61.600 us,1 B,,SP,55,Read Transaction,00*
0,59,0:36.439.825,128.800 us,4 B,,SP,55,Write Transaction,44 07 01 01
0,60,0:36.939.699,65.300 us,1 B,,SP,55,Read Transaction,00*
0,61,0:36.956.100,676.600 us,26 B,,SP,55,Write Transaction,14 00 04 2D E3 05 6F F7 05 A6 99 05 FC D0 00 00 00 00 00 00 FF BF 00 80 FC 2D
0,62,0:36.972.038,114.900 us,3 B,,SP,55,Read Transaction,00 00 18*
0,63,0:36.976.429,79.000 us,2 B,,SP,55,Write Transaction,00 00
0,64,0:36.981.780,86.800 us,2 B,,SP,55,Read Transaction,00 08*
0,65,0:36.982.143,79.200 us,2 B,,SP,55,Write Transaction,12 01
0,66,0:36.987.496,659.700 us,25 B,,SP,55,Read Transaction,00 00 00 00 80 02 58 00 00 00 00 01 00 00 00 00 00 00 00 00 00 00 00 02 1B*
0,67,0:36.995.485,104.000 us,3 B,,SP,55,Write Transaction,47 07 27
0,68,0:37.000.862,559.800 us,21 B,,SP,55,Read Transaction,00 00 00 00 00 00 00 00 00 00 00 80 C7 83 90 80 80 C7 83 90 80*
0,69,0:37.027.021,128.900 us,4 B,,SP,55,Write Transaction,46 07 28 01
0,70,0:37.032.421,61.800 us,1 B,,SP,55,Read Transaction,00*
0,71,0:37.035.638,676.900 us,26 B,,SP,55,Write Transaction,14 00 04 29 0C 05 66 46 05 51 16 05 AB 54 00 00 00 00 00 00 FF BF 00 80 FC 2D
0,72,0:37.051.580,113.900 us,3 B,,SP,55,Read Transaction,00 00 18*
0,73,0:37.055.973,79.000 us,2 B,,SP,55,Write Transaction,00 00
0,74,0:37.061.323,86.800 us,2 B,,SP,55,Read Transaction,00 08*
0,75,0:37.061.685,79.100 us,2 B,,SP,55,Write Transaction,12 01
0,76,0:37.067.036,659.600 us,25 B,,SP,55,Read Transaction,00 00 00 00 00 02 58 00 00 00 00 01 00 00 00 00 00 00 00 00 00 00 00 02 1B*
0,77,0:37.075.835,676.900 us,26 B,,SP,55,Write Transaction,14 00 04 1C 41 05 4B 0E 05 4B EE 05 A9 35 00 00 00 00 00 00 FF BF 00 80 FC 2D
0,78,0:37.091.771,113.600 us,3 B,,SP,55,Read Transaction,00 00 18*
0,79,0:37.096.163,79.000 us,2 B,,SP,55,Write Transaction,00 00
0,80,0:37.101.515,86.700 us,2 B,,SP,55,Read Transaction,00 08*
0,81,0:37.101.875,79.100 us,2 B,,SP,55,Write Transaction,12 01
0,82,0:37.107.223,659.600 us,25 B,,SP,55,Read Transaction,00 00 00 00 80 02 58 00 00 00 00 01 00 00 00 00 00 00 00 00 00 00 00 02 00*
0,83,0:37.115.215,104.000 us,3 B,,SP,55,Write Transaction,47 07 27
0,84,0:37.120.590,560.000 us,21 B,,SP,55,Read Transaction,00 80 50 00 00 00 80 50 00 00 00 00 00 00 00 00 00 00 00 00 00*
0,85,0:37.146.727,128.900 us,4 B,,SP,55,Write Transaction,46 07 28 01
0,86,0:37.152.125,61.800 us,1 B,,SP,55,Read Transaction,00*
0,87,0:37.155.352,677.800 us,26 B,,SP,55,Write Transaction,14 00 03 53 E5 04 3D AF 05 46 24 05 A7 1A 00 00 00 00 00 00 FF BF 00 80 FC 2D
0,88,0:37.171.302,113.300 us,3 B,,SP,55,Read Transaction,00 00 18*
0,89,0:37.175.691,79.100 us,2 B,,SP,55,Write Transaction,00 00
0,90,0:37.181.041,86.700 us,2 B,,SP,55,Read Transaction,00 08*
0,91,0:37.181.403,79.000 us,2 B,,SP,55,Write Transaction,12 01
0,92,0:37.186.752,659.600 us,25 B,,SP,55,Read Transaction,00 00 00 00 00 02 58 00 00 00 00 01 00 00 00 00 00 00 00 00 00 00 00 02 16*
0,93,0:37.195.560,676.800 us,26 B,,SP,55,Write Transaction,14 00 03 4F 81 04 38 35 05 44 1E 05 A6 3D 00 00 00 00 00 00 FF BF 00 80 FC 2D
0,94,0:37.211.495,113.600 us,3 B,,SP,55,Read Transaction,00 00 18*
0,95,0:37.215.886,79.200 us,2 B,,SP,55,Write Transaction,00 00
0,96,0:37.221.242,86.800 us,2 B,,SP,55,Read Transaction,00 08*
0,97,0:37.221.604,79.200 us,2 B,,SP,55,Write Transaction,12 01
0,98,0:37.226.958,659.400 us,25 B,,SP,55,Read Transaction,00 00 00 00 80 02 58 00 00 00 00 01 00 00 00 00 00 00 00 00 00 00 00 02 00*
0,99,0:37.234.931,104.000 us,3 B,,SP,55,Write Transaction,47 07 27
0,100,0:37.240.305,559.800 us,21 B,,SP,55,Read Transaction,00 80 46 00 00 00 80 46 00 00 00 00 00 00 00 00 00 00 00 00 00*
0,101,0:37.266.442,129.100 us,4 B,,SP,55,Write Transaction,46 07 28 01
0,102,0:37.271.845,61.700 us,1 B,,SP,55,Read Transaction,00*
0,103,0:37.275.098,676.900 us,26 B,,SP,55,Write Transaction,14 00 02 F1 F2 03 C8 6C 05 44 53 05 A7 14 00 00 00 00 00 00 FF BF 00 80 FC 2D
0,104,0:37.291.037,113.400 us,3 B,,SP,55,Read Transaction,00 00 18*
0,105,0:37.295.429,79.100 us,2 B,,SP,55,Write Transaction,00 00
0,106,0:37.300.778,86.700 us,2 B,,SP,55,Read Transaction,00 08*
0,107,0:37.301.139,79.100 us,2 B,,SP,55,Write Transaction,12 01
0,108,0:37.306.488,659.100 us,25 B,,SP,55,Read Transaction,00 00 00 00 00 02 58 00 00 00 00 01 00 00 00 00 00 00 00 00 00 00 00 02 16*
0,109,0:37.315.283,676.500 us,26 B,,SP,55,Write Transaction,14 00 02 F4 60 03 D0 0F 05 45 C0 05 A8 51 00 00 00 00 00 00 FF BF 00 80 FC 2D
0,110,0:37.331.227,113.600 us,3 B,,SP,55,Read Transaction,00 00 18*
0,111,0:37.335.617,79.000 us,2 B,,SP,55,Write Transaction,00 00
0,112,0:37.340.970,86.800 us,2 B,,SP,55,Read Transaction,00 08*
0,113,0:37.341.333,79.200 us,2 B,,SP,55,Write Transaction,12 01
0,114,0:37.346.686,660.400 us,25 B,,SP,55,Read Transaction,00 00 00 00 80 02 58 00 00 00 00 01 00 00 00 00 00 00 00 00 00 00 00 02 00*
0,115,0:37.354.674,104.100 us,3 B,,SP,55,Write Transaction,47 07 27
0,116,0:37.360.053,559.700 us,21 B,,SP,55,Read Transaction,00 80 41 00 00 00 80 41 00 00 00 00 00 00 00 00 00 00 00 00 00*
0,117,0:37.386.113,128.900 us,4 B,,SP,55,Write Transaction,46 07 28 01
0,118,0:37.391.514,61.800 us,1 B,,SP,55,Read Transaction,00*
0,119,0:37.394.814,676.800 us,26 B,,SP,55,Write Transaction,14 00 02 95 9B 03 58 33 05 45 FE 05 A9 0A 00 00 00 00 00 00 FF BF 00 80 FC 2D
0,120,0:37.410.750,113.200 us,3 B,,SP,55,Read Transaction,00 00 18*
0,121,0:37.415.140,79.100 us,2 B,,SP,55,Write Transaction,00 00
0,122,0:37.420.492,86.800 us,2 B,,SP,55,Read Transaction,00 08*
0,123,0:37.420.855,79.200 us,2 B,,SP,55,Write Transaction,12 01
0,124,0:37.426.207,659.600 us,25 B,,SP,55,Read Transaction,00 00 00 00 00 02 58 00 00 00 00 01 00 00 00 00 00 00 00 00 00 00 00 02 16*
0,125,0:37.435.018,677.700 us,26 B,,SP,55,Write Transaction,14 00 02 96 FD 03 5A E4 05 47 40 05 AA 5A 00 00 00 00 00 00 FF BF 00 80 FC 2D
0,126,0:37.450.964,113.600 us,3 B,,SP,55,Read Transaction,00 00 18*
0,127,0:37.455.354,79.000 us,2 B,,SP,55,Write Transaction,00 00
0,128,0:37.460.702,86.700 us,2 B,,SP,55,Read Transaction,00 08*
0,129,0:37.461.065,79.100 us,2 B,,SP,55,Write Transaction,12 01
0,130,0:37.466.412,659.500 us,25 B,,SP,55,Read Transaction,00 00 00 00 00 02 58 00 00 00 00 01 00 00 00 00 00 00 00 00 00 00 00 02 00*
0,131,0:37.475.437,677.600 us,26 B,,SP,55,Write Transaction,14 00 02 99 41 03 60 20 05 48 B6 05 AB 2F 00 00 00 00 00 00 FF BF 00 80 FC 2D
0,132,0:37.491.380,113.600 us,3 B,,SP,55,Read Transaction,00 00 18*
0,133,0:37.495.771,79.100 us,2 B,,SP,55,Write Transaction,00 00
0,134,0:37.501.120,86.600 us,2 B,,SP,55,Read Transaction,00 08*
0,135,0:37.501.481,79.100 us,2 B,,SP,55,Write Transaction,12 01
0,136,0:37.506.831,659.600 us,25 B,,SP,55,Read Transaction,00 00 00 00 00 02 58 00 00 00 00 01 00 00 00 00 00 00 00 00 00 00 00 02 00*
0,137,0:37.515.439,676.900 us,26 B,,SP,55,Write Transaction,14 00 02 9B F2 03 66 BE 05 49 6D 05 AB 58 00 00 00 00 00 00 FF C1 00 81 FC 2C
0,138,0:37.531.376,116.300 us,3 B,,SP,55,Read Transaction,00 00 18*
0,139,0:37.535.774,79.100 us,2 B,,SP,55,Write Transaction,00 00
0,140,0:37.541.126,86.700 us,2 B,,SP,55,Read Transaction,00 08*
0,141,0:37.541.488,79.100 us,2 B,,SP,55,Write Transaction,12 01
0,142,0:37.546.835,660.500 us,25 B,,SP,55,Read Transaction,00 00 00 00 00 02 58 00 00 00 00 01 00 00 00 00 00 00 00 00 00 00 00 02 00*
0,143,0:37.555.313,676.800 us,26 B,,SP,55,Write Transaction,14 00 02 9E D3 03 6B A7 05 4B 26 05 AC B7 00 00 00 00 00 00 FF BC 00 85 FC 33
0,144,0:37.571.252,115.600 us,3 B,,SP,55,Read Transaction,00 00 18*
0,145,0:37.575.649,79.200 us,2 B,,SP,55,Write Transaction,00 00
0,146,0:37.580.998,86.700 us,2 B,,SP,55,Read Transaction,00 08*
0,147,0:37.581.360,79.100 us,2 B,,SP,55,Write Transaction,12 01
0,148,0:37.586.708,659.500 us,25 B,,SP,55,Read Transaction,00 00 00 00 00 02 58 00 00 00 00 01 00 00 00 00 00 00 00 00 00 00 00 02 00*
0,149,0:37.595.242,677.900 us,26 B,,SP,55,Write Transaction,14 00 02 A1 0D 03 6E 26 05 4D 03 05 AE 47 00 00 00 00 00 00 FF BC 00 85 FC 2E
0,150,0:37.611.187,115.500 us,3 B,,SP,55,Read Transaction,00 00 18*
0,151,0:37.615.585,79.200 us,2 B,,SP,55,Write Transaction,00 00
0,152,0:37.620.935,86.600 us,2 B,,SP,55,Read Transaction,00 08*
0,153,0:37.621.298,79.000 us,2 B,,SP,55,Write Transaction,12 01
0,154,0:37.626.647,659.500 us,25 B,,SP,55,Read Transaction,00 00 00 00 00 02 58 00 00 00 00 01 00 00 00 00 00 00 00 00 00 00 00 02 00*
0,155,0:37.635.141,677.500 us,26 B,,SP,55,Write Transaction,14 00 02 A2 EA 03 6E AF 05 4E B4 05 AF BD 00 00 00 00 00 00 FF AB 00 7C FC 2F
0,156,0:37.651.080,115.600 us,3 B,,SP,55,Read Transaction,00 00 18*
0,157,0:37.655.473,79.100 us,2 B,,SP,55,Write Transaction,00 00
0,158,0:37.660.897,86.700 us,2 B,,SP,55,Read Transaction,00 08*
0,159,0:37.661.263,79.100 us,2 B,,SP,55,Write Transaction,12 01
0,160,0:37.666.610,659.600 us,25 B,,SP,55,Read Transaction,00 00 00 00 80 02 58 00 00 00 00 01 00 00 00 00 00 00 00 00 00 00 00 02 00*
0,161,0:37.674.467,103.900 us,3 B,,SP,55,Write Transaction,47 07 27
0,162,0:37.679.847,560.700 us,21 B,,SP,55,Read Transaction,00 00 00 00 00 00 00 00 00 00 00 80 E9 00 00 00 00 00 00 00 00*
0,163,0:37.681.418,129.100 us,4 B,,SP,55,Write Transaction,46 07 28 01
0,164,0:37.686.816,61.700 us,1 B,,SP,55,Read Transaction,00*
0,165,0:37.714.840,676.800 us,26 B,,SP,55,Write Transaction,14 00 02 A7 A8 03 76 93 06 8A 9F 05 B2 48 00 00 00 00 00 00 FF BD 00 7E FC 31
0,166,0:37.730.776,115.600 us,3 B,,SP,55,Read Transaction,00 00 18*
0,167,0:37.735.170,79.000 us,2 B,,SP,55,Write Transaction,00 00
0,168,0:37.740.521,86.700 us,2 B,,SP,55,Read Transaction,00 08*
0,169,0:37.740.883,79.000 us,2 B,,SP,55,Write Transaction,12 01
0,170,0:37.746.232,659.600 us,25 B,,SP,55,Read Transaction,00 00 00 00 00 02 58 00 00 00 00 01 00 00 00 00 00 00 00 00 00 00 00 02 1B*
0,171,0:37.754.883,677.300 us,26 B,,SP,55,Write Transaction,14 00 02 AA 27 03 7A 0D 06 8C ED 05 B4 0A 00 00 00 00 00 00 FF C4 00 7D FC 31
0,172,0:37.770.824,115.600 us,3 B,,SP,55,Read Transaction,00 00 18*
0,173,0:37.775.217,79.100 us,2 B,,SP,55,Write Transaction,00 00
0,174,0:37.780.566,86.700 us,2 B,,SP,55,Read Transaction,00 08*
0,175,0:37.780.927,79.100 us,2 B,,SP,55,Write Transaction,12 01
0,176,0:37.786.277,659.600 us,25 B,,SP,55,Read Transaction,00 00 00 00 00 02 58 00 00 00 00 01 00 00 00 00 00 00 00 00 00 00 00 02 00*
0,177,0:37.794.777,676.800 us,26 B,,SP,55,Write Transaction,14 00 02 AC 09 03 7C 57 06 8D 6F 05 B4 45 00 00 00 00 00 00 FF C0 00 81 FC 2F
0,178,0:37.810.715,115.600 us,3 B,,SP,55,Read Transaction,00 00 18*
0,179,0:37.815.107,79.100 us,2 B,,SP,55,Write Transaction,00 00
0,180,0:37.820.458,86.700 us,2 B,,SP,55,Read Transaction,00 08*
0,181,0:37.820.820,79.100 us,2 B,,SP,55,Write Transaction,12 01
0,182,0:37.826.168,659.200 us,25 B,,SP,55,Read Transaction,00 00 00 00 00 02 58 00 00 00 00 01 00 00 00 00 00 00 00 00 00 00 00 02 00*
0,183,0:37.834.710,676.900 us,26 B,,SP,55,Write Transaction,14 00 02 AD D4 03 7F A6 06 8E 60 05 B4 EC 00 00 00 00 00 00 FF C3 00 80 FC 34
0,184,0:37.850.646,115.600 us,3 B,,SP,55,Read Transaction,00 00 18*
0,185,0:37.855.040,79.100 us,2 B,,SP,55,Write Transaction,00 00
0,186,0:37.860.394,86.800 us,2 B,,SP,55,Read Transaction,00 08*
0,187,0:37.860.755,79.200 us,2 B,,SP,55,Write Transaction,12 01
0,188,0:37.866.108,660.500 us,25 B,,SP,55,Read Transaction,00 00 00 00 00 02 58 00 00 00 00 01 00 00 00 00 00 00 00 00 00 00 00 02 00*
0,189,0:37.874.644,676.800 us,26 B,,SP,55,Write Transaction,14 00 02 B0 DA 03 84 A9 06 91 47 05 B6 DF 00 00 00 00 00 00 FF BF 00 85 FC 33
0,190,0:37.890.586,115.600 us,3 B,,SP,55,Read Transaction,00 00 18*
0,191,0:37.894.977,79.000 us,2 B,,SP,55,Write Transaction,00 00
0,192,0:37.900.327,86.700 us,2 B,,SP,55,Read Transaction,00 08*
0,193,0:37.900.689,79.100 us,2 B,,SP,55,Write Transaction,12 01
0,194,0:37.906.039,659.600 us,25 B,,SP,55,Read Transaction,00 00 00 00 00 02 58 00 00 00 00 01 00 00 00 00 00 00 00 00 00 00 00 02 00*
0,195,0:37.914.522,676.700 us,26 B,,SP,55,Write Transaction,14 00 02 B3 CC 03 89 17 06 94 F8 05 B9 66 00 00 00 00 00 00 FF BF 00 7E FC 31
0,196,0:37.930.462,116.100 us,3 B,,SP,55,Read Transaction,00 00 18*
0,197,0:37.934.856,79.100 us,2 B,,SP,55,Write Transaction,00 00
0,198,0:37.940.204,86.700 us,2 B,,SP,55,Read Transaction,00 08*
0,199,0:37.940.565,79.100 us,2 B,,SP,55,Write Transaction,12 01
0,200,0:37.945.916,659.400 us,25 B,,SP,55,Read Transaction,00 00 00 00 00 02 58 00 00 00 00 01 00 00 00 00 00 00 00 00 00 00 00 02 00*
0,201,0:37.954.447,677.800 us,26 B,,SP,55,Write Transaction,14 00 02 B6 0F 03 8C C3 06 95 F9 05 B9 C6 00 00 00 00 00 00 FF B9 00 83 FC 2E
0,202,0:37.970.398,115.600 us,3 B,,SP,55,Read Transaction,00 00 18*
0,203,0:37.974.790,79.100 us,2 B,,SP,55,Write Transaction,00 00
0,204,0:37.980.140,86.600 us,2 B,,SP,55,Read Transaction,00 08*
0,205,0:37.980.503,79.000 us,2 B,,SP,55,Write Transaction,12 01
0,206,0:37.985.855,659.600 us,25 B,,SP,55,Read Transaction,00 00 00 00 00 02 58 00 00 00 00 01 00 00 00 00 00 00 00 00 00 00 00 02 00*
0,207,0:37.994.389,676.500 us,26 B,,SP,55,Write Transaction,14 00 02 B3 FA 03 88 71 06 90 0E 05 B6 98 00 00 00 00 00 00 FF BB 00 80 FC 32
0,208,0:38.010.328,115.500 us,3 B,,SP,55,Read Transaction,00 00 18*
0,209,0:38.014.720,79.000 us,2 B,,SP,55,Write Transaction,00 00
0,210,0:38.020.071,86.700 us,2 B,,SP,55,Read Transaction,00 08*
0,211,0:38.020.433,79.100 us,2 B,,SP,55,Write Transaction,12 01
0,212,0:38.025.781,660.500 us,25 B,,SP,55,Read Transaction,00 00 00 00 00 02 58 00 00 00 00 01 00 00 00 00 00 00 00 00 00 00 00 02 00*
0,213,0:38.034.238,676.600 us,26 B,,SP,55,Write Transaction,14 00 02 AA B1 03 76 AA 06 86 4D 05 B2 25 00 00 00 00 00 00 FF C3 00 7B FC 30
0,214,0:38.050.175,115.500 us,3 B,,SP,55,Read Transaction,00 00 18*
0,215,0:38.054.566,79.000 us,2 B,,SP,55,Write Transaction,00 00
0,216,0:38.059.918,86.800 us,2 B,,SP,55,Read Transaction,00 08*
0,217,0:38.060.281,79.100 us,2 B,,SP,55,Write Transaction,12 01
0,218,0:38.065.638,660.500 us,25 B,,SP,55,Read Transaction,00 00 00 00 00 02 58 00 00 00 00 01 00 00 00 00 00 00 00 00 00 00 00 02 00*
0,219,0:38.074.227,676.600 us,26 B,,SP,55,Write Transaction,14 00 02 A0 A5 03 64 9D 06 7F 19 05 AF 32 00 00 00 00 00 00 FF BF 00 7E FC 32
0,220,0:38.090.166,115.500 us,3 B,,SP,55,Read Transaction,00 00 18*
0,221,0:38.094.557,79.100 us,2 B,,SP,55,Write Transaction,00 00
0,222,0:38.099.906,86.700 us,2 B,,SP,55,Read Transaction,00 08*
0,223,0:38.100.269,79.000 us,2 B,,SP,55,Write Transaction,12 01
0,224,0:38.105.616,659.100 us,25 B,,SP,55,Read Transaction,00 00 00 00 00 02 58 00 00 00 00 01 00 00 00 00 00 00 00 00 00 00 00 02 00*
0,225,0:38.114.054,676.700 us,26 B,,SP,55,Write Transaction,14 00 02 9B 1A 03 5A C9 06 7B C3 05 AE 21 00 00 00 00 00 00 FF C3 00 8E FC 2C
0,226,0:38.129.990,115.500 us,3 B,,SP,55,Read Transaction,00 00 18*
0,227,0:38.134.383,79.100 us,2 B,,SP,55,Write Transaction,00 00
0,228,0:38.139.731,86.700 us,2 B,,SP,55,Read Transaction,00 08*
0,229,0:38.140.093,79.100 us,2 B,,SP,55,Write Transaction,12 01
0,230,0:38.145.443,659.600 us,25 B,,SP,55,Read Transaction,00 00 00 00 00 02 58 00 00 00 00 01 00 00 00 00 00 00 00 00 00 00 00 02 00*
0,231,0:38.154.061,677.400 us,26 B,,SP,55,Write Transaction,14 00 02 97 58 03 56 A8 06 79 43 05 AD 48 00 00 00 00 00 00 FF BF 00 80 FC 37
0,232,0:38.170.009,115.500 us,3 B,,SP,55,Read Transaction,00 00 18*
0,233,0:38.174.404,79.200 us,2 B,,SP,55,Write Transaction,00 00
0,234,0:38.179.755,86.600 us,2 B,,SP,55,Read Transaction,00 08*
0,235,0:38.180.118,79.100 us,2 B,,SP,55,Write Transaction,12 01
0,236,0:38.185.470,660.400 us,25 B,,SP,55,Read Transaction,00 00 00 00 00 02 58 00 00 00 00 01 00 00 00 00 00 00 00 00 00 00 00 02 00*
0,237,0:38.193.875,676.800 us,26 B,,SP,55,Write Transaction,14 00 02 95 67 03 57 3D 06 77 F0 05 AC EF 00 00 00 00 00 00 FF BF 00 84 FC 2C
0,238,0:38.209.821,115.600 us,3 B,,SP,55,Read Transaction,00 00 18*
0,239,0:38.214.215,79.000 us,2 B,,SP,55,Write Transaction,00 00
0,240,0:38.219.564,86.600 us,2 B,,SP,55,Read Transaction,00 08*
0,241,0:38.219.925,79.100 us,2 B,,SP,55,Write Transaction,12 01
0,242,0:38.225.274,659.500 us,25 B,,SP,55,Read Transaction,00 00 00 00 00 02 58 00 00 00 00 01 00 00 00 00 00 00 00 00 00 00 00 02 00*
0,243,0:38.233.856,676.800 us,26 B,,SP,55,Write Transaction,14 00 02 96 67 03 5B 6D 06 79 04 05 AD B1 00 00 00 00 00 00 FF BE 00 7C FC 2E
0,244,0:38.249.794,115.500 us,3 B,,SP,55,Read Transaction,00 00 18*
0,245,0:38.254.185,79.100 us,2 B,,SP,55,Write Transaction,00 00
0,246,0:38.259.535,86.700 us,2 B,,SP,55,Read Transaction,00 08*
0,247,0:38.259.898,79.000 us,2 B,,SP,55,Write Transaction,12 01
0,248,0:38.265.248,659.600 us,25 B,,SP,55,Read Transaction,00 00 00 00 00 02 58 00 00 00 00 01 00 00 00 00 00 00 00 00 00 00 00 02 00*
0,249,0:38.273.728,676.900 us,26 B,,SP,55,Write Transaction,14 00 02 98 44 03 5F C9 06 79 EA 05 AE 4C 00 00 00 00 00 00 FF BC 00 80 FC 2B
0,250,0:38.289.674,115.500 us,3 B,,SP,55,Read Transaction,00 00 18*
0,251,0:38.294.068,79.000 us,2 B,,SP,55,Write Transaction,00 00
0,252,0:38.299.416,86.600 us,2 B,,SP,55,Read Transaction,00 08*
0,253,0:38.299.779,79.100 us,2 B,,SP,55,Write Transaction,12 01
0,254,0:38.305.128,659.500 us,25 B,,SP,55,Read Transaction,00 00 00 00 00 02 58 00 00 00 00 01 00 00 00 00 00 00 00 00 00 00 00 02 00*
0,255,0:38.313.657,676.900 us,26 B,,SP,55,Write Transaction,14 00 02 9A 05 03 63 5E 06 7B 2D 05 AF 3A 00 00 00 00 00 00 FF C2 00 87 FC 30
0,256,0:38.329.595,116.100 us,3 B,,SP,55,Read Transaction,00 00 18*
0,257,0:38.333.990,79.100 us,2 B,,SP,55,Write Transaction,00 00
0,258,0:38.339.340,86.600 us,2 B,,SP,55,Read Transaction,00 08*
0,259,0:38.339.702,79.100 us,2 B,,SP,55,Write Transaction,12 01
0,260,0:38.345.054,660.400 us,25 B,,SP,55,Read Transaction,00 00 00 00 00 02 58 00 00 00 00 01 00 00 00 00 00 00 00 00 00 00 00 02 00*
0,261,0:38.353.593,676.800 us,26 B,,SP,55,Write Transaction,14 00 02 9B 23 03 64 BB 06 7C B4 05 B0 8E 00 00 00 00 00 00 FF BC 00 88 FC 33
0,262,0:38.369.531,115.500 us,3 B,,SP,55,Read Transaction,00 00 18*
0,263,0:38.373.933,79.100 us,2 B,,SP,55,Write Transaction,00 00
0,264,0:38.379.283,86.700 us,2 B,,SP,55,Read Transaction,00 08*
0,265,0:38.379.645,79.100 us,2 B,,SP,55,Write Transaction,12 01
0,266,0:38.384.998,660.600 us,25 B,,SP,55,Read Transaction,00 00 00 00 00 02 58 00 00 00 00 01 00 00 00 00 00 00 00 00 00 00 00 02 00*
0,267,0:38.393.472,676.900 us,26 B,,SP,55,Write Transaction,14 00 02 9C 8D 03 66 D9 06 7D 9A 05 B1 2F 00 00 00 00 00 00 FF C1 00 83 FC 2F
0,268,0:38.409.409,115.600 us,3 B,,SP,55,Read Transaction,00 00 18*
0,269,0:38.413.802,79.000 us,2 B,,SP,55,Write Transaction,00 00
0,270,0:38.419.151,86.700 us,2 B,,SP,55,Read Transaction,00 08*
0,271,0:38.419.513,79.000 us,2 B,,SP,55,Write Transaction,12 01
0,272,0:38.424.863,659.500 us,25 B,,SP,55,Read Transaction,00 00 00 00 00 02 58 00 00 00 00 01 00 00 00 00 00 00 00 00 00 00 00 02 00*
0,273,0:38.433.395,676.800 us,26 B,,SP,55,Write Transaction,14 00 02 9F 24 03 6C 71 06 80 3A 05 B2 E0 00 00 00 00 00 00 FF BD 00 83 FC 30
0,274,0:38.449.358,115.600 us,3 B,,SP,55,Read Transaction,00 00 18*
0,275,0:38.453.754,79.100 us,2 B,,SP,55,Write Transaction,00 00
0,276,0:38.459.105,86.700 us,2 B,,SP,55,Read Transaction,00 08*
0,277,0:38.459.467,79.100 us,2 B,,SP,55,Write Transaction,12 01
0,278,0:38.464.818,660.500 us,25 B,,SP,55,Read Transaction,00 00 00 00 00 02 58 00 00 00 00 01 00 00 00 00 00 00 00 00 00 00 00 02 00*
0,279,0:38.473.301,676.900 us,26 B,,SP,55,Write Transaction,14 00 02 A2 89 03 73 1C 06 83 33 05 B4 6D 00 00 00 00 00 00 FF C0 00 82 FC 35
0,280,0:38.489.238,115.600 us,3 B,,SP,55,Read Transaction,00 00 18*
0,281,0:38.493.633,79.100 us,2 B,,SP,55,Write Transaction,00 00
0,282,0:38.498.982,86.700 us,2 B,,SP,55,Read Transaction,00 08*
0,283,0:38.499.344,79.100 us,2 B,,SP,55,Write Transaction,12 01
0,284,0:38.504.701,659.800 us,25 B,,SP,55,Read Transaction,00 00 00 00 00 02 58 00 00 00 00 01 00 00 00 00 00 00 00 00 00 00 00 02 00*
0,285,0:38.513.253,676.700 us,26 B,,SP,55,Write Transaction,14 00 02 A6 32 03 7A 13 06 85 93 05 B5 BC 00 00 00 00 00 00 FF C0 00 81 FC 31
0,286,0:38.529.196,115.500 us,3 B,,SP,55,Read Transaction,00 00 18*
0,287,0:38.533.588,79.200 us,2 B,,SP,55,Write Transaction,00 00
0,288,0:38.538.942,86.700 us,2 B,,SP,55,Read Transaction,00 08*
0,289,0:38.539.305,79.000 us,2 B,,SP,55,Write Transaction,12 01
0,290,0:38.544.652,659.500 us,25 B,,SP,55,Read Transaction,00 00 00 00 00 02 58 00 00 00 00 01 00 00 00 00 00 00 00 00 00 00 00 02 00*
0,291,0:38.553.135,676.800 us,26 B,,SP,55,Write Transaction,14 00 02 A9 D0 03 7F 31 06 89 8D 05 B8 65 00 00 00 00 00 00 FF BD 00 86 FC 33
0,292,0:38.569.078,116.200 us,3 B,,SP,55,Read Transaction,00 00 18*
0,293,0:38.573.472,79.100 us,2 B,,SP,55,Write Transaction,00 00
0,294,0:38.578.821,86.700 us,2 B,,SP,55,Read Transaction,00 08*
0,295,0:38.579.182,79.100 us,2 B,,SP,55,Write Transaction,12 01
0,296,0:38.584.535,660.500 us,25 B,,SP,55,Read Transaction,00 00 00 00 00 02 58 00 00 00 00 01 00 00 00 00 00 00 00 00 00 00 00 02 00*
0,297,0:38.593.022,676.800 us,26 B,,SP,55,Write Transaction,14 00 02 AD C3 03 85 0D 06 8D 72 05 BA AF 00 00 00 00 00 00 FF BD 00 81 FC 31
0,298,0:38.608.962,115.500 us,3 B,,SP,55,Read Transaction,00 00 18*
0,299,0:38.613.352,79.000 us,2 B,,SP,55,Write Transaction,00 00
0,300,0:38.618.702,86.700 us,2 B,,SP,55,Read Transaction,00 08*
0,301,0:38.619.065,79.000 us,2 B,,SP,55,Write Transaction,12 01
0,302,0:38.624.413,659.400 us,25 B,,SP,55,Read Transaction,00 00 00 00 00 02 58 00 00 00 00 01 00 00 00 00 00 00 00 00 00 00 00 02 00*
0,303,0:38.632.998,676.800 us,26 B,,SP,55,Write Transaction,14 00 02 B1 96 03 8B 42 06 90 B5 05 BC 95 00 00 00 00 00 00 FF BA 00 82 FC 34
0,304,0:38.648.937,115.600 us,3 B,,SP,55,Read Transaction,00 00 18*
0,305,0:38.653.336,79.200 us,2 B,,SP,55,Write Transaction,00 00
0,306,0:38.658.690,86.600 us,2 B,,SP,55,Read Transaction,00 08*
0,307,0:38.659.054,79.100 us,2 B,,SP,55,Write Transaction,12 01
0,308,0:38.664.400,659.600 us,25 B,,SP,55,Read Transaction,00 00 00 00 00 02 58 00 00 00 00 01 00 00 00 00 00 00 00 00 00 00 00 02 00*
0,309,0:38.672.844,676.900 us,26 B,,SP,55,Write Transaction,14 00 02 B5 7F 03 90 DD 06 94 BD 05 BF 43 00 00 00 00 00 00 FF BF 00 7D FC 2F
0,310,0:38.688.782,115.500 us,3 B,,SP,55,Read Transaction,00 00 18*
0,311,0:38.693.175,79.200 us,2 B,,SP,55,Write Transaction,00 00
0,312,0:38.698.553,86.700 us,2 B,,SP,55,Read Transaction,00 08*
0,313,0:38.698.916,79.000 us,2 B,,SP,55,Write Transaction,12 01
0,314,0:38.704.266,659.500 us,25 B,,SP,55,Read Transaction,00 00 00 00 00 02 58 00 00 00 00 01 00 00 00 00 00 00 00 00 00 00 00 02 00*
0,315,0:38.712.808,676.900 us,26 B,,SP,55,Write Transaction,14 00 02 B9 8E 03 97 47 06 98 BB 05 C1 8D 00 00 00 00 00 00 FF BC 00 82 FC 2F
0,316,0:38.728.799,116.100 us,3 B,,SP,55,Read Transaction,00 00 18*
0,317,0:38.733.190,79.100 us,2 B,,SP,55,Write Transaction,00 00
0,318,0:38.738.541,86.700 us,2 B,,SP,55,Read Transaction,00 08*
0,319,0:38.738.904,79.200 us,2 B,,SP,55,Write Transaction,12 01
0,320,0:38.744.259,660.300 us,25 B,,SP,55,Read Transaction,00 00 00 00 00 02 58 00 00 00 00 01 00 00 00 00 00 00 00 00 00 00 00 02 00*
0,321,0:38.752.672,677.800 us,26 B,,SP,55,Write Transaction,14 00 02 BC B2 03 9C B4 06 9B 34 05 C2 EA 00 00 00 00 00 00 FF C2 00 87 FC 2E
0,322,0:38.768.613,115.500 us,3 B,,SP,55,Read Transaction,00 00 18*
0,323,0:38.773.005,79.000 us,2 B,,SP,55,Write Transaction,00 00
0,324,0:38.778.355,86.600 us,2 B,,SP,55,Read Transaction,00 08*
0,325,0:38.778.716,79.000 us,2 B,,SP,55,Write Transaction,12 01
0,326,0:38.784.065,659.600 us,25 B,,SP,55,Read Transaction,00 00 00 00 00 02 58 00 00 00 00 01 00 00 00 00 00 00 00 00 00 00 00 02 00*
0,327,0:38.792.627,676.900 us,26 B,,SP,55,Write Transaction,14 00 02 C0 28 03 A2 70 06 9D FD 05 C4 9D 00 00 00 00 00 00 FF C3 00 80 FC 31
0,328,0:38.808.566,115.500 us,3 B,,SP,55,Read Transaction,00 00 18*
0,329,0:38.812.959,79.100 us,2 B,,SP,55,Write Transaction,00 00
0,330,0:38.818.311,86.700 us,2 B,,SP,55,Read Transaction,00 08*
0,331,0:38.818.673,79.100 us,2 B,,SP,55,Write Transaction,12 01
0,332,0:38.824.024,660.500 us,25 B,,SP,55,Read Transaction,00 00 00 00 00 02 58 00 00 00 00 01 00 00 00 00 00 00 00 00 00 00 00 02 00*
0,333,0:38.832.520,676.800 us,26 B,,SP,55,Write Transaction,14 00 02 C3 C1 03 A9 1B 06 A0 B9 05 C5 E0 00 00 00 00 00 00 FF BC 00 7F FC 31
0,334,0:38.848.454,115.500 us,3 B,,SP,55,Read Transaction,00 00 18*
0,335,0:38.852.846,79.000 us,2 B,,SP,55,Write Transaction,00 00
0,336,0:38.858.195,86.600 us,2 B,,SP,55,Read Transaction,00 08*
0,337,0:38.858.556,79.100 us,2 B,,SP,55,Write Transaction,12 01
0,338,0:38.863.907,659.600 us,25 B,,SP,55,Read Transaction,00 00 00 00 00 02 58 00 00 00 00 01 00 00 00 00 00 00 00 00 00 00 00 02 00*
0,339,0:38.872.741,676.800 us,26 B,,SP,55,Write Transaction,14 00 02 C6 46 03 AE 16 06 A1 A5 05 C6 40 00 00 00 00 00 00 FF BD 00 85 FC 30
0,340,0:38.888.680,115.600 us,3 B,,SP,55,Read Transaction,00 00 18*
0,341,0:38.893.071,79.200 us,2 B,,SP,55,Write Transaction,00 00
0,342,0:38.898.428,86.800 us,2 B,,SP,55,Read Transaction,00 08*
0,343,0:38.898.791,79.100 us,2 B,,SP,55,Write Transaction,12 01
0,344,0:38.904.139,659.500 us,25 B,,SP,55,Read Transaction,00 00 00 00 00 02 58 00 00 00 00 01 00 00 00 00 00 00 00 00 00 00 00 02 00*
0,345,0:38.912.354,676.900 us,26 B,,SP,55,Write Transaction,14 00 02 C9 21 03 B1 F5 06 A4 D5 05 C8 70 00 00 00 00 00 00 FF C2 00 83 FC 2E
0,346,0:38.928.296,115.500 us,3 B,,SP,55,Read Transaction,00 00 18*
0,347,0:38.932.689,79.100 us,2 B,,SP,55,Write Transaction,00 00
0,348,0:38.938.038,86.600 us,2 B,,SP,55,Read Transaction,00 08*
0,349,0:38.938.399,79.000 us,2 B,,SP,55,Write Transaction,12 01
0,350,0:38.943.757,659.600 us,25 B,,SP,55,Read Transaction,00 00 00 00 00 02 58 00 00 00 00 01 00 00 00 00 00 00 00 00 00 00 00 02 00*
0,351,0:38.952.237,676.800 us,26 B,,SP,55,Write Transaction,14 00 02 CA DC 03 B3 DD 06 A3 DF 05 C7 12 00 00 00 00 00 00 FF BB 00 7A FC 3B
0,352,0:38.968.181,115.600 us,3 B,,SP,55,Read Transaction,00 00 18*
0,353,0:38.972.574,79.000 us,2 B,,SP,55,Write Transaction,00 00
0,354,0:38.977.923,86.600 us,2 B,,SP,55,Read Transaction,00 08*
0,355,0:38.978.286,79.000 us,2 B,,SP,55,Write Transaction,12 01
0,356,0:38.983.636,659.500 us,25 B,,SP,55,Read Transaction,00 00 00 00 00 02 58 00 00 00 00 01 00 00 00 00 00 00 00 00 00 00 00 02 00*
0,357,0:38.992.209,676.800 us,26 B,,SP,55,Write Transaction,14 00 02 C6 B9 03 AB C6 06 99 29 05 C1 1A 00 00 00 00 00 00 FF C1 00 84 FC 2B
0,358,0:39.008.147,115.700 us,3 B,,SP,55,Read Transaction,00 00 18*
0,359,0:39.012.546,79.200 us,2 B,,SP,55,Write Transaction,00 00
0,360,0:39.017.897,86.700 us,2 B,,SP,55,Read Transaction,00 08*
0,361,0:39.018.260,79.100 us,2 B,,SP,55,Write Transaction,12 01
0,362,0:39.023.608,659.600 us,25 B,,SP,55,Read Transaction,00 00 00 00 00 02 58 00 00 00 00 01 00 00 00 00 00 00 00 00 00 00 00 02 00*
0,363,0:39.032.060,676.800 us,26 B,,SP,55,Write Transaction,14 00 02 BD 0A 03 9C 21 06 8E 0A 05 BB B5 00 00 00 00 00 00 FF C8 00 7E FC 27
0,364,0:39.047.998,115.600 us,3 B,,SP,55,Read Transaction,00 00 18*
0,365,0:39.052.389,79.100 us,2 B,,SP,55,Write Transaction,00 00
0,366,0:39.057.739,86.700 us,2 B,,SP,55,Read Transaction,00 08*
0,367,0:39.058.100,79.100 us,2 B,,SP,55,Write Transaction,12 01
0,368,0:39.063.452,660.600 us,25 B,,SP,55,Read Transaction,00 00 00 00 00 02 58 00 00 00 00 01 00 00 00 00 00 00 00 00 00 00 00 02 00*
0,369,0:39.072.044,677.100 us,26 B,,SP,55,Write Transaction,14 00 02 B2 B4 03 8B B9 06 84 ED 05 B7 13 00 00 00 00 00 00 FF C2 00 7E FC 36
0,370,0:39.087.985,115.500 us,3 B,,SP,55,Read Transaction,00 00 18*
0,371,0:39.092.376,79.000 us,2 B,,SP,55,Write Transaction,00 00
0,372,0:39.097.726,86.700 us,2 B,,SP,55,Read Transaction,00 08*
0,373,0:39.098.088,79.100 us,2 B,,SP,55,Write Transaction,12 01
0,374,0:39.103.436,659.600 us,25 B,,SP,55,Read Transaction,00 00 00 00 00 02 58 00 00 00 00 01 00 00 00 00 00 00 00 00 00 00 00 02 00*
0,375,0:39.111.910,676.900 us,26 B,,SP,55,Write Transaction,14 00 02 AB 9C 03 7D 31 06 7E 37 05 B3 52 00 00 00 00 00 00 FF C1 00 83 FC 2F
0,376,0:39.127.847,116.100 us,3 B,,SP,55,Read Transaction,00 00 18*
0,377,0:39.132.241,79.100 us,2 B,,SP,55,Write Transaction,00 00
0,378,0:39.137.590,86.600 us,2 B,,SP,55,Read Transaction,00 08*
0,379,0:39.137.953,79.200 us,2 B,,SP,55,Write Transaction,12 01
0,380,0:39.143.309,660.100 us,25 B,,SP,55,Read Transaction,00 00 00 00 00 02 58 00 00 00 00 01 00 00 00 00 00 00 00 00 00 00 00 02 00*
0,381,0:39.151.866,676.800 us,26 B,,SP,55,Write Transaction,14 00 02 A7 5B 03 74 20 06 7A 81 05 B1 99 00 00 00 00 00 00 FF BE 00 7D FC 3B
0,382,0:39.167.806,115.600 us,3 B,,SP,55,Read Transaction,00 00 18*
0,383,0:39.172.197,79.000 us,2 B,,SP,55,Write Transaction,00 00
0,384,0:39.177.547,86.700 us,2 B,,SP,55,Read Transaction,00 08*
0,385,0:39.177.911,79.100 us,2 B,,SP,55,Write Transaction,12 01
0,386,0:39.183.259,659.600 us,25 B,,SP,55,Read Transaction,00 00 00 00 00 02 58 00 00 00 00 01 00 00 00 00 00 00 00 00 00 00 00 02 00*
0,387,0:39.191.735,676.900 us,26 B,,SP,55,Write Transaction,14 00 02 A5 4C 03 71 92 06 79 AF 05 B1 D9 00 00 00 00 00 00 FF C2 00 83 FC 2E
0,388,0:39.207.674,115.600 us,3 B,,SP,55,Read Transaction,00 00 18*
0,389,0:39.212.068,79.000 us,2 B,,SP,55,Write Transaction,00 00
0,390,0:39.217.418,86.700 us,2 B,,SP,55,Read Transaction,00 08*
0,391,0:39.217.778,79.100 us,2 B,,SP,55,Write Transaction,12 01
0,392,0:39.223.129,659.600 us,25 B,,SP,55,Read Transaction,00 00 00 00 00 02 58 00 00 00 00 01 00 00 00 00 00 00 00 00 00 00 00 02 00*
0,393,0:39.231.670,676.900 us,26 B,,SP,55,Write Transaction,14 00 02 A6 9A 03 75 3E 06 7C 9B 05 B4 00 00 00 00 00 00 00 FF C5 00 84 FC 2C
0,394,0:39.247.609,115.500 us,3 B,,SP,55,Read Transaction,00 00 18*
0,395,0:39.252.001,79.000 us,2 B,,SP,55,Write Transaction,00 00
0,396,0:39.257.351,86.600 us,2 B,,SP,55,Read Transaction,00 08*
0,397,0:39.257.714,79.100 us,2 B,,SP,55,Write Transaction,12 01
0,398,0:39.263.064,659.100 us,25 B,,SP,55,Read Transaction,00 00 00 00 00 02 58 00 00 00 00 01 00 00 00 00 00 00 00 00 00 00 00 02 00*
0,399,0:39.271.607,676.800 us,26 B,,SP,55,Write Transaction,14 00 02 A9 63 03 7D 17 06 7C 67 05 B3 22 00 00 00 00 00 00 FF C0 00 82 FC 30
0,400,0:39.287.551,115.700 us,3 B,,SP,55,Read Transaction,00 00 18*
0,401,0:39.291.943,79.200 us,2 B,,SP,55,Write Transaction,00 00
0,402,0:39.297.363,86.800 us,2 B,,SP,55,Read Transaction,00 08*
0,403,0:39.297.727,79.200 us,2 B,,SP,55,Write Transaction,12 01
0,404,0:39.303.084,660.500 us,25 B,,SP,55,Read Transaction,00 00 00 00 00 02 58 00 00 00 00 01 00 00 00 00 00 00 00 00 00 00 00 02 00*
0,405,0:39.311.507,676.900 us,26 B,,SP,55,Write Transaction,14 00 02 AB A8 03 83 E9 06 7C 41 05 B2 CE 00 00 00 00 00 00 FF C4 00 7E FC 2F
0,406,0:39.327.449,115.600 us,3 B,,SP,55,Read Transaction,00 00 18*
0,407,0:39.331.840,79.000 us,2 B,,SP,55,Write Transaction,00 00
0,408,0:39.337.194,86.800 us,2 B,,SP,55,Read Transaction,00 08*
0,409,0:39.337.557,79.100 us,2 B,,SP,55,Write Transaction,12 01
0,410,0:39.342.910,659.600 us,25 B,,SP,55,Read Transaction,00 00 00 00 00 02 58 00 00 00 00 01 00 00 00 00 00 00 00 00 00 00 00 02 00*
0,411,0:39.351.428,676.800 us,26 B,,SP,55,Write Transaction,14 00 02 AD D1 03 89 B3 06 7B 33 05 B1 88 00 00 00 00 00 00 FF C0 00 82 FC 34
0,412,0:39.367.389,115.500 us,3 B,,SP,55,Read Transaction,00 00 18*
0,413,0:39.371.781,79.000 us,2 B,,SP,55,Write Transaction,00 00
0,414,0:39.377.133,86.800 us,2 B,,SP,55,Read Transaction,00 08*
0,415,0:39.377.496,79.200 us,2 B,,SP,55,Write Transaction,12 01
0,416,0:39.382.851,660.500 us,25 B,,SP,55,Read Transaction,00 00 00 00 00 02 58 00 00 00 00 00 00 00 00 00 00 00 00 00 00 00 00 02 00*
0,417,0:39.391.324,676.800 us,26 B,,SP,55,Write Transaction,14 00 02 B0 9D 03 90 B8 06 78 86 05 AE DA 00 00 00 00 00 00 FF BE 00 7D FC 31
0,418,0:39.407.258,115.600 us,3 B,,SP,55,Read Transaction,00 00 18*
0,419,0:39.411.650,79.100 us,2 B,,SP,55,Write Transaction,00 00
0,420,0:39.416.999,86.700 us,2 B,,SP,55,Read Transaction,00 08*
0,421,0:39.417.360,79.100 us,2 B,,SP,55,Write Transaction,12 01
0,422,0:39.422.711,659.500 us,25 B,,SP,55,Read Transaction,00 00 00 00 00 02 58 00 00 00 00 00 00 00 00 00 00 00 00 00 00 00 00 02 00*
0,423,0:39.431.253,676.900 us,26 B,,SP,55,Write Transaction,14 00 02 B3 F0 03 99 04 06 78 08 05 AE 11 00 00 00 00 00 00 FF C0 00 82 FC 30
0,424,0:39.447.201,115.500 us,3 B,,SP,55,Read Transaction,00 00 18*
0,425,0:39.451.592,79.100 us,2 B,,SP,55,Write Transaction,00 00
0,426,0:39.456.941,86.600 us,2 B,,SP,55,Read Transaction,00 08*
0,427,0:39.457.304,79.100 us,2 B,,SP,55,Write Transaction,12 01
0,428,0:39.462.652,659.600 us,25 B,,SP,55,Read Transaction,00 00 00 00 00 02 58 00 00 00 00 00 00 00 00 00 00 00 00 00 00 00 00 02 00*
0,429,0:39.471.169,676.800 us,26 B,,SP,55,Write Transaction,14 00 02 B7 DC 03 A0 8F 06 7B E7 05 B0 64 00 00 00 00 00 00 FF BF 00 7E FC 34
0,430,0:39.487.114,115.600 us,3 B,,SP,55,Read Transaction,00 00 18*
0,431,0:39.491.507,79.100 us,2 B,,SP,55,Write Transaction,00 00
0,432,0:39.496.856,86.700 us,2 B,,SP,55,Read Transaction,00 08*
0,433,0:39.497.217,79.000 us,2 B,,SP,55,Write Transaction,12 01
0,434,0:39.502.567,659.800 us,25 B,,SP,55,Read Transaction,00 00 00 00 00 02 58 00 00 00 00 00 00 00 00 00 00 00 00 00 00 00 00 02 00*
0,435,0:39.511.073,676.800 us,26 B,,SP,55,Write Transaction,14 00 02 BB EC 03 A7 75 06 80 11 05 B2 A0 00 00 00 00 00 00 FF C1 00 84 FC 30
0,436,0:39.527.012,116.100 us,3 B,,SP,55,Read Transaction,00 00 18*
0,437,0:39.531.404,79.000 us,2 B,,SP,55,Write Transaction,00 00
0,438,0:39.536.755,86.600 us,2 B,,SP,55,Read Transaction,00 08*
0,439,0:39.537.118,79.000 us,2 B,,SP,55,Write Transaction,12 01
0,440,0:39.542.466,659.600 us,25 B,,SP,55,Read Transaction,00 00 00 00 00 02 58 00 00 00 00 00 00 00 00 00 00 00 00 00 00 00 00 02 00*
0,441,0:39.551.939,677.700 us,26 B,,SP,55,Write Transaction,14 00 02 BE F8 03 AC 9A 06 81 02 05 B2 A9 00 00 00 00 00 00 FF C2 00 7F FC 32
0,442,0:39.567.882,116.200 us,3 B,,SP,55,Read Transaction,00 00 18*
0,443,0:39.572.279,79.000 us,2 B,,SP,55,Write Transaction,00 00
0,444,0:39.577.660,86.700 us,2 B,,SP,55,Read Transaction,00 08*
0,445,0:39.578.023,79.000 us,2 B,,SP,55,Write Transaction,12 01
0,446,0:39.583.371,659.600 us,25 B,,SP,55,Read Transaction,00 00 00 00 00 02 58 00 00 00 00 00 00 00 00 00 00 00 00 00 00 00 00 02 00*
0,447,0:39.590.881,676.800 us,26 B,,SP,55,Write Transaction,14 00 02 C2 1E 03 B1 66 06 83 C7 05 B4 6C 00 00 00 00 00 00 FF C0 00 85 FC 2F
0,448,0:39.606.828,115.400 us,3 B,,SP,55,Read Transaction,00 00 18*
0,449,0:39.611.218,79.100 us,2 B,,SP,55,Write Transaction,00 00
0,450,0:39.616.568,86.700 us,2 B,,SP,55,Read Transaction,00 08*
0,451,0:39.616.930,79.100 us,2 B,,SP,55,Write Transaction,12 01
0,452,0:39.622.280,659.400 us,25 B,,SP,55,Read Transaction,00 00 00 00 00 02 58 00 00 00 00 00 00 00 00 00 00 00 00 00 00 00 00 02 00*
0,453,0:39.630.860,676.700 us,26 B,,SP,55,Write Transaction,14 00 02 C4 A8 03 B4 83 06 86 70 05 B6 1C 00 00 00 00 00 00 FF C4 00 85 FC 30
0,454,0:39.646.801,115.600 us,3 B,,SP,55,Read Transaction,00 00 18*
0,455,0:39.651.193,79.100 us,2 B,,SP,55,Write Transaction,00 00
0,456,0:39.656.544,86.700 us,2 B,,SP,55,Read Transaction,00 08*
0,457,0:39.656.906,79.100 us,2 B,,SP,55,Write Transaction,12 01
0,458,0:39.662.253,659.500 us,25 B,,SP,55,Read Transaction,00 00 00 00 00 02 58 00 00 00 00 00 00 00 00 00 00 00 00 00 00 00 00 02 00*
0,459,0:39.670.708,676.800 us,26 B,,SP,55,Write Transaction,14 00 02 C6 64 03 B6 81 06 84 3E 05 B3 FF 00 00 00 00 00 00 FF C6 00 7F FC 30
0,460,0:39.686.646,115.700 us,3 B,,SP,55,Read Transaction,00 00 18*
0,461,0:39.691.041,79.000 us,2 B,,SP,55,Write Transaction,00 00
0,462,0:39.696.391,86.700 us,2 B,,SP,55,Read Transaction,00 08*
0,463,0:39.696.753,79.100 us,2 B,,SP,55,Write Transaction,12 01
0,464,0:39.702.103,659.500 us,25 B,,SP,55,Read Transaction,00 00 00 00 00 02 58 00 00 00 00 00 00 00 00 00 00 00 00 00 00 00 00 02 00*
0,465,0:39.710.711,676.900 us,26 B,,SP,55,Write Transaction,14 00 02 C6 E0 03 B5 6B 06 81 A3 05 B2 67 00 00 00 00 00 00 FF C5 00 80 FC 2A
0,466,0:39.726.650,115.600 us,3 B,,SP,55,Read Transaction,00 00 18*
0,467,0:39.731.047,79.000 us,2 B,,SP,55,Write Transaction,00 00
0,468,0:39.736.397,86.600 us,2 B,,SP,55,Read Transaction,00 08*
0,469,0:39.736.760,79.100 us,2 B,,SP,55,Write Transaction,12 01
0,470,0:39.742.108,659.300 us,25 B,,SP,55,Read Transaction,00 00 00 00 00 02 58 00 00 00 00 00 00 00 00 00 00 00 00 00 00 00 00 02 00*
0,471,0:39.750.537,676.900 us,26 B,,SP,55,Write Transaction,14 00 02 C7 34 03 B4 4F 06 7F DC 05 B1 64 00 00 00 00 00 00 FF C1 00 88 FC 32
0,472,0:39.766.478,115.500 us,3 B,,SP,55,Read Transaction,00 00 18*
0,473,0:39.770.871,79.100 us,2 B,,SP,55,Write Transaction,00 00
0,474,0:39.776.220,86.600 us,2 B,,SP,55,Read Transaction,00 08*
0,475,0:39.776.581,79.100 us,2 B,,SP,55,Write Transaction,12 01
0,476,0:39.781.933,659.500 us,25 B,,SP,55,Read Transaction,00 00 00 00 00 02 58 00 00 00 00 00 00 00 00 00 00 00 00 00 00 00 00 02 00*
0,477,0:39.790.536,676.800 us,26 B,,SP,55,Write Transaction,14 00 02 C7 8F 03 B5 28 06 7D DB 05 AF 79 00 00 00 00 00 00 FF C6 00 85 FC 2F
0,478,0:39.806.477,115.600 us,3 B,,SP,55,Read Transaction,00 00 18*
0,479,0:39.810.868,79.100 us,2 B,,SP,55,Write Transaction,00 00
0,480,0:39.816.219,86.700 us,2 B,,SP,55,Read Transaction,00 08*
0,481,0:39.816.582,79.000 us,2 B,,SP,55,Write Transaction,12 01
0,482,0:39.821.930,659.500 us,25 B,,SP,55,Read Transaction,00 00 00 00 00 02 58 00 00 00 00 00 00 00 00 00 00 00 00 00 00 00 00 02 00*
0,483,0:39.830.384,676.800 us,26 B,,SP,55,Write Transaction,14 00 02 C8 3A 03 B6 C8 06 79 F5 05 AC 7C 00 00 00 00 00 00 FF C1 00 81 FC 2D
0,484,0:39.846.324,115.500 us,3 B,,SP,55,Read Transaction,00 00 18*
0,485,0:39.850.719,79.200 us,2 B,,SP,55,Write Transaction,00 00
0,486,0:39.856.069,86.700 us,2 B,,SP,55,Read Transaction,00 08*
0,487,0:39.856.431,79.100 us,2 B,,SP,55,Write Transaction,12 01
0,488,0:39.861.780,659.500 us,25 B,,SP,55,Read Transaction,00 00 00 00 00 02 58 00 00 00 00 00 00 00 00 00 00 00 00 00 00 00 00 02 00*
0,489,0:39.870.348,676.700 us,26 B,,SP,55,Write Transaction,14 00 02 C9 2A 03 B8 3D 06 79 AA 05 AC 6D 00 00 00 00 00 00 FF C2 00 7F FC 30
0,490,0:39.886.287,115.500 us,3 B,,SP,55,Read Transaction,00 00 18*
0,491,0:39.890.679,79.200 us,2 B,,SP,55,Write Transaction,00 00
0,492,0:39.896.036,86.600 us,2 B,,SP,55,Read Transaction,00 08*
0,493,0:39.896.399,79.100 us,2 B,,SP,55,Write Transaction,12 01
0,494,0:39.901.748,659.500 us,25 B,,SP,55,Read Transaction,00 00 00 00 00 02 58 00 00 00 00 00 00 00 00 00 00 00 00 00 00 00 00 02 00*
0,495,0:39.910.235,676.700 us,26 B,,SP,55,Write Transaction,14 00 02 CA F2 03 BB 59 06 7A 95 05 AC 8C 00 00 00 00 00 00 FF C0 00 84 FC 34
0,496,0:39.926.173,116.100 us,3 B,,SP,55,Read Transaction,00 00 18*
0,497,0:39.930.567,79.000 us,2 B,,SP,55,Write Transaction,00 00
0,498,0:39.935.914,86.600 us,2 B,,SP,55,Read Transaction,00 08*
0,499,0:39.936.275,79.100 us,2 B,,SP,55,Write Transaction,12 01
0,500,0:39.941.624,659.400 us,25 B,,SP,55,Read Transaction,00 00 00 00 00 02 58 00 00 00 00 00 00 00 00 00 00 00 00 00 00 00 00 02 00*
0,501,0:39.950.166,677.800 us,26 B,,SP,55,Write Transaction,14 00 02 CA 9F 03 BA 7E 06 76 77 05 A9 48 00 00 00 00 00 00 FF C4 00 7F FC 31
0,502,0:39.966.109,115.500 us,3 B,,SP,55,Read Transaction,00 00 18*
0,503,0:39.970.501,79.100 us,2 B,,SP,55,Write Transaction,00 00
0,504,0:39.975.858,86.600 us,2 B,,SP,55,Read Transaction,00 08*
0,505,0:39.976.220,79.100 us,2 B,,SP,55,Write Transaction,12 01
0,506,0:39.981.570,659.500 us,25 B,,SP,55,Read Transaction,00 00 00 00 00 02 58 00 00 00 00 00 00 00 00 00 00 00 00 00 00 00 00 02 00*
0,507,0:39.990.097,676.800 us,26 B,,SP,55,Write Transaction,14 00 02 C2 2C 03 AB 80 06 6B BC 05 A3 BE 00 00 00 00 00 00 FF C2 00 82 FC 30
0,508,0:40.006.036,115.600 us,3 B,,SP,55,Read Transaction,00 00 18*
0,509,0:40.010.431,79.100 us,2 B,,SP,55,Write Transaction,00 00
0,510,0:40.015.782,86.800 us,2 B,,SP,55,Read Transaction,00 08*
0,511,0:40.016.145,79.200 us,2 B,,SP,55,Write Transaction,12 01
0,512,0:40.021.499,659.500 us,25 B,,SP,55,Read Transaction,00 00 00 00 00 02 58 00 00 00 00 00 00 00 00 00 00 00 00 00 00 00 00 02 00*
0,513,0:40.029.980,676.900 us,26 B,,SP,55,Write Transaction,14 00 02 B3 BD 03 92 4B 06 5E 35 05 9C 9E 00 00 00 00 00 00 FF C2 00 7D FC 33
0,514,0:40.045.919,115.500 us,3 B,,SP,55,Read Transaction,00 00 18*
0,515,0:40.050.312,79.100 us,2 B,,SP,55,Write Transaction,00 00
0,516,0:40.055.662,86.700 us,2 B,,SP,55,Read Transaction,00 08*
0,517,0:40.056.023,79.100 us,2 B,,SP,55,Write Transaction,12 01
0,518,0:40.061.373,659.300 us,25 B,,SP,55,Read Transaction,00 00 00 00 00 02 58 00 00 00 00 00 00 00 00 00 00 00 00 00 00 00 00 02 00*
0,519,0:40.070.121,676.900 us,26 B,,SP,55,Write Transaction,14 00 02 A8 FE 03 7D 31 06 56 6B 05 99 69 00 00 00 00 00 00 FF BB 00 80 FC 32
0,520,0:40.086.060,115.500 us,3 B,,SP,55,Read Transaction,00 00 18*
0,521,0:40.090.451,79.000 us,2 B,,SP,55,Write Transaction,00 00
0,522,0:40.095.807,86.800 us,2 B,,SP,55,Read Transaction,00 08*
0,523,0:40.096.170,79.200 us,2 B,,SP,55,Write Transaction,12 01
0,524,0:40.101.520,659.500 us,25 B,,SP,55,Read Transaction,00 00 00 00 00 02 58 00 00 00 00 00 00 00 00 00 00 00 00 00 00 00 00 02 00*
0,525,0:40.109.788,676.900 us,26 B,,SP,55,Write Transaction,14 00 02 A3 67 03 72 B7 06 54 41 05 99 4B 00 00 00 00 00 00 FF C2 00 7F FC 2F
0,526,0:40.125.728,116.100 us,3 B,,SP,55,Read Transaction,00 00 18*
0,527,0:40.130.123,79.000 us,2 B,,SP,55,Write Transaction,00 00
0,528,0:40.135.473,86.600 us,2 B,,SP,55,Read Transaction,00 08*
0,529,0:40.135.834,79.100 us,2 B,,SP,55,Write Transaction,12 01
0,530,0:40.141.183,659.600 us,25 B,,SP,55,Read Transaction,00 00 00 00 00 02 58 00 00 00 00 00 00 00 00 00 00 00 00 00 00 00 00 02 00*
0,531,0:40.149.770,676.900 us,26 B,,SP,55,Write Transaction,14 00 02 A0 B0 03 70 AF 06 52 7A 05 98 96 00 00 00 00 00 00 FF C1 00 7E FC 2F
0,532,0:40.165.717,115.500 us,3 B,,SP,55,Read Transaction,00 00 18*
0,533,0:40.170.109,79.100 us,2 B,,SP,55,Write Transaction,00 00
0,534,0:40.175.460,86.700 us,2 B,,SP,55,Read Transaction,00 08*
0,535,0:40.175.823,79.100 us,2 B,,SP,55,Write Transaction,12 01
0,536,0:40.181.230,659.500 us,25 B,,SP,55,Read Transaction,00 00 00 00 00 02 58 00 00 00 00 00 00 00 00 00 00 00 00 00 00 00 01 02 00*
0,537,0:40.189.623,677.800 us,26 B,,SP,55,Write Transaction,14 00 02 A0 D6 03 74 86 06 53 02 05 99 26 00 00 00 00 00 00 FF C4 00 82 FC 2B
0,538,0:40.205.564,115.600 us,3 B,,SP,55,Read Transaction,00 00 18*
0,539,0:40.209.959,79.200 us,2 B,,SP,55,Write Transaction,00 00
0,540,0:40.215.310,86.700 us,2 B,,SP,55,Read Transaction,00 08*
0,541,0:40.215.671,79.100 us,2 B,,SP,55,Write Transaction,12 01
0,542,0:40.221.023,659.600 us,25 B,,SP,55,Read Transaction,00 00 00 00 00 02 58 00 00 00 00 00 00 00 00 00 00 00 00 00 00 00 01 02 00*
0,543,0:40.229.574,676.900 us,26 B,,SP,55,Write Transaction,14 00 02 A4 0B 03 7B 4B 06 57 46 05 9B F3 00 00 00 00 00 00 FF C3 00 7E FC 35
0,544,0:40.245.510,115.600 us,3 B,,SP,55,Read Transaction,00 00 18*
0,545,0:40.249.902,79.100 us,2 B,,SP,55,Write Transaction,00 00
0,546,0:40.255.251,86.700 us,2 B,,SP,55,Read Transaction,00 08*
0,547,0:40.255.613,79.100 us,2 B,,SP,55,Write Transaction,12 01
0,548,0:40.260.963,659.400 us,25 B,,SP,55,Read Transaction,00 00 00 00 00 02 58 00 00 00 00 00 00 00 00 00 00 00 00 00 00 00 01 02 00*
0,549,0:40.269.931,676.800 us,26 B,,SP,55,Write Transaction,14 00 02 A6 5B 03 7F DE 06 5B 37 05 9E 7E 00 00 00 00 00 00 FF BD 00 81 FC 33
0,550,0:40.285.869,133.100 us,3 B,,SP,55,Read Transaction,00 00 18*
0,551,0:40.290.281,79.100 us,2 B,,SP,55,Write Transaction,00 00
0,552,0:40.295.630,86.700 us,2 B,,SP,55,Read Transaction,00 08*
0,553,0:40.295.993,79.100 us,2 B,,SP,55,Write Transaction,12 01
0,554,0:40.301.340,659.500 us,25 B,,SP,55,Read Transaction,00 00 00 00 00 02 58 00 00 00 00 00 00 00 00 00 00 00 00 00 00 00 01 02 00*
0,555,0:40.309.364,676.900 us,26 B,,SP,55,Write Transaction,14 00 02 A7 A6 03 83 41 06 5C 77 05 9F 28 00 00 00 00 00 00 FF C3 00 82 FC 30
0,556,0:40.325.300,116.000 us,3 B,,SP,55,Read Transaction,00 00 18*
0,557,0:40.329.691,79.100 us,2 B,,SP,55,Write Transaction,00 00
0,558,0:40.335.043,86.700 us,2 B,,SP,55,Read Transaction,00 08*
0,559,0:40.335.405,79.000 us,2 B,,SP,55,Write Transaction,12 01
0,560,0:40.340.754,659.500 us,25 B,,SP,55,Read Transaction,00 00 00 00 00 02 58 00 00 00 00 00 00 00 00 00 00 00 00 00 00 00 01 02 00*
0,561,0:40.349.325,677.200 us,26 B,,SP,55,Write Transaction,14 00 02 A9 8E 03 87 3A 06 5E 58 05 A0 7E 00 00 00 00 00 00 FF C1 00 7D FC 37
0,562,0:40.365.265,115.300 us,3 B,,SP,55,Read Transaction,00 00 18*
0,563,0:40.369.656,79.100 us,2 B,,SP,55,Write Transaction,00 00
0,564,0:40.375.005,86.700 us,2 B,,SP,55,Read Transaction,00 08*
0,565,0:40.375.368,79.000 us,2 B,,SP,55,Write Transaction,12 01
0,566,0:40.380.715,659.500 us,25 B,,SP,55,Read Transaction,00 00 00 00 00 02 58 00 00 00 00 00 00 00 00 00 00 00 00 00 00 00 01 02 00*
0,567,0:40.389.231,676.800 us,26 B,,SP,55,Write Transaction,14 00 02 AC 04 03 8C 54 06 60 84 05 A1 B1 00 00 00 00 00 00 FF BA 00 82 FC 2E
0,568,0:40.405.166,115.600 us,3 B,,SP,55,Read Transaction,00 00 18*
0,569,0:40.409.562,79.000 us,2 B,,SP,55,Write Transaction,00 00
0,570,0:40.414.911,86.700 us,2 B,,SP,55,Read Transaction,00 08*
0,571,0:40.415.273,79.000 us,2 B,,SP,55,Write Transaction,12 01
0,572,0:40.420.624,659.600 us,25 B,,SP,55,Read Transaction,00 00 00 00 00 02 58 00 00 00 00 00 00 00 00 00 00 00 00 00 00 00 01 02 00*
0,573,0:40.429.163,676.800 us,26 B,,SP,55,Write Transaction,14 00 02 AF 2F 03 92 F9 06 63 2D 05 A3 45 00 00 00 00 00 00 FF BE 00 80 FC 34
0,574,0:40.445.112,115.600 us,3 B,,SP,55,Read Transaction,00 00 18*
0,575,0:40.449.503,79.000 us,2 B,,SP,55,Write Transaction,00 00
0,576,0:40.454.854,86.700 us,2 B,,SP,55,Read Transaction,00 08*
0,577,0:40.455.216,79.100 us,2 B,,SP,55,Write Transaction,12 01
0,578,0:40.460.565,659.200 us,25 B,,SP,55,Read Transaction,00 00 00 00 00 02 58 00 00 00 00 00 00 00 00 00 00 00 00 00 00 00 01 02 00*
0,579,0:40.469.655,677.900 us,26 B,,SP,55,Write Transaction,14 00 02 B2 E7 03 98 96 06 67 E5 05 A6 75 00 00 00 00 00 00 FF C4 00 83 FC 30
0,580,0:40.485.609,115.600 us,3 B,,SP,55,Read Transaction,00 00 18*
0,581,0:40.490.001,79.100 us,2 B,,SP,55,Write Transaction,00 00
0,582,0:40.495.351,86.700 us,2 B,,SP,55,Read Transaction,00 08*
0,583,0:40.495.712,79.000 us,2 B,,SP,55,Write Transaction,12 01
0,584,0:40.501.063,660.200 us,25 B,,SP,55,Read Transaction,00 00 00 00 00 02 58 00 00 00 00 00 00 00 00 00 00 00 00 00 00 00 01 02 00*
0,585,0:40.509.008,676.800 us,26 B,,SP,55,Write Transaction,14 00 02 B5 E3 03 9C CF 06 6B BA 05 A8 F8 00 00 00 00 00 00 FF C2 00 81 FC 2E
0,586,0:40.524.954,115.900 us,3 B,,SP,55,Read Transaction,00 00 18*
0,587,0:40.529.346,79.000 us,2 B,,SP,55,Write Transaction,00 00
0,588,0:40.534.695,86.700 us,2 B,,SP,55,Read Transaction,00 08*
0,589,0:40.535.058,79.100 us,2 B,,SP,55,Write Transaction,12 01
0,590,0:40.540.408,659.500 us,25 B,,SP,55,Read Transaction,00 00 00 00 00 02 58 00 00 00 00 00 00 00 00 00 00 00 00 00 00 00 01 03 00*
0,591,0:40.548.948,676.900 us,26 B,,SP,55,Write Transaction,14 00 02 B8 E6 03 A0 C6 06 70 84 05 AC 2F 00 00 00 00 00 00 FF C1 00 83 FC 32
0,592,0:40.564.894,116.300 us,3 B,,SP,55,Read Transaction,00 00 18*
0,593,0:40.569.288,79.100 us,2 B,,SP,55,Write Transaction,00 00
0,594,0:40.574.637,86.600 us,2 B,,SP,55,Read Transaction,00 08*
0,595,0:40.575.034,79.000 us,2 B,,SP,55,Write Transaction,12 01
0,596,0:40.580.391,659.700 us,25 B,,SP,55,Read Transaction,00 00 00 00 00 02 58 00 00 00 00 00 00 00 00 00 00 00 00 00 00 00 01 03 00*
0,597,0:40.588.814,676.600 us,26 B,,SP,55,Write Transaction,14 00 02 BB E4 03 A4 AA 06 73 EE 05 AE 56 00 00 00 00 00 00 FF C2 00 81 FC 33
0,598,0:40.604.753,115.800 us,3 B,,SP,55,Read Transaction,00 00 18*
0,599,0:40.609.143,79.100 us,2 B,,SP,55,Write Transaction,00 00
0,600,0:40.614.493,86.700 us,2 B,,SP,55,Read Transaction,00 08*
0,601,0:40.614.856,79.000 us,2 B,,SP,55,Write Transaction,12 01
0,602,0:40.620.206,659.500 us,25 B,,SP,55,Read Transaction,00 00 00 00 00 02 58 00 00 00 00 00 00 00 00 00 00 00 00 00 00 00 01 03 00*
0,603,0:40.628.767,677.400 us,26 B,,SP,55,Write Transaction,14 00 02 BE 8B 03 A7 EA 06 77 9A 05 B0 EA 00 00 00 00 00 00 FF C2 00 7E FC 2C
0,604,0:40.644.712,115.800 us,3 B,,SP,55,Read Transaction,00 00 18*
0,605,0:40.649.107,79.100 us,2 B,,SP,55,Write Transaction,00 00
0,606,0:40.654.458,86.700 us,2 B,,SP,55,Read Transaction,00 08*
0,607,0:40.654.820,79.000 us,2 B,,SP,55,Write Transaction,12 01
0,608,0:40.660.172,659.800 us,25 B,,SP,55,Read Transaction,00 00 00 00 00 02 58 00 00 00 00 00 00 00 00 00 00 00 00 00 00 00 01 03 00*
0,609,0:40.669.455,676.900 us,26 B,,SP,55,Write Transaction,14 00 02 C1 2F 03 AB CE 06 7A 10 05 B2 1D 00 00 00 00 00 00 FF BE 00 7F FC 33
0,610,0:40.685.395,116.000 us,3 B,,SP,55,Read Transaction,00 00 18*
0,611,0:40.689.792,79.100 us,2 B,,SP,55,Write Transaction,00 00
0,612,0:40.695.142,86.700 us,2 B,,SP,55,Read Transaction,00 08*
0,613,0:40.695.503,79.100 us,2 B,,SP,55,Write Transaction,12 01
0,614,0:40.700.853,659.500 us,25 B,,SP,55,Read Transaction,00 00 00 00 00 02 58 00 00 00 00 00 00 00 00 00 00 00 00 00 00 00 01 03 00*
0,615,0:40.708.585,677.800 us,26 B,,SP,55,Write Transaction,14 00 02 C3 00 03 AF 5A 06 79 3C 05 B1 2E 00 00 00 00 00 00 FF BF 00 7E FC 34
0,616,0:40.724.526,116.100 us,3 B,,SP,55,Read Transaction,00 00 18*
0,617,0:40.728.917,79.100 us,2 B,,SP,55,Write Transaction,00 00
0,618,0:40.734.269,86.700 us,2 B,,SP,55,Read Transaction,00 08*
0,619,0:40.734.632,79.100 us,2 B,,SP,55,Write Transaction,12 01
0,620,0:40.739.981,659.500 us,25 B,,SP,55,Read Transaction,00 00 00 00 00 02 4E 00 00 00 00 00 00 00 00 00 00 00 00 00 00 00 01 03 00*
0,621,0:40.748.482,676.800 us,26 B,,SP,55,Write Transaction,14 00 02 C4 E9 03 B2 84 06 7A BE 05 B2 4D 00 00 00 00 00 00 FF C5 00 84 FC 2A
0,622,0:40.764.418,115.900 us,3 B,,SP,55,Read Transaction,00 00 18*
0,623,0:40.768.812,79.100 us,2 B,,SP,55,Write Transaction,00 00
0,624,0:40.774.168,86.800 us,2 B,,SP,55,Read Transaction,00 08*
0,625,0:40.774.529,79.200 us,2 B,,SP,55,Write Transaction,12 01
0,626,0:40.779.886,660.400 us,25 B,,SP,55,Read Transaction,00 00 00 00 00 02 4E 00 00 00 00 00 00 00 00 00 00 00 00 00 00 00 01 03 00*
0,627,0:40.788.544,676.900 us,26 B,,SP,55,Write Transaction,14 00 02 C7 C2 03 B7 3C 06 7E 3C 05 B4 8D 00 00 00 00 00 00 FF BF 00 81 FC 30
0,628,0:40.804.482,115.900 us,3 B,,SP,55,Read Transaction,00 00 18*
0,629,0:40.808.873,79.000 us,2 B,,SP,55,Write Transaction,00 00
0,630,0:40.814.228,86.800 us,2 B,,SP,55,Read Transaction,00 08*
0,631,0:40.814.591,79.200 us,2 B,,SP,55,Write Transaction,12 01
0,632,0:40.819.945,660.500 us,25 B,,SP,55,Read Transaction,00 00 00 00 00 02 4E 00 00 00 00 00 00 00 00 00 00 00 00 00 00 00 01 03 00*
0,633,0:40.828.307,676.800 us,26 B,,SP,55,Write Transaction,14 00 02 CA 5F 03 BB 97 06 80 84 05 B5 D3 00 00 00 00 00 00 FF C0 00 80 FC 30
0,634,0:40.844.250,115.800 us,3 B,,SP,55,Read Transaction,00 00 18*
0,635,0:40.848.646,79.100 us,2 B,,SP,55,Write Transaction,00 00
0,636,0:40.853.995,86.700 us,2 B,,SP,55,Read Transaction,00 08*
0,637,0:40.854.356,79.000 us,2 B,,SP,55,Write Transaction,12 01
0,638,0:40.859.706,659.400 us,25 B,,SP,55,Read Transaction,00 00 00 00 00 02 4E 00 00 00 00 00 00 00 00 00 00 00 00 00 00 00 01 03 00*
0,639,0:40.869.329,676.800 us,26 B,,SP,55,Write Transaction,14 00 02 CD E6 03 C2 16 06 84 F2 05 B8 B4 00 00 00 00 00 00 FF BD 00 85 FC 30
0,640,0:40.885.264,115.900 us,3 B,,SP,55,Read Transaction,00 00 18*
0,641,0:40.889.661,79.100 us,2 B,,SP,55,Write Transaction,00 00
0,642,0:40.895.018,86.700 us,2 B,,SP,55,Read Transaction,00 08*
0,643,0:40.895.380,79.100 us,2 B,,SP,55,Write Transaction,12 01
0,644,0:40.900.730,659.500 us,25 B,,SP,55,Read Transaction,00 00 00 00 00 02 4E 00 00 00 00 00 00 00 00 00 00 00 00 00 00 00 01 03 00*
0,645,0:40.908.193,676.800 us,26 B,,SP,55,Write Transaction,14 00 02 D0 37 03 C4 9F 06 86 59 05 B9 68 00 00 00 00 00 00 FF C0 00 7F FC 38
0,646,0:40.924.131,115.900 us,3 B,,SP,55,Read Transaction,00 00 18*
0,647,0:40.928.523,79.000 us,2 B,,SP,55,Write Transaction,00 00
0,648,0:40.933.874,86.700 us,2 B,,SP,55,Read Transaction,00 08*
0,649,0:40.934.238,79.000 us,2 B,,SP,55,Write Transaction,12 01
0,650,0:40.939.584,659.400 us,25 B,,SP,55,Read Transaction,00 00 00 00 00 02 4E 00 00 00 00 00 00 00 00 00 00 00 00 00 00 00 01 03 00*
0,651,0:40.948.091,676.700 us,26 B,,SP,55,Write Transaction,14 00 02 C9 38 03 B5 27 06 7C B1 05 B4 99 00 00 00 00 00 00 FF C5 00 83 FC 30
0,652,0:40.964.027,115.900 us,3 B,,SP,55,Read Transaction,00 00 18*
0,653,0:40.968.418,79.000 us,2 B,,SP,55,Write Transaction,00 00
0,654,0:40.973.771,86.700 us,2 B,,SP,55,Read Transaction,00 08*
0,655,0:40.974.133,79.100 us,2 B,,SP,55,Write Transaction,12 01
0,656,0:40.979.482,659.200 us,25 B,,SP,55,Read Transaction,00 00 00 00 00 02 4E 00 00 00 00 00 00 00 00 00 00 00 00 00 00 00 01 03 00*
0,657,0:40.988.014,676.300 us,26 B,,SP,55,Write Transaction,14 00 02 BA C3 03 9F 1E 06 71 33 05 AF 55 00 00 00 00 00 00 FF C5 00 83 FC 31
0,658,0:41.003.953,115.900 us,3 B,,SP,55,Read Transaction,00 00 18*
0,659,0:41.008.347,79.000 us,2 B,,SP,55,Write Transaction,00 00
0,660,0:41.013.696,86.600 us,2 B,,SP,55,Read Transaction,00 08*
0,661,0:41.014.058,79.000 us,2 B,,SP,55,Write Transaction,12 01
0,662,0:41.019.405,659.200 us,25 B,,SP,55,Read Transaction,00 00 00 00 00 02 4E 00 00 00 00 00 00 00 00 00 00 00 00 00 00 00 01 03 00*
0,663,0:41.027.930,677.400 us,26 B,,SP,55,Write Transaction,14 00 02 B1 8D 03 90 86 06 6B E2 05 AD 7E 00 00 00 00 00 00 FF C2 00 83 FC 3A
0,664,0:41.043.867,115.800 us,3 B,,SP,55,Read Transaction,00 00 18*
0,665,0:41.048.259,79.000 us,2 B,,SP,55,Write Transaction,00 00
0,666,0:41.053.606,86.700 us,2 B,,SP,55,Read Transaction,00 08*
0,667,0:41.053.967,79.000 us,2 B,,SP,55,Write Transaction,12 01
0,668,0:41.059.317,659.500 us,25 B,,SP,55,Read Transaction,00 00 00 00 00 02 4E 00 00 00 00 00 00 00 00 00 00 00 00 00 00 00 01 03 00*
0,669,0:41.069.059,676.800 us,26 B,,SP,55,Write Transaction,14 00 02 AE B4 03 89 21 06 6C D4 05 AF 0C 00 00 00 00 00 00 FF C3 00 83 FC 2C
0,670,0:41.085.003,116.100 us,3 B,,SP,55,Read Transaction,00 00 18*
0,671,0:41.089.399,79.000 us,2 B,,SP,55,Write Transaction,00 00
0,672,0:41.094.757,86.700 us,2 B,,SP,55,Read Transaction,00 08*
0,673,0:41.095.120,79.100 us,2 B,,SP,55,Write Transaction,12 01
0,674,0:41.100.471,659.600 us,25 B,,SP,55,Read Transaction,00 00 00 00 00 02 4E 00 00 00 00 00 00 00 00 00 00 00 00 00 00 00 01 03 00*
0,675,0:41.107.726,676.900 us,26 B,,SP,55,Write Transaction,14 00 02 AD 1E 03 86 BB 06 6C F3 05 AF 92 00 00 00 00 00 00 FF C3 00 88 FC 30
0,676,0:41.123.668,116.200 us,3 B,,SP,55,Read Transaction,00 00 18*
0,677,0:41.128.062,79.000 us,2 B,,SP,55,Write Transaction,00 00
0,678,0:41.133.411,86.700 us,2 B,,SP,55,Read Transaction,00 08*
0,679,0:41.133.772,79.100 us,2 B,,SP,55,Write Transaction,12 01
0,680,0:41.139.122,659.500 us,25 B,,SP,55,Read Transaction,00 00 00 00 00 02 4E 00 00 00 00 00 00 00 00 00 00 00 00 00 00 00 01 03 00*
0,681,0:41.147.684,676.900 us,26 B,,SP,55,Write Transaction,14 00 02 AD 17 03 88 6E 06 6C D7 05 AF 94 00 00 00 00 00 00 FF C9 00 88 FC 36
0,682,0:41.163.621,115.800 us,3 B,,SP,55,Read Transaction,00 00 18*
0,683,0:41.168.013,79.100 us,2 B,,SP,55,Write Transaction,00 00
0,684,0:41.173.363,86.700 us,2 B,,SP,55,Read Transaction,00 08*
0,685,0:41.173.725,79.000 us,2 B,,SP,55,Write Transaction,12 01
0,686,0:41.179.122,659.500 us,25 B,,SP,55,Read Transaction,00 00 00 00 00 02 4E 00 00 00 00 00 00 00 00 00 00 00 00 00 00 00 01 03 00*
0,687,0:41.187.594,677.800 us,26 B,,SP,55,Write Transaction,14 00 02 AE A8 03 8B 7A 06 6E 38 05 B0 66 00 00 00 00 00 00 FF C2 00 81 FC 2F
0,688,0:41.203.544,115.900 us,3 B,,SP,55,Read Transaction,00 00 18*
0,689,0:41.207.943,79.200 us,2 B,,SP,55,Write Transaction,00 00
0,690,0:41.213.293,86.700 us,2 B,,SP,55,Read Transaction,00 08*
0,691,0:41.213.653,79.100 us,2 B,,SP,55,Write Transaction,12 01
0,692,0:41.219.004,659.500 us,25 B,,SP,55,Read Transaction,00 00 00 00 00 02 4E 00 00 00 00 00 00 00 00 00 00 00 00 00 00 00 01 03 00*
0,693,0:41.227.486,676.800 us,26 B,,SP,55,Write Transaction,14 00 02 B0 FF 03 8F AD 06 71 49 05 B2 76 00 00 00 00 00 00 FF C5 00 82 FC 2C
0,694,0:41.243.423,115.900 us,3 B,,SP,55,Read Transaction,00 00 18*
0,695,0:41.247.814,79.200 us,2 B,,SP,55,Write Transaction,00 00
0,696,0:41.253.166,86.700 us,2 B,,SP,55,Read Transaction,00 08*
0,697,0:41.253.528,79.000 us,2 B,,SP,55,Write Transaction,12 01
0,698,0:41.258.877,659.600 us,25 B,,SP,55,Read Transaction,00 00 00 00 00 02 4E 00 00 00 00 00 00 00 00 00 00 00 00 00 00 00 01 03 00*
0,699,0:41.267.478,676.900 us,26 B,,SP,55,Write Transaction,14 00 02 B3 82 03 93 B4 06 74 F1 05 B4 E3 00 00 00 00 00 00 FF C5 00 80 FC 32
0,700,0:41.283.415,115.900 us,3 B,,SP,55,Read Transaction,00 00 18*
0,701,0:41.287.810,79.100 us,2 B,,SP,55,Write Transaction,00 00
0,702,0:41.293.161,86.700 us,2 B,,SP,55,Read Transaction,00 08*
0,703,0:41.293.522,79.100 us,2 B,,SP,55,Write Transaction,12 01
0,704,0:41.298.870,659.600 us,25 B,,SP,55,Read Transaction,00 00 00 00 00 02 4E 00 00 00 00 00 00 00 00 00 00 00 00 00 00 00 01 03 00*
0,705,0:41.307.339,676.700 us,26 B,,SP,55,Write Transaction,14 00 02 B5 95 03 96 BA 06 78 21 05 B7 10 00 00 00 00 00 00 FF C3 00 82 FC 32
0,706,0:41.323.288,116.100 us,3 B,,SP,55,Read Transaction,00 00 18*
0,707,0:41.327.686,78.900 us,2 B,,SP,55,Write Transaction,00 00
0,708,0:41.333.036,86.600 us,2 B,,SP,55,Read Transaction,00 08*
0,709,0:41.333.397,79.000 us,2 B,,SP,55,Write Transaction,12 01
0,710,0:41.338.746,659.500 us,25 B,,SP,55,Read Transaction,00 00 00 00 00 02 4E 00 26 F7 19 00 00 00 00 00 00 00 00 00 00 00 01 03 00*
0,711,0:41.347.275,676.900 us,26 B,,SP,55,Write Transaction,14 00 02 B7 54 03 99 83 06 79 0D 05 B7 54 00 00 00 00 00 00 FF C4 00 81 FC 2F
0,712,0:41.363.217,115.900 us,3 B,,SP,55,Read Transaction,00 00 18*
0,713,0:41.367.609,79.100 us,2 B,,SP,55,Write Transaction,00 00
0,714,0:41.372.959,86.700 us,2 B,,SP,55,Read Transaction,00 08*
0,715,0:41.373.322,79.100 us,2 B,,SP,55,Write Transaction,12 01
0,716,0:41.378.670,659.500 us,25 B,,SP,55,Read Transaction,00 00 00 00 00 02 4E 00 00 00 00 00 00 00 00 00 00 00 00 00 00 00 01 03 00*
0,717,0:41.387.191,676.900 us,26 B,,SP,55,Write Transaction,14 00 02 B9 32 03 9D 8F 06 79 E6 05 B7 A9 00 00 00 00 00 00 FF C2 00 83 FC 33
0,718,0:41.403.127,115.900 us,3 B,,SP,55,Read Transaction,00 00 18*
0,719,0:41.407.521,79.100 us,2 B,,SP,55,Write Transaction,00 00
0,720,0:41.412.870,86.700 us,2 B,,SP,55,Read Transaction,00 08*
0,721,0:41.413.231,79.000 us,2 B,,SP,55,Write Transaction,12 01
0,722,0:41.418.581,659.500 us,25 B,,SP,55,Read Transaction,00 00 00 00 00 02 4E 00 00 00 00 00 00 00 00 00 00 00 00 00 00 00 01 03 00*
0,723,0:41.427.109,676.800 us,26 B,,SP,55,Write Transaction,14 00 02 BC BD 03 A3 CE 06 7E 28 05 BA 52 00 00 00 00 00 00 FF C3 00 82 FC 31
0,724,0:41.443.055,116.000 us,3 B,,SP,55,Read Transaction,00 00 18*
0,725,0:41.447.447,79.100 us,2 B,,SP,55,Write Transaction,00 00
0,726,0:41.452.797,86.600 us,2 B,,SP,55,Read Transaction,00 08*
0,727,0:41.453.159,79.100 us,2 B,,SP,55,Write Transaction,12 01
0,728,0:41.458.507,659.500 us,25 B,,SP,55,Read Transaction,00 00 00 00 00 02 4E 00 00 00 00 00 00 00 00 00 00 00 00 00 00 00 01 03 00*
0,729,0:41.467.035,676.800 us,26 B,,SP,55,Write Transaction,14 00 02 C0 7C 03 AA 60 06 81 9B 05 BC 1C 00 00 00 00 00 00 FF C4 00 85 FC 31
0,730,0:41.482.979,116.000 us,3 B,,SP,55,Read Transaction,00 00 18*
0,731,0:41.487.371,79.000 us,2 B,,SP,55,Write Transaction,00 00
0,732,0:41.492.719,86.700 us,2 B,,SP,55,Read Transaction,00 08*
0,733,0:41.493.080,79.100 us,2 B,,SP,55,Write Transaction,12 01
0,734,0:41.498.430,659.500 us,25 B,,SP,55,Read Transaction,00 00 00 00 00 02 4E 00 00 00 00 00 00 00 00 00 00 00 00 00 00 00 01 03 00*
0,735,0:41.506.973,677.700 us,26 B,,SP,55,Write Transaction,14 00 02 C4 92 03 B2 77 06 85 62 05 BE 29 00 00 00 00 00 00 FF C5 00 81 FC 2E
0,736,0:41.522.942,116.000 us,3 B,,SP,55,Read Transaction,00 00 18*
0,737,0:41.527.331,79.000 us,2 B,,SP,55,Write Transaction,00 00
0,738,0:41.532.681,86.700 us,2 B,,SP,55,Read Transaction,00 08*
0,739,0:41.533.044,79.100 us,2 B,,SP,55,Write Transaction,12 01
0,740,0:41.538.394,659.500 us,25 B,,SP,55,Read Transaction,00 00 00 00 00 02 4E 00 00 00 00 00 00 00 00 00 00 00 00 00 00 00 01 03 00*
0,741,0:41.546.906,676.700 us,26 B,,SP,55,Write Transaction,14 00 02 C8 5D 03 B7 60 06 88 CF 05 C0 2A 00 00 00 00 00 00 FF C1 00 7E FC 35
0,742,0:41.562.841,116.200 us,3 B,,SP,55,Read Transaction,00 00 18*
0,743,0:41.567.234,79.100 us,2 B,,SP,55,Write Transaction,00 00
0,744,0:41.572.582,86.700 us,2 B,,SP,55,Read Transaction,00 08*
0,745,0:41.572.945,79.000 us,2 B,,SP,55,Write Transaction,12 01
0,746,0:41.578.294,659.500 us,25 B,,SP,55,Read Transaction,00 00 00 00 00 02 4E 00 00 00 00 00 00 00 00 00 00 00 00 00 00 00 01 03 00*
0,747,0:41.586.762,676.800 us,26 B,,SP,55,Write Transaction,14 00 02 CA C2 03 B9 B4 06 8A 9B 05 C1 65 00 00 00 00 00 00 FF C4 00 82 FC 30
0,748,0:41.602.698,115.800 us,3 B,,SP,55,Read Transaction,00 00 18*
0,749,0:41.607.089,79.000 us,2 B,,SP,55,Write Transaction,00 00
0,750,0:41.612.438,86.700 us,2 B,,SP,55,Read Transaction,00 08*
0,751,0:41.612.801,79.100 us,2 B,,SP,55,Write Transaction,12 01
0,752,0:41.618.150,659.600 us,25 B,,SP,55,Read Transaction,00 00 00 00 00 02 4E 00 00 00 00 00 00 00 00 00 00 00 00 00 00 00 01 03 00*
0,753,0:41.626.746,676.800 us,26 B,,SP,55,Write Transaction,14 00 02 CD 54 03 BE 2A 06 8D A5 05 C3 45 00 00 00 00 00 00 FF C3 00 84 FC 2E
0,754,0:41.642.693,115.800 us,3 B,,SP,55,Read Transaction,00 00 18*
0,755,0:41.647.085,79.100 us,2 B,,SP,55,Write Transaction,00 00
0,756,0:41.652.442,86.800 us,2 B,,SP,55,Read Transaction,00 08*
0,757,0:41.652.805,79.200 us,2 B,,SP,55,Write Transaction,12 01
0,758,0:41.658.153,659.600 us,25 B,,SP,55,Read Transaction,00 00 00 00 00 02 4E 00 00 00 00 00 00 00 00 00 00 00 00 00 00 00 01 03 00*
0,759,0:41.666.608,677.800 us,26 B,,SP,55,Write Transaction,14 00 02 D0 85 03 C4 2B 06 8F 8F 05 C4 03 00 00 00 00 00 00 FF C3 00 85 FC 33
0,760,0:41.682.552,115.800 us,3 B,,SP,55,Read Transaction,00 00 18*
0,761,0:41.686.944,79.100 us,2 B,,SP,55,Write Transaction,00 00
0,762,0:41.692.293,86.600 us,2 B,,SP,55,Read Transaction,00 08*
0,763,0:41.692.654,79.100 us,2 B,,SP,55,Write Transaction,12 01
0,764,0:41.698.004,659.400 us,25 B,,SP,55,Read Transaction,00 00 00 00 00 02 4E 00 00 00 00 00 00 00 00 00 00 00 00 00 00 00 01 03 00*
0,765,0:41.706.570,676.800 us,26 B,,SP,55,Write Transaction,14 00 02 D2 D9 03 C7 0E 06 90 AE 05 C4 8A 00 00 00 00 00 00 FF C7 00 85 FC 2E
0,766,0:41.722.506,115.900 us,3 B,,SP,55,Read Transaction,00 00 18*
0,767,0:41.726.898,79.200 us,2 B,,SP,55,Write Transaction,00 00
0,768,0:41.732.248,86.700 us,2 B,,SP,55,Read Transaction,00 08*
0,769,0:41.732.611,79.100 us,2 B,,SP,55,Write Transaction,12 01
0,770,0:41.737.958,659.500 us,25 B,,SP,55,Read Transaction,00 00 00 00 00 02 4E 00 00 00 00 00 00 00 00 00 00 00 00 00 00 00 01 03 00*
0,771,0:41.746.452,676.800 us,26 B,,SP,55,Write Transaction,14 00 02 D4 CB 03 C9 57 06 91 D4 05 C5 45 00 00 00 00 00 00 FF C5 00 82 FC 2D
0,772,0:41.762.386,115.800 us,3 B,,SP,55,Read Transaction,00 00 18*
0,773,0:41.766.779,79.000 us,2 B,,SP,55,Write Transaction,00 00
0,774,0:41.772.127,86.700 us,2 B,,SP,55,Read Transaction,00 08*
0,775,0:41.772.489,79.100 us,2 B,,SP,55,Write Transaction,12 01
0,776,0:41.777.838,659.500 us,25 B,,SP,55,Read Transaction,00 00 00 00 00 02 4E 00 00 00 00 00 00 00 00 00 00 00 00 00 00 00 01 03 00*
0,777,0:41.786.423,676.800 us,26 B,,SP,55,Write Transaction,14 00 02 D7 53 03 CD B7 06 93 91 05 C6 1F 00 00 00 00 00 00 FF BD 00 84 FC 39
0,778,0:41.802.362,115.800 us,3 B,,SP,55,Read Transaction,00 00 18*
0,779,0:41.806.753,79.000 us,2 B,,SP,55,Write Transaction,00 00
0,780,0:41.812.104,86.700 us,2 B,,SP,55,Read Transaction,00 08*
0,781,0:41.812.467,79.100 us,2 B,,SP,55,Write Transaction,12 01
0,782,0:41.817.816,659.500 us,25 B,,SP,55,Read Transaction,00 00 00 00 00 02 4E 00 00 00 00 00 00 00 00 00 00 00 00 00 00 00 01 03 00*
0,783,0:41.826.270,676.900 us,26 B,,SP,55,Write Transaction,14 00 02 DA 42 03 D2 3E 06 97 AA 05 C8 B7 00 00 00 00 00 00 FF C4 00 86 FC 2F
0,784,0:41.842.211,115.900 us,3 B,,SP,55,Read Transaction,00 00 18*
0,785,0:41.846.604,79.000 us,2 B,,SP,55,Write Transaction,00 00
0,786,0:41.851.956,86.800 us,2 B,,SP,55,Read Transaction,00 08*
0,787,0:41.852.318,79.200 us,2 B,,SP,55,Write Transaction,12 01
0,788,0:41.857.672,659.900 us,25 B,,SP,55,Read Transaction,00 00 00 00 00 02 4E 00 00 00 00 00 00 00 00 00 00 00 00 00 00 00 01 03 00*
0,789,0:41.866.244,676.800 us,26 B,,SP,55,Write Transaction,14 00 02 DD 73 03 D5 E5 06 9A 9F 05 CA 2C 00 00 00 00 00 00 FF C4 00 84 FC 33
0,790,0:41.882.182,116.000 us,3 B,,SP,55,Read Transaction,00 00 18*
0,791,0:41.886.574,79.100 us,2 B,,SP,55,Write Transaction,00 00
0,792,0:41.891.924,86.600 us,2 B,,SP,55,Read Transaction,00 08*
0,793,0:41.892.287,79.000 us,2 B,,SP,55,Write Transaction,12 01
0,794,0:41.897.637,659.700 us,25 B,,SP,55,Read Transaction,00 00 00 00 00 02 4E 00 00 00 00 00 00 00 00 00 00 00 00 00 00 00 01 03 00*
0,795,0:41.906.160,676.800 us,26 B,,SP,55,Write Transaction,14 00 02 DB 51 03 D0 0C 06 93 59 05 C5 A8 00 00 00 00 00 00 FF BD 00 82 FC 30
0,796,0:41.922.097,116.100 us,3 B,,SP,55,Read Transaction,00 00 18*
0,797,0:41.926.490,79.000 us,2 B,,SP,55,Write Transaction,00 00
0,798,0:41.931.839,86.600 us,2 B,,SP,55,Read Transaction,00 08*
0,799,0:41.932.201,79.100 us,2 B,,SP,55,Write Transaction,12 01
0,800,0:41.937.549,659.500 us,25 B,,SP,55,Read Transaction,00 00 00 00 00 02 4E 00 00 00 00 00 00 00 00 00 00 00 00 00 00 00 01 03 00*
0,801,0:41.946.241,676.800 us,26 B,,SP,55,Write Transaction,14 00 02 CF CF 03 BD 06 06 85 80 05 BE 82 00 00 00 00 00 00 FF C4 00 89 FC 31
0,802,0:41.962.176,115.800 us,3 B,,SP,55,Read Transaction,00 00 18*
0,803,0:41.966.567,79.000 us,2 B,,SP,55,Write Transaction,00 00
0,804,0:41.971.918,86.800 us,2 B,,SP,55,Read Transaction,00 08*
0,805,0:41.972.280,79.100 us,2 B,,SP,55,Write Transaction,12 01
0,806,0:41.977.638,659.500 us,25 B,,SP,55,Read Transaction,00 00 00 00 00 02 4E 00 00 00 00 00 00 00 00 00 00 00 00 00 00 00 01 03 00*
0,807,0:41.986.029,676.800 us,26 B,,SP,55,Write Transaction,14 00 02 C1 B3 03 A9 B4 06 79 DF 05 B8 BD 00 00 00 00 00 00 FF C3 00 7F FC 30
0,808,0:42.001.967,115.800 us,3 B,,SP,55,Read Transaction,00 00 18*
0,809,0:42.006.360,79.100 us,2 B,,SP,55,Write Transaction,00 00
0,810,0:42.011.713,86.800 us,2 B,,SP,55,Read Transaction,00 08*
0,811,0:42.012.076,79.200 us,2 B,,SP,55,Write Transaction,12 01
0,812,0:42.017.428,659.600 us,25 B,,SP,55,Read Transaction,00 00 00 00 00 02 4E 00 00 00 00 00 00 00 00 00 00 00 00 00 00 00 01 03 00*
0,813,0:42.025.913,676.600 us,26 B,,SP,55,Write Transaction,14 00 02 B8 94 03 99 3A 06 75 C2 05 B7 B8 00 00 00 00 00 00 FF C2 00 80 FC 33
0,814,0:42.041.848,115.700 us,3 B,,SP,55,Read Transaction,00 00 18*
0,815,0:42.046.242,79.100 us,2 B,,SP,55,Write Transaction,00 00
0,816,0:42.051.590,86.700 us,2 B,,SP,55,Read Transaction,00 08*
0,817,0:42.051.951,79.100 us,2 B,,SP,55,Write Transaction,12 01
0,818,0:42.057.301,659.500 us,25 B,,SP,55,Read Transaction,00 00 00 00 00 02 4E 00 00 00 00 00 00 00 00 00 00 00 00 00 00 00 01 03 00*
0,819,0:42.065.833,676.900 us,26 B,,SP,55,Write Transaction,14 00 02 B4 0D 03 90 BF 06 73 9C 05 B6 F3 00 00 00 00 00 00 FF C3 00 81 FC 37
0,820,0:42.081.793,116.000 us,3 B,,SP,55,Read Transaction,00 00 18*
0,821,0:42.086.188,79.100 us,2 B,,SP,55,Write Transaction,00 00
0,822,0:42.091.538,86.600 us,2 B,,SP,55,Read Transaction,00 08*
0,823,0:42.091.901,79.100 us,2 B,,SP,55,Write Transaction,12 01
0,824,0:42.097.248,659.500 us,25 B,,SP,55,Read Transaction,00 00 00 00 00 02 4E 00 00 00 00 00 00 00 00 00 00 00 00 00 00 00 01 03 00*
0,825,0:42.105.739,676.800 us,26 B,,SP,55,Write Transaction,14 00 02 B1 5D 03 8D 27 06 71 CD 05 B6 27 00 00 00 00 00 00 FF C2 00 82 FC 30
0,826,0:42.121.678,115.900 us,3 B,,SP,55,Read Transaction,00 00 18*
0,827,0:42.126.071,79.000 us,2 B,,SP,55,Write Transaction,00 00
0,828,0:42.131.418,86.700 us,2 B,,SP,55,Read Transaction,00 08*
0,829,0:42.131.780,79.100 us,2 B,,SP,55,Write Transaction,12 01
0,830,0:42.137.130,659.500 us,25 B,,SP,55,Read Transaction,00 00 00 00 00 02 4E 00 00 00 00 00 00 00 00 00 00 00 00 00 00 00 01 03 00*
0,831,0:42.145.627,677.600 us,26 B,,SP,55,Write Transaction,14 00 02 B0 24 03 8C 24 06 71 FE 05 B6 B5 00 00 00 00 00 00 FF BE 00 83 FC 30
0,832,0:42.161.574,115.800 us,3 B,,SP,55,Read Transaction,00 00 18*
0,833,0:42.165.966,79.000 us,2 B,,SP,55,Write Transaction,00 00
0,834,0:42.171.315,86.700 us,2 B,,SP,55,Read Transaction,00 08*
0,835,0:42.171.678,79.000 us,2 B,,SP,55,Write Transaction,12 01
0,836,0:42.177.027,659.600 us,25 B,,SP,55,Read Transaction,00 00 00 00 00 02 4E 00 00 00 00 00 00 00 00 00 00 00 00 00 00 00 01 03 00*
0,837,0:42.185.592,676.800 us,26 B,,SP,55,Write Transaction,14 00 02 B1 E6 03 8F EF 06 74 51 05 B7 C7 00 00 00 00 00 00 FF BE 00 82 FC 30
0,838,0:42.201.531,115.900 us,3 B,,SP,55,Read Transaction,00 00 18*
0,839,0:42.205.925,79.000 us,2 B,,SP,55,Write Transaction,00 00
0,840,0:42.211.274,86.700 us,2 B,,SP,55,Read Transaction,00 08*
0,841,0:42.211.636,79.100 us,2 B,,SP,55,Write Transaction,12 01
0,842,0:42.216.985,659.500 us,25 B,,SP,55,Read Transaction,00 00 00 00 00 02 4E 00 00 00 00 00 00 00 00 00 00 00 00 00 00 00 01 03 00*
0,843,0:42.225.468,676.700 us,26 B,,SP,55,Write Transaction,14 00 02 B4 26 03 95 12 06 76 2F 05 B8 D3 00 00 00 00 00 00 FF C4 00 87 FC 33
0,844,0:42.241.410,116.200 us,3 B,,SP,55,Read Transaction,00 00 18*
0,845,0:42.245.802,79.100 us,2 B,,SP,55,Write Transaction,00 00
0,846,0:42.251.153,86.600 us,2 B,,SP,55,Read Transaction,00 08*
0,847,0:42.251.515,79.000 us,2 B,,SP,55,Write Transaction,12 01
0,848,0:42.256.871,660.500 us,25 B,,SP,55,Read Transaction,00 00 00 00 00 02 62 64 26 0F 32 00 00 00 00 00 00 00 00 00 00 00 01 03 00*
0,849,0:42.265.491,676.800 us,26 B,,SP,55,Write Transaction,14 00 02 B6 0D 03 98 DA 06 78 BC 05 BA 69 00 00 00 00 00 00 FF BF 00 86 FC 30
0,850,0:42.281.508,116.000 us,3 B,,SP,55,Read Transaction,00 00 18*
0,851,0:42.285.902,79.000 us,2 B,,SP,55,Write Transaction,00 00
0,852,0:42.291.252,86.600 us,2 B,,SP,55,Read Transaction,00 08*
0,853,0:42.291.614,79.100 us,2 B,,SP,55,Write Transaction,12 01
0,854,0:42.296.963,659.500 us,25 B,,SP,55,Read Transaction,00 00 00 00 00 02 62 64 00 00 00 00 00 00 00 00 00 00 00 00 00 00 01 03 00*
0,855,0:42.305.304,677.200 us,26 B,,SP,55,Write Transaction,14 00 02 B7 B6 03 9D 52 06 79 C4 05 BA 93 00 00 00 00 00 00 FF C2 00 86 FC 2F
0,856,0:42.321.247,116.000 us,3 B,,SP,55,Read Transaction,00 00 18*
0,857,0:42.325.640,79.000 us,2 B,,SP,55,Write Transaction,00 00
0,858,0:42.330.990,86.600 us,2 B,,SP,55,Read Transaction,00 08*
0,859,0:42.331.351,79.000 us,2 B,,SP,55,Write Transaction,12 01
0,860,0:42.336.700,659.500 us,25 B,,SP,55,Read Transaction,00 00 00 00 00 02 62 64 00 00 00 00 00 00 00 00 00 00 00 00 00 00 01 03 00*
0,861,0:42.345.283,676.800 us,26 B,,SP,55,Write Transaction,14 00 02 BA 42 03 A1 C4 06 7C E8 05 BC A8 00 00 00 00 00 00 FF BF 00 86 FC 30
0,862,0:42.361.222,115.600 us,3 B,,SP,55,Read Transaction,00 00 18*
0,863,0:42.365.614,79.100 us,2 B,,SP,55,Write Transaction,00 00
0,864,0:42.370.967,86.800 us,2 B,,SP,55,Read Transaction,00 08*
0,865,0:42.371.330,79.200 us,2 B,,SP,55,Write Transaction,12 01
0,866,0:42.376.679,659.500 us,25 B,,SP,55,Read Transaction,00 00 00 00 00 02 62 64 00 00 00 00 00 00 00 00 00 00 00 00 00 00 01 03 00*
0,867,0:42.385.147,677.200 us,26 B,,SP,55,Write Transaction,14 00 02 BC CF 03 A5 23 06 80 1B 05 BE 8D 00 00 00 00 00 00 FF C1 00 89 FC 34
0,868,0:42.401.089,115.700 us,3 B,,SP,55,Read Transaction,00 00 18*
0,869,0:42.405.485,79.100 us,2 B,,SP,55,Write Transaction,00 00
0,870,0:42.410.834,86.700 us,2 B,,SP,55,Read Transaction,00 08*
0,871,0:42.411.195,79.100 us,2 B,,SP,55,Write Transaction,12 01
0,872,0:42.416.548,659.400 us,25 B,,SP,55,Read Transaction,00 00 00 00 00 02 62 64 00 00 00 00 00 00 00 00 00 00 00 00 00 00 01 03 00*
0,873,0:42.425.136,677.800 us,26 B,,SP,55,Write Transaction,14 00 02 BF 58 03 A8 F9 06 82 C3 05 C0 1F 00 00 00 00 00 00 FF C4 00 84 FC 30
0,874,0:42.441.077,115.700 us,3 B,,SP,55,Read Transaction,00 00 18*
0,875,0:42.445.473,79.000 us,2 B,,SP,55,Write Transaction,00 00
0,876,0:42.450.822,86.700 us,2 B,,SP,55,Read Transaction,00 08*
0,877,0:42.451.185,79.000 us,2 B,,SP,55,Write Transaction,12 01
0,878,0:42.456.550,659.500 us,25 B,,SP,55,Read Transaction,00 00 00 00 00 02 62 64 00 00 00 00 00 00 00 00 00 00 00 00 00 00 01 03 00*
0,879,0:42.464.998,676.900 us,26 B,,SP,55,Write Transaction,14 00 02 C2 E9 03 AF 37 06 86 C0 05 C2 CC 00 00 00 00 00 00 FF C0 00 85 FC 31
0,880,0:42.480.966,115.600 us,3 B,,SP,55,Read Transaction,00 00 18*
0,881,0:42.485.358,79.000 us,2 B,,SP,55,Write Transaction,00 00
0,882,0:42.490.707,86.600 us,2 B,,SP,55,Read Transaction,00 08*
0,883,0:42.491.068,79.100 us,2 B,,SP,55,Write Transaction,12 01
0,884,0:42.496.418,659.600 us,25 B,,SP,55,Read Transaction,00 00 00 00 00 02 62 64 00 00 00 00 00 00 00 00 00 00 00 00 00 00 01 03 00*
0,885,0:42.504.965,676.400 us,26 B,,SP,55,Write Transaction,14 00 02 C6 71 03 B4 34 06 8A 7B 05 C5 39 00 00 00 00 00 00 FF C2 00 80 FC 31
0,886,0:42.520.903,115.800 us,3 B,,SP,55,Read Transaction,00 00 18*
0,887,0:42.525.297,79.100 us,2 B,,SP,55,Write Transaction,00 00
0,888,0:42.530.647,86.700 us,2 B,,SP,55,Read Transaction,00 08*
0,889,0:42.531.009,79.000 us,2 B,,SP,55,Write Transaction,12 01
0,890,0:42.536.359,659.500 us,25 B,,SP,55,Read Transaction,00 00 00 00 00 02 62 64 00 00 00 00 00 00 00 00 00 00 00 00 00 00 01 03 00*
0,891,0:42.544.880,676.800 us,26 B,,SP,55,Write Transaction,14 00 02 C9 B1 03 B8 3B 06 8E A1 05 C7 BF 00 00 00 00 00 00 FF C2 00 88 FC 30
0,892,0:42.560.819,116.200 us,3 B,,SP,55,Read Transaction,00 00 18*
0,893,0:42.565.213,79.000 us,2 B,,SP,55,Write Transaction,00 00
0,894,0:42.570.563,86.600 us,2 B,,SP,55,Read Transaction,00 08*
0,895,0:42.570.926,79.000 us,2 B,,SP,55,Write Transaction,12 01
0,896,0:42.576.273,659.500 us,25 B,,SP,55,Read Transaction,00 00 00 00 00 02 62 64 00 00 00 00 00 00 00 00 00 00 00 00 00 00 01 03 00*
0,897,0:42.584.795,676.800 us,26 B,,SP,55,Write Transaction,14 00 02 CC 34 03 BA C3 06 90 DD 05 C9 04 00 00 00 00 00 00 FF C6 00 85 FC 33
0,898,0:42.600.731,115.500 us,3 B,,SP,55,Read Transaction,00 00 18*
0,899,0:42.605.121,79.100 us,2 B,,SP,55,Write Transaction,00 00
0,900,0:42.610.472,86.700 us,2 B,,SP,55,Read Transaction,00 08*
0,901,0:42.610.834,79.100 us,2 B,,SP,55,Write Transaction,12 01
0,902,0:42.616.183,659.500 us,25 B,,SP,55,Read Transaction,00 00 00 00 00 02 62 64 00 00 00 00 00 00 00 00 00 00 00 00 00 00 01 03 00*
0,903,0:42.625.547,676.900 us,26 B,,SP,55,Write Transaction,14 00 02 CE 8A 03 BD BA 06 93 18 05 CA 76 00 00 00 00 00 00 FF C3 00 86 FC 30
0,904,0:42.641.492,115.800 us,3 B,,SP,55,Read Transaction,00 00 18*
0,905,0:42.645.882,79.100 us,2 B,,SP,55,Write Transaction,00 00
0,906,0:42.651.232,86.700 us,2 B,,SP,55,Read Transaction,00 08*
0,907,0:42.651.594,79.100 us,2 B,,SP,55,Write Transaction,12 01
0,908,0:42.656.942,660.400 us,25 B,,SP,55,Read Transaction,00 00 00 00 00 02 62 64 00 00 00 00 00 00 00 00 00 00 00 00 00 00 01 03 00*
0,909,0:42.664.603,677.600 us,26 B,,SP,55,Write Transaction,14 00 02 D0 FB 03 C0 CC 06 95 8D 05 CB F9 00 00 00 00 00 00 FF C4 00 7F FC 30
0,910,0:42.680.540,115.700 us,3 B,,SP,55,Read Transaction,00 00 18*
0,911,0:42.684.931,79.000 us,2 B,,SP,55,Write Transaction,00 00
0,912,0:42.690.279,86.700 us,2 B,,SP,55,Read Transaction,00 08*
0,913,0:42.690.640,79.100 us,2 B,,SP,55,Write Transaction,12 01
0,914,0:42.695.990,659.500 us,25 B,,SP,55,Read Transaction,00 00 00 00 00 02 62 64 00 00 00 00 00 00 00 00 00 00 00 00 00 00 01 03 00*
0,915,0:42.704.567,676.700 us,26 B,,SP,55,Write Transaction,14 00 02 D3 1E 03 C4 12 06 97 9D 05 CD 30 00 00 00 00 00 00 FF C4 00 85 FC 35
0,916,0:42.720.511,115.800 us,3 B,,SP,55,Read Transaction,00 00 18*
0,917,0:42.724.905,79.000 us,2 B,,SP,55,Write Transaction,00 00
0,918,0:42.730.256,86.700 us,2 B,,SP,55,Read Transaction,00 08*
0,919,0:42.730.618,79.100 us,2 B,,SP,55,Write Transaction,12 01
0,920,0:42.735.970,659.500 us,25 B,,SP,55,Read Transaction,00 00 00 00 00 02 62 64 00 00 00 00 00 00 00 00 00 00 00 00 00 00 01 03 00*
0,921,0:42.744.457,676.700 us,26 B,,SP,55,Write Transaction,14 00 02 D6 3F 03 CA 17 06 9A 9A 05 CE C2 00 00 00 00 00 00 FF C1 00 85 FC 31
0,922,0:42.760.395,115.500 us,3 B,,SP,55,Read Transaction,00 00 18*
0,923,0:42.764.790,79.200 us,2 B,,SP,55,Write Transaction,00 00
0,924,0:42.770.141,86.700 us,2 B,,SP,55,Read Transaction,00 08*
0,925,0:42.770.502,79.000 us,2 B,,SP,55,Write Transaction,12 01
0,926,0:42.775.854,660.500 us,25 B,,SP,55,Read Transaction,00 00 00 00 00 02 62 64 00 00 00 00 00 00 00 00 00 00 00 00 00 00 01 03 00*
0,927,0:42.784.442,676.800 us,26 B,,SP,55,Write Transaction,14 00 02 D9 61 03 CE 64 06 9D A1 05 D0 AE 00 00 00 00 00 00 FF C1 00 83 FC 35
0,928,0:42.800.378,115.600 us,3 B,,SP,55,Read Transaction,00 00 18*
0,929,0:42.804.767,79.000 us,2 B,,SP,55,Write Transaction,00 00
0,930,0:42.810.119,86.700 us,2 B,,SP,55,Read Transaction,00 08*
0,931,0:42.810.481,79.000 us,2 B,,SP,55,Write Transaction,12 01
0,932,0:42.815.829,659.300 us,25 B,,SP,55,Read Transaction,00 00 00 00 00 02 62 64 00 00 00 00 00 00 00 00 00 00 00 00 00 00 01 03 00*
0,933,0:42.824.316,676.800 us,26 B,,SP,55,Write Transaction,14 00 02 DC 25 03 D2 54 06 9F FA 05 D1 DC 00 00 00 00 00 00 FF C3 00 84 FC 34
0,934,0:42.840.253,115.500 us,3 B,,SP,55,Read Transaction,00 00 18*
0,935,0:42.844.650,79.200 us,2 B,,SP,55,Write Transaction,00 00
0,936,0:42.850.003,88.700 us,2 B,,SP,55,Read Transaction,00 08*
0,937,0:42.850.368,79.000 us,2 B,,SP,55,Write Transaction,12 01
0,938,0:42.855.716,659.600 us,25 B,,SP,55,Read Transaction,00 00 00 00 00 02 62 64 00 00 00 00 00 00 00 00 00 00 00 00 00 00 01 03 00*
0,939,0:42.864.268,677.300 us,26 B,,SP,55,Write Transaction,14 00 02 DC FF 03 D3 2F 06 9D 63 05 CF C3 00 00 00 00 00 00 FF C3 00 81 FC 38
0,940,0:42.880.206,115.600 us,3 B,,SP,55,Read Transaction,00 00 18*
0,941,0:42.884.601,79.100 us,2 B,,SP,55,Write Transaction,00 00
0,942,0:42.889.952,86.700 us,2 B,,SP,55,Read Transaction,00 08*
0,943,0:42.890.314,79.100 us,2 B,,SP,55,Write Transaction,12 01
0,944,0:42.895.664,659.600 us,25 B,,SP,55,Read Transaction,00 00 00 00 00 02 62 64 00 00 00 00 00 00 00 00 00 00 00 00 00 00 01 03 00*
0,945,0:42.904.197,677.800 us,26 B,,SP,55,Write Transaction,14 00 02 D4 EA 03 C5 2A 06 91 03 05 C8 B7 00 00 00 00 00 00 FF C3 00 80 FC 31
0,946,0:42.920.135,115.600 us,3 B,,SP,55,Read Transaction,00 00 18*
0,947,0:42.924.536,79.100 us,2 B,,SP,55,Write Transaction,00 00
0,948,0:42.929.887,86.600 us,2 B,,SP,55,Read Transaction,00 08*
0,949,0:42.930.249,79.100 us,2 B,,SP,55,Write Transaction,12 01
0,950,0:42.935.597,659.500 us,25 B,,SP,55,Read Transaction,00 00 00 00 00 02 62 64 00 00 00 00 00 00 00 00 00 00 00 00 00 00 01 03 00*
0,951,0:42.944.082,676.900 us,26 B,,SP,55,Write Transaction,14 00 02 C3 CE 03 AE 1E 06 82 CC 05 C1 D5 00 00 00 00 00 00 FF C0 00 85 FC 35
0,952,0:42.960.020,115.600 us,3 B,,SP,55,Read Transaction,00 00 18*
0,953,0:42.964.414,79.000 us,2 B,,SP,55,Write Transaction,00 00
0,954,0:42.969.762,86.600 us,2 B,,SP,55,Read Transaction,00 08*
0,955,0:42.970.123,79.000 us,2 B,,SP,55,Write Transaction,12 01
0,956,0:42.975.472,659.600 us,25 B,,SP,55,Read Transaction,00 00 00 00 00 02 62 64 00 00 00 00 00 00 00 00 00 00 00 00 00 00 01 03 00*
0,957,0:42.983.988,676.900 us,26 B,,SP,55,Write Transaction,14 00 02 B6 36 03 9B 55 06 7B 66 05 BE A5 00 00 00 00 00 00 FF C2 00 85 FC 31
0,958,0:42.999.952,115.600 us,3 B,,SP,55,Read Transaction,00 00 18*
0,959,0:43.004.343,79.100 us,2 B,,SP,55,Write Transaction,00 00
0,960,0:43.009.694,86.700 us,2 B,,SP,55,Read Transaction,00 08*
0,961,0:43.010.056,79.100 us,2 B,,SP,55,Write Transaction,12 01
0,962,0:43.015.403,659.500 us,25 B,,SP,55,Read Transaction,00 00 00 00 00 02 62 64 00 00 00 00 00 00 00 00 00 00 00 00 00 00 01 03 00*
0,963,0:43.023.934,676.900 us,26 B,,SP,55,Write Transaction,14 00 02 AF 4F 03 90 0B 06 77 F9 05 BD 25 00 00 00 00 00 00 FF C0 00 85 FC 30
0,964,0:43.039.871,115.800 us,3 B,,SP,55,Read Transaction,00 00 18*
0,965,0:43.044.264,79.100 us,2 B,,SP,55,Write Transaction,00 00
0,966,0:43.049.613,86.700 us,2 B,,SP,55,Read Transaction,00 08*
0,967,0:43.049.974,79.100 us,2 B,,SP,55,Write Transaction,12 01
0,968,0:43.055.324,659.500 us,25 B,,SP,55,Read Transaction,00 00 00 00 00 02 62 64 00 00 00 00 00 00 00 00 00 00 00 00 00 00 01 03 00*
0,969,0:43.063.856,676.300 us,26 B,,SP,55,Write Transaction,14 00 02 AB AE 03 8B 80 06 75 B8 05 BB F5 00 00 00 00 00 00 FF C6 00 84 FC 31
0,970,0:43.079.794,115.600 us,3 B,,SP,55,Read Transaction,00 00 18*
0,971,0:43.084.188,79.200 us,2 B,,SP,55,Write Transaction,00 00
0,972,0:43.089.541,86.600 us,2 B,,SP,55,Read Transaction,00 08*
0,973,0:43.089.903,79.000 us,2 B,,SP,55,Write Transaction,12 01
0,974,0:43.095.250,659.500 us,25 B,,SP,55,Read Transaction,00 00 00 00 00 02 62 64 00 00 00 00 00 00 00 00 00 00 00 00 00 00 01 03 00*
0,975,0:43.103.776,677.800 us,26 B,,SP,55,Write Transaction,14 00 02 A9 6C 03 88 2E 06 75 A2 05 BC A1 00 00 00 00 00 00 FF BC 00 86 FC 30
0,976,0:43.119.717,115.600 us,3 B,,SP,55,Read Transaction,00 00 18*
0,977,0:43.124.110,79.100 us,2 B,,SP,55,Write Transaction,00 00
0,978,0:43.129.459,86.700 us,2 B,,SP,55,Read Transaction,00 08*
0,979,0:43.129.821,79.000 us,2 B,,SP,55,Write Transaction,12 01
0,980,0:43.135.170,659.600 us,25 B,,SP,55,Read Transaction,00 00 00 00 00 02 62 64 00 00 00 00 00 00 00 00 00 00 00 00 00 00 01 03 00*
0,981,0:43.143.669,676.900 us,26 B,,SP,55,Write Transaction,14 00 02 AA 7F 03 8B 34 06 78 07 05 BD E7 00 00 00 00 00 00 FF C5 00 82 FC 31
0,982,0:43.159.613,115.700 us,3 B,,SP,55,Read Transaction,00 00 18*
0,983,0:43.164.005,79.000 us,2 B,,SP,55,Write Transaction,00 00
0,984,0:43.169.355,86.700 us,2 B,,SP,55,Read Transaction,00 08*
0,985,0:43.169.717,79.100 us,2 B,,SP,55,Write Transaction,12 01
0,986,0:43.175.067,659.400 us,25 B,,SP,55,Read Transaction,00 00 00 00 00 02 62 64 00 00 00 00 00 00 00 00 00 00 00 00 00 00 01 03 00*
0,987,0:43.183.654,676.800 us,26 B,,SP,55,Write Transaction,14 00 02 AC BE 03 90 42 06 79 C5 05 BE 96 00 00 00 00 00 00 FF C5 00 82 FC 31
0,988,0:43.199.599,115.600 us,3 B,,SP,55,Read Transaction,00 00 18*
0,989,0:43.203.991,79.100 us,2 B,,SP,55,Write Transaction,00 00
0,990,0:43.209.391,86.700 us,2 B,,SP,55,Read Transaction,00 08*
0,991,0:43.209.754,79.000 us,2 B,,SP,55,Write Transaction,12 01
0,992,0:43.215.105,659.500 us,25 B,,SP,55,Read Transaction,00 00 00 00 00 02 62 64 00 00 00 00 00 00 00 00 00 00 00 00 00 00 01 03 00*
0,993,0:43.223.512,676.800 us,26 B,,SP,55,Write Transaction,14 00 02 AD 25 03 91 9E 06 7A 10 05 BE DB 00 00 00 00 00 00 FF C7 00 85 FC 34
0,994,0:43.239.454,115.600 us,3 B,,SP,55,Read Transaction,00 00 18*
0,995,0:43.243.844,79.100 us,2 B,,SP,55,Write Transaction,00 00
0,996,0:43.249.194,86.700 us,2 B,,SP,55,Read Transaction,00 08*
0,997,0:43.249.557,79.000 us,2 B,,SP,55,Write Transaction,12 01
0,998,0:43.254.907,659.500 us,25 B,,SP,55,Read Transaction,00 00 00 00 00 02 62 64 00 00 00 00 00 00 00 00 00 00 00 00 00 00 01 03 00*
0,999,0:43.263.508,676.800 us,26 B,,SP,55,Write Transaction,14 00 02 AD 0E 03 92 0D 06 7A BA 05 BF 7A 00 00 00 00 00 00 FF C3 00 83 FC 30
0,1000,0:43.279.450,115.700 us,3 B,,SP,55,Read Transaction,00 00 18*
0,1001,0:43.283.842,79.000 us,2 B,,SP,55,Write Transaction,00 00
0,1002,0:43.289.193,86.700 us,2 B,,SP,55,Read Transaction,00 08*
0,1003,0:43.289.555,79.000 us,2 B,,SP,55,Write Transaction,12 01
0,1004,0:43.294.903,659.700 us,25 B,,SP,55,Read Transaction,00 00 00 00 00 02 62 64 00 00 00 00 00 00 00 00 00 00 00 00 00 00 01 03 00*
0,1005,0:43.303.347,677.800 us,26 B,,SP,55,Write Transaction,14 00 02 AD 75 03 93 A2 06 7C 1B 05 C0 5C 00 00 00 00 00 00 FF C2 00 85 FC 31
0,1006,0:43.319.295,116.100 us,3 B,,SP,55,Read Transaction,00 00 18*
0,1007,0:43.323.688,79.000 us,2 B,,SP,55,Write Transaction,00 00
0,1008,0:43.329.037,86.700 us,2 B,,SP,55,Read Transaction,00 08*
0,1009,0:43.329.399,79.100 us,2 B,,SP,55,Write Transaction,12 01
0,1010,0:43.334.750,659.500 us,25 B,,SP,55,Read Transaction,00 00 00 00 00 02 62 64 00 00 00 00 00 00 00 00 00 00 00 00 00 00 01 03 00*
0,1011,0:43.343.326,676.800 us,26 B,,SP,55,Write Transaction,14 00 02 AF CA 03 97 CA 06 7F 21 05 C2 24 00 00 00 00 00 00 FF C0 00 85 FC 2F
0,1012,0:43.359.269,115.600 us,3 B,,SP,55,Read Transaction,00 00 18*
0,1013,0:43.363.660,79.100 us,2 B,,SP,55,Write Transaction,00 00
0,1014,0:43.369.015,86.700 us,2 B,,SP,55,Read Transaction,00 08*
0,1015,0:43.369.378,79.200 us,2 B,,SP,55,Write Transaction,12 01
0,1016,0:43.374.729,660.400 us,25 B,,SP,55,Read Transaction,00 00 00 00 00 02 62 64 00 00 00 00 00 00 00 00 00 00 00 00 00 00 01 03 00*
0,1017,0:43.383.178,676.200 us,26 B,,SP,55,Write Transaction,14 00 02 B3 20 03 9C F6 06 83 43 05 C4 84 00 00 00 00 00 00 FF C1 00 84 FC 34
0,1018,0:43.399.112,115.600 us,3 B,,SP,55,Read Transaction,00 00 18*
0,1019,0:43.403.503,79.100 us,2 B,,SP,55,Write Transaction,00 00
0,1020,0:43.408.852,86.700 us,2 B,,SP,55,Read Transaction,00 08*
0,1021,0:43.409.213,79.100 us,2 B,,SP,55,Write Transaction,12 01
0,1022,0:43.414.563,659.500 us,25 B,,SP,55,Read Transaction,00 00 00 00 00 02 62 64 00 00 00 00 00 00 00 00 00 00 00 00 00 00 01 03 00*
0,1023,0:43.423.732,676.800 us,26 B,,SP,55,Write Transaction,14 00 02 B6 6B 03 A1 2F 06 85 AF 05 C5 83 00 00 00 00 00 00 FF C4 00 86 FC 30
0,1024,0:43.439.678,115.800 us,3 B,,SP,55,Read Transaction,00 00 18*
0,1025,0:43.444.069,79.100 us,2 B,,SP,55,Write Transaction,00 00
0,1026,0:43.449.419,86.600 us,2 B,,SP,55,Read Transaction,00 08*
0,1027,0:43.449.781,79.100 us,2 B,,SP,55,Write Transaction,12 01
0,1028,0:43.455.129,659.000 us,25 B,,SP,55,Read Transaction,00 00 00 00 00 02 62 64 00 00 00 00 00 00 00 00 00 00 00 00 00 00 01 03 00*
0,1029,0:43.463.081,676.900 us,26 B,,SP,55,Write Transaction,14 00 02 B8 1B 03 A2 FA 06 86 2A 05 C5 83 00 00 00 00 00 00 FF C4 00 82 FC 2D
0,1030,0:43.479.019,115.600 us,3 B,,SP,55,Read Transaction,00 00 18*
0,1031,0:43.483.411,79.100 us,2 B,,SP,55,Write Transaction,00 00
0,1032,0:43.488.760,86.700 us,2 B,,SP,55,Read Transaction,00 08*
0,1033,0:43.489.169,79.100 us,2 B,,SP,55,Write Transaction,12 01
0,1034,0:43.494.519,659.500 us,25 B,,SP,55,Read Transaction,00 00 00 00 00 02 62 64 00 00 00 00 00 00 00 00 00 00 00 00 00 00 01 03 00*
0,1035,0:43.502.982,676.800 us,26 B,,SP,55,Write Transaction,14 00 02 B9 8B 03 A4 43 06 87 75 05 C6 58 00 00 00 00 00 00 FF C3 00 83 FC 32
0,1036,0:43.518.923,115.600 us,3 B,,SP,55,Read Transaction,00 00 18*
0,1037,0:43.523.314,79.000 us,2 B,,SP,55,Write Transaction,00 00
0,1038,0:43.528.663,86.700 us,2 B,,SP,55,Read Transaction,00 08*
0,1039,0:43.529.026,79.100 us,2 B,,SP,55,Write Transaction,12 01
0,1040,0:43.534.375,659.600 us,25 B,,SP,55,Read Transaction,00 00 00 00 00 02 62 64 00 00 00 00 00 00 00 00 00 00 00 00 00 00 01 03 00*
0,1041,0:43.542.911,676.700 us,26 B,,SP,55,Write Transaction,14 00 02 BB 07 03 A5 E1 06 88 B7 05 C7 02 00 00 00 00 00 00 FF BE 00 84 FC 30
0,1042,0:43.558.855,116.400 us,3 B,,SP,55,Read Transaction,00 00 18*
0,1043,0:43.563.252,79.000 us,2 B,,SP,55,Write Transaction,00 00
0,1044,0:43.568.602,86.800 us,2 B,,SP,55,Read Transaction,00 08*
0,1045,0:43.568.964,79.100 us,2 B,,SP,55,Write Transaction,12 01
0,1046,0:43.574.311,659.400 us,25 B,,SP,55,Read Transaction,00 00 00 00 00 02 62 64 00 00 00 00 00 00 00 00 00 00 00 00 00 00 01 03 00*
0,1047,0:43.582.830,676.900 us,26 B,,SP,55,Write Transaction,14 00 02 BC A2 03 A8 E7 06 8A 36 05 C7 B3 00 00 00 00 00 00 FF C0 00 82 FC 32
0,1048,0:43.598.767,115.600 us,3 B,,SP,55,Read Transaction,00 00 18*
0,1049,0:43.603.197,79.200 us,2 B,,SP,55,Write Transaction,00 00
0,1050,0:43.608.546,86.700 us,2 B,,SP,55,Read Transaction,00 08*
0,1051,0:43.608.907,79.100 us,2 B,,SP,55,Write Transaction,12 01
0,1052,0:43.614.257,659.500 us,25 B,,SP,55,Read Transaction,00 00 00 00 00 02 62 64 00 00 00 00 00 00 00 00 00 00 00 00 00 00 01 03 00*
0,1053,0:43.622.765,676.900 us,26 B,,SP,55,Write Transaction,14 00 02 BE F2 03 AD 6B 06 8A CA 05 C7 8B 00 00 00 00 00 00 FF C1 00 87 FC 2F
0,1054,0:43.638.705,115.600 us,3 B,,SP,55,Read Transaction,00 00 18*
0,1055,0:43.643.096,79.100 us,2 B,,SP,55,Write Transaction,00 00
0,1056,0:43.648.454,86.800 us,2 B,,SP,55,Read Transaction,00 08*
0,1057,0:43.648.817,79.200 us,2 B,,SP,55,Write Transaction,12 01
0,1058,0:43.654.169,659.600 us,25 B,,SP,55,Read Transaction,00 00 00 00 00 02 58 64 00 00 00 00 00 00 00 00 00 00 00 00 00 00 01 03 00*
0,1059,0:43.662.677,676.800 us,26 B,,SP,55,Write Transaction,14 00 02 C1 34 03 B1 7F 06 8C 1C 05 C8 0D 00 00 00 00 00 00 FF BF 00 81 FC 33
0,1060,0:43.678.613,115.600 us,3 B,,SP,55,Read Transaction,00 00 18*
0,1061,0:43.683.005,79.000 us,2 B,,SP,55,Write Transaction,00 00
0,1062,0:43.688.354,86.700 us,2 B,,SP,55,Read Transaction,00 08*
0,1063,0:43.688.717,79.100 us,2 B,,SP,55,Write Transaction,12 01
0,1064,0:43.694.068,659.500 us,25 B,,SP,55,Read Transaction,00 00 00 00 00 02 58 64 00 00 00 00 00 00 00 00 00 00 00 00 00 00 01 03 00*
0,1065,0:43.702.680,676.800 us,26 B,,SP,55,Write Transaction,14 00 02 C3 9E 03 B6 01 06 8D A5 05 C8 CE 00 00 00 00 00 00 FF BF 00 85 FC 33
0,1066,0:43.718.620,115.600 us,3 B,,SP,55,Read Transaction,00 00 18*
0,1067,0:43.723.015,79.200 us,2 B,,SP,55,Write Transaction,00 00
0,1068,0:43.728.365,86.700 us,2 B,,SP,55,Read Transaction,00 08*
0,1069,0:43.728.728,79.100 us,2 B,,SP,55,Write Transaction,12 01
0,1070,0:43.734.074,659.400 us,25 B,,SP,55,Read Transaction,00 00 00 00 00 02 58 64 00 00 00 00 00 00 00 00 00 00 00 00 00 00 01 03 00*
0,1071,0:43.742.529,676.900 us,26 B,,SP,55,Write Transaction,14 00 02 C6 FD 03 BB 2F 06 91 3E 05 CB 06 00 00 00 00 00 00 FF BE 00 85 FC 36
0,1072,0:43.758.477,115.700 us,3 B,,SP,55,Read Transaction,00 00 18*
0,1073,0:43.762.868,79.100 us,2 B,,SP,55,Write Transaction,00 00
0,1074,0:43.768.217,86.700 us,2 B,,SP,55,Read Transaction,00 08*
0,1075,0:43.768.579,79.000 us,2 B,,SP,55,Write Transaction,12 01
0,1076,0:43.773.934,660.400 us,25 B,,SP,55,Read Transaction,00 00 00 00 00 02 58 64 00 00 00 00 00 00 00 00 00 00 00 00 00 00 01 03 00*
0,1077,0:43.782.432,677.700 us,26 B,,SP,55,Write Transaction,14 00 02 CA EC 03 C1 FC 06 95 4A 05 CD 56 00 00 00 00 00 00 FF BE 00 81 FC 31
0,1078,0:43.798.377,115.600 us,3 B,,SP,55,Read Transaction,00 00 18*
0,1079,0:43.802.768,79.100 us,2 B,,SP,55,Write Transaction,00 00
0,1080,0:43.808.118,86.700 us,2 B,,SP,55,Read Transaction,00 08*
0,1081,0:43.808.481,79.200 us,2 B,,SP,55,Write Transaction,12 01
0,1082,0:43.813.834,659.500 us,25 B,,SP,55,Read Transaction,00 00 00 00 00 02 58 64 00 00 00 00 00 00 00 00 00 00 00 00 00 00 01 03 00*
0,1083,0:43.822.400,676.700 us,26 B,,SP,55,Write Transaction,14 00 02 CE EB 03 C8 B2 06 98 4B 05 CE 82 00 00 00 00 00 00 FF C4 00 80 FC 35
0,1084,0:43.838.339,115.800 us,3 B,,SP,55,Read Transaction,00 00 18*
0,1085,0:43.842.732,79.000 us,2 B,,SP,55,Write Transaction,00 00
0,1086,0:43.848.081,86.800 us,2 B,,SP,55,Read Transaction,00 08*
0,1087,0:43.848.445,79.100 us,2 B,,SP,55,Write Transaction,12 01
0,1088,0:43.853.793,660.500 us,25 B,,SP,55,Read Transaction,00 00 00 00 00 02 58 64 00 00 00 00 00 00 00 00 00 00 00 00 00 00 01 03 00*
0,1089,0:43.862.257,676.700 us,26 B,,SP,55,Write Transaction,14 00 02 CC AD 03 C2 95 06 91 7B 05 CA 4E 00 00 00 00 00 00 FF C1 00 84 FC 34
0,1090,0:43.878.193,115.700 us,3 B,,SP,55,Read Transaction,00 00 18*
0,1091,0:43.882.587,79.000 us,2 B,,SP,55,Write Transaction,00 00
0,1092,0:43.887.938,86.600 us,2 B,,SP,55,Read Transaction,00 08*
0,1093,0:43.888.300,79.100 us,2 B,,SP,55,Write Transaction,12 01
0,1094,0:43.893.654,660.400 us,25 B,,SP,55,Read Transaction,00 00 00 00 00 02 58 64 00 00 00 00 00 00 00 00 00 00 00 00 00 00 01 03 00*
0,1095,0:43.902.244,676.800 us,26 B,,SP,55,Write Transaction,14 00 02 BE 32 03 AE B3 06 85 5B 05 C4 44 00 00 00 00 00 00 FF BE 00 86 FC 31
0,1096,0:43.918.236,115.600 us,3 B,,SP,55,Read Transaction,00 00 18*
0,1097,0:43.922.627,79.100 us,2 B,,SP,55,Write Transaction,00 00
0,1098,0:43.927.976,86.700 us,2 B,,SP,55,Read Transaction,00 08*
0,1099,0:43.928.339,79.100 us,2 B,,SP,55,Write Transaction,12 01
0,1100,0:43.933.686,659.500 us,25 B,,SP,55,Read Transaction,00 00 00 00 00 02 58 64 00 00 00 00 00 00 00 00 00 00 00 00 00 00 01 03 00*
0,1101,0:43.942.144,676.600 us,26 B,,SP,55,Write Transaction,14 00 02 AF 31 03 9B BC 06 7A D9 05 BE DD 00 00 00 00 00 00 FF C2 00 87 FC 34
0,1102,0:43.958.083,115.600 us,3 B,,SP,55,Read Transaction,00 00 18*
0,1103,0:43.962.475,79.100 us,2 B,,SP,55,Write Transaction,00 00
0,1104,0:43.967.823,86.700 us,2 B,,SP,55,Read Transaction,00 08*
0,1105,0:43.968.185,79.100 us,2 B,,SP,55,Write Transaction,12 01
0,1106,0:43.973.534,659.500 us,25 B,,SP,55,Read Transaction,00 00 00 00 00 02 58 64 00 00 00 00 00 00 00 00 00 00 00 00 00 00 01 03 00*
0,1107,0:43.982.068,676.800 us,26 B,,SP,55,Write Transaction,14 00 02 A6 B8 03 8C 99 06 75 EB 05 BC 7A 00 00 00 00 00 00 FF C5 00 85 FC 30
0,1108,0:43.998.014,115.600 us,3 B,,SP,55,Read Transaction,00 00 18*
0,1109,0:44.002.408,79.100 us,2 B,,SP,55,Write Transaction,00 00
0,1110,0:44.007.759,86.700 us,2 B,,SP,55,Read Transaction,00 08*
0,1111,0:44.008.122,79.100 us,2 B,,SP,55,Write Transaction,12 01
0,1112,0:44.013.469,659.600 us,25 B,,SP,55,Read Transaction,00 00 00 00 00 02 58 64 00 00 00 00 00 00 00 00 00 00 00 00 00 00 01 03 00*
0,1113,0:44.021.982,676.700 us,26 B,,SP,55,Write Transaction,14 00 02 A1 91 03 82 43 06 71 E1 05 BA 3F 00 00 00 00 00 00 FF CA 00 83 FC 30
0,1114,0:44.037.918,115.500 us,3 B,,SP,55,Read Transaction,00 00 18*
0,1115,0:44.042.311,79.000 us,2 B,,SP,55,Write Transaction,00 00
0,1116,0:44.047.661,86.700 us,2 B,,SP,55,Read Transaction,00 08*
0,1117,0:44.048.022,79.100 us,2 B,,SP,55,Write Transaction,12 01
0,1118,0:44.053.372,659.400 us,25 B,,SP,55,Read Transaction,00 00 00 00 00 02 58 64 00 00 00 00 00 00 00 00 00 00 00 00 00 00 01 03 00*
0,1119,0:44.061.920,677.800 us,26 B,,SP,55,Write Transaction,14 00 02 9E E9 03 7D 70 06 70 C4 05 B9 E4 00 00 00 00 00 00 FF BE 00 85 FC 35
0,1120,0:44.077.861,115.600 us,3 B,,SP,55,Read Transaction,00 00 18*
0,1121,0:44.082.253,79.100 us,2 B,,SP,55,Write Transaction,00 00
0,1122,0:44.087.602,86.600 us,2 B,,SP,55,Read Transaction,00 08*
0,1123,0:44.087.965,79.000 us,2 B,,SP,55,Write Transaction,12 01
0,1124,0:44.093.314,659.500 us,25 B,,SP,55,Read Transaction,00 00 00 00 00 02 58 64 00 00 00 00 00 00 00 00 00 00 00 00 00 00 01 03 00*
0,1125,0:44.101.851,676.800 us,26 B,,SP,55,Write Transaction,14 00 02 9F 83 03 7F 03 06 72 57 05 BA 97 00 00 00 00 00 00 FF C9 00 84 FC 32
0,1126,0:44.117.791,115.600 us,3 B,,SP,55,Read Transaction,00 00 18*
0,1127,0:44.122.184,79.000 us,2 B,,SP,55,Write Transaction,00 00
0,1128,0:44.127.532,86.700 us,2 B,,SP,55,Read Transaction,00 08*
0,1129,0:44.127.893,79.000 us,2 B,,SP,55,Write Transaction,12 01
0,1130,0:44.133.245,659.500 us,25 B,,SP,55,Read Transaction,00 00 00 00 00 02 58 64 00 00 00 00 00 00 00 00 00 00 00 00 00 00 01 03 00*
0,1131,0:44.141.724,676.900 us,26 B,,SP,55,Write Transaction,14 00 02 A1 6C 03 82 70 06 74 2A 05 BB A1 00 00 00 00 00 00 FF C2 00 86 FC 2B
0,1132,0:44.157.661,115.600 us,3 B,,SP,55,Read Transaction,00 00 18*
0,1133,0:44.162.052,79.100 us,2 B,,SP,55,Write Transaction,00 00
0,1134,0:44.167.403,86.800 us,2 B,,SP,55,Read Transaction,00 08*
0,1135,0:44.167.766,79.200 us,2 B,,SP,55,Write Transaction,12 01
0,1136,0:44.173.120,660.200 us,25 B,,SP,55,Read Transaction,00 00 00 00 00 02 58 64 00 00 00 00 00 00 00 00 00 00 00 00 00 00 01 03 00*
0,1137,0:44.181.717,676.800 us,26 B,,SP,55,Write Transaction,14 00 02 A1 61 03 82 10 06 75 42 05 BC 62 00 00 00 00 00 00 FF BF 00 7F FC 34
0,1138,0:44.197.655,115.700 us,3 B,,SP,55,Read Transaction,00 00 18*
0,1139,0:44.202.049,79.000 us,2 B,,SP,55,Write Transaction,00 00
0,1140,0:44.207.400,86.800 us,2 B,,SP,55,Read Transaction,00 08*
0,1141,0:44.207.762,79.100 us,2 B,,SP,55,Write Transaction,12 01
0,1142,0:44.213.111,659.500 us,25 B,,SP,55,Read Transaction,00 00 00 00 00 02 58 64 00 00 00 00 00 00 00 00 00 00 00 00 00 00 01 03 00*
0,1143,0:44.221.579,676.900 us,26 B,,SP,55,Write Transaction,14 00 02 A0 60 03 81 30 06 74 CF 05 BC 17 00 00 00 00 00 00 FF BF 00 83 FC 31
0,1144,0:44.237.520,115.800 us,3 B,,SP,55,Read Transaction,00 00 18*
0,1145,0:44.241.912,79.100 us,2 B,,SP,55,Write Transaction,00 00
0,1146,0:44.247.262,86.700 us,2 B,,SP,55,Read Transaction,00 08*
0,1147,0:44.247.623,79.000 us,2 B,,SP,55,Write Transaction,12 01
0,1148,0:44.252.972,659.600 us,25 B,,SP,55,Read Transaction,00 00 00 00 00 02 58 64 26 97 19 00 00 00 00 00 00 00 00 00 00 00 01 03 00*
0,1149,0:44.261.553,676.700 us,26 B,,SP,55,Write Transaction,14 00 02 A1 78 03 83 B1 06 77 16 05 BD 7E 00 00 00 00 00 00 FF C0 00 84 FC 36
0,1150,0:44.277.502,115.600 us,3 B,,SP,55,Read Transaction,00 00 18*
0,1151,0:44.281.894,79.100 us,2 B,,SP,55,Write Transaction,00 00
0,1152,0:44.287.243,86.800 us,2 B,,SP,55,Read Transaction,00 08*
0,1153,0:44.287.606,79.200 us,2 B,,SP,55,Write Transaction,12 01
0,1154,0:44.292.955,659.500 us,25 B,,SP,55,Read Transaction,00 00 00 00 00 02 58 64 00 00 00 00 00 00 00 00 00 00 00 00 00 00 01 03 00*
0,1155,0:44.301.426,677.900 us,26 B,,SP,55,Write Transaction,14 00 02 A2 F7 03 85 75 06 78 E4 05 BE 8B 00 00 00 00 00 00 FF C3 00 87 FC 30
0,1156,0:44.317.383,116.200 us,3 B,,SP,55,Read Transaction,00 00 18*
0,1157,0:44.321.777,79.000 us,2 B,,SP,55,Write Transaction,00 00
0,1158,0:44.327.127,86.600 us,2 B,,SP,55,Read Transaction,00 08*
0,1159,0:44.327.488,79.000 us,2 B,,SP,55,Write Transaction,12 01
0,1160,0:44.332.842,659.600 us,25 B,,SP,55,Read Transaction,00 00 00 00 00 02 58 64 00 00 00 00 00 00 00 00 00 00 00 00 00 00 01 03 00*
0,1161,0:44.341.408,676.800 us,26 B,,SP,55,Write Transaction,14 00 02 A4 6A 03 86 C1 06 7A 4B 05 BF 4A 00 00 00 00 00 00 FF BD 00 7F FC 2E
0,1162,0:44.357.352,116.100 us,3 B,,SP,55,Read Transaction,00 00 18*
0,1163,0:44.361.744,79.000 us,2 B,,SP,55,Write Transaction,00 00
0,1164,0:44.367.094,86.700 us,2 B,,SP,55,Read Transaction,00 08*
0,1165,0:44.367.457,79.100 us,2 B,,SP,55,Write Transaction,12 01
0,1166,0:44.372.803,659.500 us,25 B,,SP,55,Read Transaction,00 00 00 00 00 02 58 64 00 00 00 00 00 00 00 00 00 00 00 00 00 00 01 03 00*
0,1167,0:44.381.273,676.800 us,26 B,,SP,55,Write Transaction,14 00 02 A5 C9 03 88 B9 06 7A E2 05 BF 6D 00 00 00 00 00 00 FF BC 00 85 FC 32
0,1168,0:44.397.212,116.100 us,3 B,,SP,55,Read Transaction,00 00 18*
0,1169,0:44.401.606,79.000 us,2 B,,SP,55,Write Transaction,00 00
0,1170,0:44.406.956,86.600 us,2 B,,SP,55,Read Transaction,00 08*
0,1171,0:44.407.317,79.000 us,2 B,,SP,55,Write Transaction,12 01
0,1172,0:44.412.668,659.500 us,25 B,,SP,55,Read Transaction,00 00 00 00 00 02 58 64 00 00 00 00 00 00 00 00 00 00 00 00 00 00 01 03 00*
0,1173,0:44.421.219,676.700 us,26 B,,SP,55,Write Transaction,14 00 02 A7 74 03 8B 02 06 7C F1 05 C0 A5 00 00 00 00 00 00 FF C0 00 82 FC 34
0,1174,0:44.437.165,116.200 us,3 B,,SP,55,Read Transaction,00 00 18*
0,1175,0:44.441.563,79.200 us,2 B,,SP,55,Write Transaction,00 00
0,1176,0:44.446.917,86.700 us,2 B,,SP,55,Read Transaction,00 08*
0,1177,0:44.447.280,79.100 us,2 B,,SP,55,Write Transaction,12 01
0,1178,0:44.452.632,659.600 us,25 B,,SP,55,Read Transaction,00 00 00 00 00 02 58 64 00 00 00 00 00 00 00 00 00 00 00 00 00 00 01 03 00*
0,1179,0:44.461.150,676.800 us,26 B,,SP,55,Write Transaction,14 00 02 A9 84 03 8C CC 06 7E D9 05 C1 A6 00 00 00 00 00 00 FF C2 00 88 FC 2F
0,1180,0:44.477.092,116.100 us,3 B,,SP,55,Read Transaction,00 00 18*
0,1181,0:44.481.485,79.100 us,2 B,,SP,55,Write Transaction,00 00
0,1182,0:44.486.833,86.600 us,2 B,,SP,55,Read Transaction,00 08*
0,1183,0:44.487.197,79.100 us,2 B,,SP,55,Write Transaction,12 01
0,1184,0:44.492.544,659.300 us,25 B,,SP,55,Read Transaction,00 00 00 00 00 02 58 64 00 00 00 00 00 00 00 00 00 00 00 00 00 00 01 03 00*
0,1185,0:44.501.062,676.800 us,26 B,,SP,55,Write Transaction,14 00 02 AA E5 03 8D 26 06 80 EF 05 C3 44 00 00 00 00 00 00 FF C3 00 80 FC 30
0,1186,0:44.516.999,116.200 us,3 B,,SP,55,Read Transaction,00 00 18*
0,1187,0:44.521.391,79.000 us,2 B,,SP,55,Write Transaction,00 00
0,1188,0:44.526.741,86.600 us,2 B,,SP,55,Read Transaction,00 08*
0,1189,0:44.527.105,79.100 us,2 B,,SP,55,Write Transaction,12 01
0,1190,0:44.532.456,659.500 us,25 B,,SP,55,Read Transaction,00 00 00 00 00 02 58 64 00 00 00 00 00 00 00 00 00 00 00 00 00 00 01 03 00*
0,1191,0:44.541.007,676.900 us,26 B,,SP,55,Write Transaction,14 00 02 AC 87 03 8D 6B 06 83 9B 05 C5 21 00 00 00 00 00 00 FF BC 00 87 FC 30
0,1192,0:44.556.944,116.300 us,3 B,,SP,55,Read Transaction,00 00 18*
0,1193,0:44.561.336,79.000 us,2 B,,SP,55,Write Transaction,00 00
0,1194,0:44.566.686,86.700 us,2 B,,SP,55,Read Transaction,00 08*
0,1195,0:44.567.050,79.100 us,2 B,,SP,55,Write Transaction,12 01
0,1196,0:44.572.398,659.400 us,25 B,,SP,55,Read Transaction,00 00 00 00 00 02 58 64 00 00 00 00 00 00 00 00 00 00 00 00 00 00 01 03 00*
0,1197,0:44.580.899,676.800 us,26 B,,SP,55,Write Transaction,14 00 02 AE 0F 03 8E 1F 06 84 E6 05 C5 D8 00 00 00 00 00 00 FF C0 00 83 FC 31
0,1198,0:44.596.839,116.300 us,3 B,,SP,55,Read Transaction,00 00 18*
0,1199,0:44.601.240,79.200 us,2 B,,SP,55,Write Transaction,00 00
0,1200,0:44.606.592,86.600 us,2 B,,SP,55,Read Transaction,00 08*
0,1201,0:44.606.954,79.000 us,2 B,,SP,55,Write Transaction,12 01
0,1202,0:44.612.302,659.500 us,25 B,,SP,55,Read Transaction,00 00 00 00 00 02 58 64 00 00 00 00 00 00 00 00 00 00 00 00 00 00 01 03 00*
0,1203,0:44.620.877,676.900 us,26 B,,SP,55,Write Transaction,14 00 02 AF 96 03 8E C5 06 87 36 05 C7 A0 00 00 00 00 00 00 FF C1 00 83 FC 31
0,1204,0:44.636.816,116.300 us,3 B,,SP,55,Read Transaction,00 00 18*
0,1205,0:44.641.209,79.000 us,2 B,,SP,55,Write Transaction,00 00
0,1206,0:44.646.559,86.700 us,2 B,,SP,55,Read Transaction,00 08*
0,1207,0:44.646.922,79.100 us,2 B,,SP,55,Write Transaction,12 01
0,1208,0:44.652.274,660.500 us,25 B,,SP,55,Read Transaction,00 00 00 00 00 02 58 64 00 00 00 00 00 00 00 00 00 00 00 00 00 00 01 03 00*
0,1209,0:44.660.761,676.800 us,26 B,,SP,55,Write Transaction,14 00 02 B2 07 03 92 EC 06 8A 21 05 C9 6B 00 00 00 00 00 00 FF FF 00 80 FC 34
0,1210,0:44.676.699,116.100 us,3 B,,SP,55,Read Transaction,00 00 18*
0,1211,0:44.681.092,79.000 us,2 B,,SP,55,Write Transaction,00 00
0,1212,0:44.686.441,86.700 us,2 B,,SP,55,Read Transaction,00 08*
0,1213,0:44.686.803,79.100 us,2 B,,SP,55,Write Transaction,12 01
0,1214,0:44.692.153,659.500 us,25 B,,SP,55,Read Transaction,00 00 00 00 00 02 58 64 00 00 00 00 00 00 00 00 00 00 00 00 00 00 01 03 00*
0,1215,0:44.700.654,676.800 us,26 B,,SP,55,Write Transaction,14 00 02 B4 30 03 95 89 06 8B 99 05 CA 35 00 00 00 00 00 00 FF FE 00 83 FC 30
0,1216,0:44.716.592,116.100 us,3 B,,SP,55,Read Transaction,00 00 18*
0,1217,0:44.720.987,79.200 us,2 B,,SP,55,Write Transaction,00 00
0,1218,0:44.726.338,86.700 us,2 B,,SP,55,Read Transaction,00 08*
0,1219,0:44.726.700,79.100 us,2 B,,SP,55,Write Transaction,12 01
0,1220,0:44.732.093,660.400 us,25 B,,SP,55,Read Transaction,00 00 00 00 00 02 58 64 00 00 00 00 00 00 00 00 00 00 00 00 00 00 01 03 00*
0,1221,0:44.740.642,676.900 us,26 B,,SP,55,Write Transaction,14 00 02 B6 E2 03 9B AA 06 8E 66 05 CB D2 00 00 00 00 00 00 FF 88 00 78 FC 18
0,1222,0:44.756.583,116.100 us,3 B,,SP,55,Read Transaction,00 00 18*
0,1223,0:44.760.983,79.100 us,2 B,,SP,55,Write Transaction,00 00
0,1224,0:44.766.333,86.600 us,2 B,,SP,55,Read Transaction,00 08*
0,1225,0:44.766.693,79.000 us,2 B,,SP,55,Write Transaction,12 01
0,1226,0:44.772.045,659.600 us,25 B,,SP,55,Read Transaction,00 00 00 00 00 02 58 64 00 00 00 00 00 00 00 00 00 00 00 00 00 00 01 03 00*
0,1227,0:44.780.512,677.800 us,26 B,,SP,55,Write Transaction,14 00 02 B9 CF 03 A0 95 06 90 76 05 CC CF 00 00 00 00 00 00 FF BF 00 89 FC 34
0,1228,0:44.796.465,116.000 us,3 B,,SP,55,Read Transaction,00 00 18*
0,1229,0:44.800.859,79.200 us,2 B,,SP,55,Write Transaction,00 00
0,1230,0:44.806.212,86.600 us,2 B,,SP,55,Read Transaction,00 08*
0,1231,0:44.806.575,79.100 us,2 B,,SP,55,Write Transaction,12 01
0,1232,0:44.811.925,659.600 us,25 B,,SP,55,Read Transaction,00 00 00 00 00 02 58 64 00 00 00 00 00 00 00 00 00 00 00 00 00 00 01 03 00*
0,1233,0:44.820.481,676.600 us,26 B,,SP,55,Write Transaction,14 00 02 B2 61 03 92 CB 06 88 75 05 C8 8A 00 00 00 00 00 00 FF C2 00 81 FC 34
0,1234,0:44.836.420,116.200 us,3 B,,SP,55,Read Transaction,00 00 18*
0,1235,0:44.840.814,79.100 us,2 B,,SP,55,Write Transaction,00 00
0,1236,0:44.846.165,86.700 us,2 B,,SP,55,Read Transaction,00 08*
0,1237,0:44.846.526,79.100 us,2 B,,SP,55,Write Transaction,12 01
0,1238,0:44.851.875,660.200 us,25 B,,SP,55,Read Transaction,00 00 00 00 00 02 58 64 00 00 00 00 00 00 00 00 00 00 00 00 00 00 01 03 00*
0,1239,0:44.860.343,676.800 us,26 B,,SP,55,Write Transaction,14 00 02 A1 3D 03 77 76 06 7D 39 05 C3 97 00 00 00 00 00 00 FF BF 00 85 FC 2F
0,1240,0:44.876.284,116.100 us,3 B,,SP,55,Read Transaction,00 00 18*
0,1241,0:44.880.677,79.100 us,2 B,,SP,55,Write Transaction,00 00
0,1242,0:44.886.027,86.700 us,2 B,,SP,55,Read Transaction,00 08*
0,1243,0:44.886.388,79.000 us,2 B,,SP,55,Write Transaction,12 01
0,1244,0:44.891.739,659.500 us,25 B,,SP,55,Read Transaction,00 00 00 00 00 02 58 64 00 00 00 00 00 00 00 00 00 00 00 00 00 00 01 03 00*
0,1245,0:44.900.333,676.800 us,26 B,,SP,55,Write Transaction,14 00 02 94 FF 03 60 4E 06 76 7B 05 C0 FA 00 00 00 00 00 00 FF BE 00 86 FC 36
0,1246,0:44.916.272,116.200 us,3 B,,SP,55,Read Transaction,00 00 18*
0,1247,0:44.920.663,79.000 us,2 B,,SP,55,Write Transaction,00 00
0,1248,0:44.926.013,86.700 us,2 B,,SP,55,Read Transaction,00 08*
0,1249,0:44.926.376,79.000 us,2 B,,SP,55,Write Transaction,12 01
0,1250,0:44.931.725,659.600 us,25 B,,SP,55,Read Transaction,00 00 00 00 00 02 58 64 00 00 00 00 00 00 00 00 00 00 00 00 00 00 01 03 00*
0,1251,0:44.940.208,676.900 us,26 B,,SP,55,Write Transaction,14 00 02 8E D0 03 53 8B 06 73 E1 05 C0 24 00 00 00 00 00 00 FF C1 00 82 FC 2E
0,1252,0:44.956.147,116.200 us,3 B,,SP,55,Read Transaction,00 00 18*
0,1253,0:44.960.541,79.100 us,2 B,,SP,55,Write Transaction,00 00
0,1254,0:44.965.891,86.600 us,2 B,,SP,55,Read Transaction,00 08*
0,1255,0:44.966.251,79.000 us,2 B,,SP,55,Write Transaction,12 01
0,1256,0:44.971.601,659.700 us,25 B,,SP,55,Read Transaction,00 00 00 00 00 02 58 64 00 00 00 00 00 00 00 00 00 00 00 00 00 00 01 03 00*
0,1257,0:44.980.220,677.000 us,26 B,,SP,55,Write Transaction,14 00 02 8A A2 03 4B F8 06 71 B6 05 BF 2F 00 00 00 00 00 00 FF C1 00 86 FC 32
0,1258,0:44.996.172,116.300 us,3 B,,SP,55,Read Transaction,00 00 18*
0,1259,0:45.000.566,79.100 us,2 B,,SP,55,Write Transaction,00 00
0,1260,0:45.005.917,86.700 us,2 B,,SP,55,Read Transaction,00 08*
0,1261,0:45.006.280,79.000 us,2 B,,SP,55,Write Transaction,12 01
0,1262,0:45.011.628,659.700 us,25 B,,SP,55,Read Transaction,00 00 00 00 00 02 58 64 00 00 00 00 00 00 00 00 00 00 00 00 00 00 01 03 00*
0,1263,0:45.020.046,676.900 us,26 B,,SP,55,Write Transaction,14 00 02 89 4E 03 4A 1D 06 73 1C 05 C0 60 00 00 00 00 00 00 FF C1 00 81 FC 31
0,1264,0:45.035.986,116.300 us,3 B,,SP,55,Read Transaction,00 00 18*
0,1265,0:45.040.381,79.100 us,2 B,,SP,55,Write Transaction,00 00
0,1266,0:45.045.729,86.700 us,2 B,,SP,55,Read Transaction,00 08*
0,1267,0:45.046.091,79.100 us,2 B,,SP,55,Write Transaction,12 01
0,1268,0:45.051.441,659.500 us,25 B,,SP,55,Read Transaction,00 00 00 00 00 02 58 64 00 00 00 00 00 00 00 00 00 00 00 00 00 00 01 03 00*
0,1269,0:45.060.009,677.000 us,26 B,,SP,55,Write Transaction,14 00 02 8B BA 03 4E AD 06 75 F7 05 C1 B9 00 00 00 00 00 00 FF BC 00 81 FC 36
0,1270,0:45.075.949,116.100 us,3 B,,SP,55,Read Transaction,00 00 18*
0,1271,0:45.080.341,79.100 us,2 B,,SP,55,Write Transaction,00 00
0,1272,0:45.085.692,86.600 us,2 B,,SP,55,Read Transaction,00 08*
0,1273,0:45.086.055,79.000 us,2 B,,SP,55,Write Transaction,12 01
0,1274,0:45.091.403,659.600 us,25 B,,SP,55,Read Transaction,00 00 00 00 00 02 58 64 00 00 00 00 00 00 00 00 00 00 00 00 00 00 01 03 00*
0,1275,0:45.099.941,676.900 us,26 B,,SP,55,Write Transaction,14 00 02 8D 84 03 53 27 06 76 F7 05 C1 C9 00 00 00 00 00 00 FF BF 00 87 FC 33
0,1276,0:45.115.882,116.100 us,3 B,,SP,55,Read Transaction,00 00 18*
0,1277,0:45.120.276,79.000 us,2 B,,SP,55,Write Transaction,00 00
0,1278,0:45.125.651,86.600 us,2 B,,SP,55,Read Transaction,00 08*
0,1279,0:45.126.015,79.100 us,2 B,,SP,55,Write Transaction,12 01
0,1280,0:45.131.361,659.300 us,25 B,,SP,55,Read Transaction,00 00 00 00 00 02 58 64 00 00 00 00 00 00 00 00 00 00 00 00 00 00 01 03 00*
0,1281,0:45.139.843,676.900 us,26 B,,SP,55,Write Transaction,14 00 02 8D BF 03 54 9F 06 77 51 05 C2 1F 00 00 00 00 00 00 FF B9 00 84 FC 32
0,1282,0:45.155.779,116.100 us,3 B,,SP,55,Read Transaction,00 00 18*
0,1283,0:45.160.171,79.100 us,2 B,,SP,55,Write Transaction,00 00
0,1284,0:45.165.522,86.700 us,2 B,,SP,55,Read Transaction,00 08*
0,1285,0:45.165.885,79.100 us,2 B,,SP,55,Write Transaction,12 01
0,1286,0:45.171.233,659.700 us,25 B,,SP,55,Read Transaction,00 00 00 00 00 02 58 64 00 00 00 00 00 00 00 00 00 00 00 00 00 00 01 03 00*
0,1287,0:45.179.794,676.800 us,26 B,,SP,55,Write Transaction,14 00 02 8E A6 03 56 DF 06 79 0F 05 C3 6E 00 00 00 00 00 00 FF C1 00 82 FC 30
0,1288,0:45.195.733,116.200 us,3 B,,SP,55,Read Transaction,00 00 18*
0,1289,0:45.200.128,79.000 us,2 B,,SP,55,Write Transaction,00 00
0,1290,0:45.205.480,86.700 us,2 B,,SP,55,Read Transaction,00 08*
0,1291,0:45.205.842,79.200 us,2 B,,SP,55,Write Transaction,12 01
0,1292,0:45.211.194,659.200 us,25 B,,SP,55,Read Transaction,00 00 00 00 00 02 58 64 26 3F 32 00 00 00 00 00 00 00 00 00 00 00 01 03 00*
0,1293,0:45.219.669,676.800 us,26 B,,SP,55,Write Transaction,14 00 02 90 DE 03 5B 83 06 7B DE 05 C5 36 00 00 00 00 00 00 FF BD 00 83 FC 30
0,1294,0:45.235.604,116.100 us,3 B,,SP,55,Read Transaction,00 00 18*
0,1295,0:45.239.999,79.200 us,2 B,,SP,55,Write Transaction,00 00
0,1296,0:45.245.356,86.700 us,2 B,,SP,55,Read Transaction,00 08*
0,1297,0:45.245.718,79.200 us,2 B,,SP,55,Write Transaction,12 01
0,1298,0:45.251.068,659.400 us,25 B,,SP,55,Read Transaction,00 00 00 00 00 02 58 64 00 00 00 00 00 00 00 00 00 00 00 00 00 00 01 03 00*
0,1299,0:45.259.666,676.900 us,26 B,,SP,55,Write Transaction,14 00 02 94 4D 03 63 0C 06 7E A2 05 C6 92 00 00 00 00 00 00 FF BB 00 84 FC 30
0,1300,0:45.275.605,116.300 us,3 B,,SP,55,Read Transaction,00 00 18*
0,1301,0:45.279.996,79.000 us,2 B,,SP,55,Write Transaction,00 00
0,1302,0:45.285.347,86.800 us,2 B,,SP,55,Read Transaction,00 08*
0,1303,0:45.285.710,79.100 us,2 B,,SP,55,Write Transaction,12 01
0,1304,0:45.291.057,659.500 us,25 B,,SP,55,Read Transaction,00 00 00 00 00 02 58 64 00 00 00 00 00 00 00 00 00 00 00 00 00 00 01 03 00*
0,1305,0:45.299.515,676.700 us,26 B,,SP,55,Write Transaction,14 00 02 98 00 03 6A 56 06 81 A8 05 C8 2A 00 00 00 00 00 00 FF BC 00 85 FC 31
0,1306,0:45.315.456,116.200 us,3 B,,SP,55,Read Transaction,00 00 18*
0,1307,0:45.319.849,79.100 us,2 B,,SP,55,Write Transaction,00 00
0,1308,0:45.325.197,86.700 us,2 B,,SP,55,Read Transaction,00 08*
0,1309,0:45.325.559,79.000 us,2 B,,SP,55,Write Transaction,12 01
0,1310,0:45.330.909,659.500 us,25 B,,SP,55,Read Transaction,00 00 00 00 00 02 58 64 00 00 00 00 00 00 00 00 00 00 00 00 00 00 01 03 00*
0,1311,0:45.339.516,677.400 us,26 B,,SP,55,Write Transaction,14 00 02 9C B6 03 72 53 06 86 5F 05 CA EC 00 00 00 00 00 00 FF BF 00 87 FC 30
0,1312,0:45.355.460,116.300 us,3 B,,SP,55,Read Transaction,00 00 18*
0,1313,0:45.359.852,79.100 us,2 B,,SP,55,Write Transaction,00 00
0,1314,0:45.365.202,86.600 us,2 B,,SP,55,Read Transaction,00 08*
0,1315,0:45.365.564,79.000 us,2 B,,SP,55,Write Transaction,12 01
0,1316,0:45.370.927,659.600 us,25 B,,SP,55,Read Transaction,00 00 00 00 00 02 58 64 00 00 00 00 00 00 00 00 00 00 00 00 00 00 01 03 00*
0,1317,0:45.379.371,676.900 us,26 B,,SP,55,Write Transaction,14 00 02 A1 A1 03 79 5D 06 8A C7 05 CD 72 00 00 00 00 00 00 FF BF 00 84 FC 38
0,1318,0:45.395.309,116.200 us,3 B,,SP,55,Read Transaction,00 00 18*
0,1319,0:45.399.703,79.100 us,2 B,,SP,55,Write Transaction,00 00
0,1320,0:45.405.053,86.700 us,2 B,,SP,55,Read Transaction,00 08*
0,1321,0:45.405.433,79.000 us,2 B,,SP,55,Write Transaction,12 01
0,1322,0:45.410.784,659.500 us,25 B,,SP,55,Read Transaction,00 00 00 00 00 02 58 64 00 00 00 00 00 00 00 00 00 00 00 00 00 00 01 03 00*
0,1323,0:45.419.329,677.000 us,26 B,,SP,55,Write Transaction,14 00 02 A6 26 03 7F DE 06 8E 9A 05 CF 9E 00 00 00 00 00 00 FF C3 00 84 FC 33
0,1324,0:45.435.267,116.300 us,3 B,,SP,55,Read Transaction,00 00 18*
0,1325,0:45.439.660,79.100 us,2 B,,SP,55,Write Transaction,00 00
0,1326,0:45.445.011,86.700 us,2 B,,SP,55,Read Transaction,00 08*
0,1327,0:45.445.373,79.100 us,2 B,,SP,55,Write Transaction,12 01
0,1328,0:45.450.724,659.600 us,25 B,,SP,55,Read Transaction,00 00 00 00 00 02 58 64 00 00 00 00 00 00 00 00 00 00 00 00 00 00 01 03 00*
0,1329,0:45.459.281,676.900 us,26 B,,SP,55,Write Transaction,14 00 02 AA 0E 03 84 EC 06 91 D4 05 D1 71 00 00 00 00 00 00 FF C1 00 81 FC 34
0,1330,0:45.475.222,116.400 us,3 B,,SP,55,Read Transaction,00 00 18*
0,1331,0:45.479.617,79.100 us,2 B,,SP,55,Write Transaction,00 00
0,1332,0:45.484.968,86.700 us,2 B,,SP,55,Read Transaction,00 08*
0,1333,0:45.485.330,79.100 us,2 B,,SP,55,Write Transaction,12 01
0,1334,0:45.490.679,659.500 us,25 B,,SP,55,Read Transaction,00 00 00 00 00 02 58 64 00 00 00 00 00 00 00 00 00 00 00 00 00 00 01 03 00*
0,1335,0:45.499.172,676.900 us,26 B,,SP,55,Write Transaction,14 00 02 AD F7 03 8A 51 06 95 38 05 D3 77 00 00 00 00 00 00 FF BF 00 88 FC 32
0,1336,0:45.515.120,116.400 us,3 B,,SP,55,Read Transaction,00 00 18*
0,1337,0:45.519.514,79.100 us,2 B,,SP,55,Write Transaction,00 00
0,1338,0:45.524.864,86.700 us,2 B,,SP,55,Read Transaction,00 08*
0,1339,0:45.525.225,79.100 us,2 B,,SP,55,Write Transaction,12 01
0,1340,0:45.530.577,660.500 us,25 B,,SP,55,Read Transaction,00 00 00 00 00 02 58 64 00 00 00 00 00 00 00 00 00 00 00 00 00 00 01 03 00*
0,1341,0:45.539.113,676.900 us,26 B,,SP,55,Write Transaction,14 00 02 B1 DF 03 8F 8C 06 98 92 05 D5 61 00 00 00 00 00 00 FF BF 00 86 FC 30
0,1342,0:45.555.051,116.300 us,3 B,,SP,55,Read Transaction,00 00 18*
0,1343,0:45.559.450,79.200 us,2 B,,SP,55,Write Transaction,00 00
0,1344,0:45.564.808,86.800 us,2 B,,SP,55,Read Transaction,00 08*
0,1345,0:45.565.171,79.200 us,2 B,,SP,55,Write Transaction,12 01
0,1346,0:45.570.528,660.600 us,25 B,,SP,55,Read Transaction,00 00 00 00 00 02 58 64 00 00 00 00 00 00 00 00 00 00 00 00 00 00 01 03 00*
0,1347,0:45.579.023,677.900 us,26 B,,SP,55,Write Transaction,14 00 02 B5 1D 03 94 01 06 9A A1 05 D6 8B 00 00 00 00 00 00 FF BC 00 84 FC 32
0,1348,0:45.594.975,116.200 us,3 B,,SP,55,Read Transaction,00 00 18*
0,1349,0:45.599.374,79.100 us,2 B,,SP,55,Write Transaction,00 00
0,1350,0:45.604.723,86.700 us,2 B,,SP,55,Read Transaction,00 08*
0,1351,0:45.605.084,79.100 us,2 B,,SP,55,Write Transaction,12 01
0,1352,0:45.610.434,659.600 us,25 B,,SP,55,Read Transaction,00 00 00 00 00 02 58 64 00 00 00 00 00 00 00 00 00 00 00 00 00 00 01 03 00*
0,1353,0:45.618.964,676.900 us,26 B,,SP,55,Write Transaction,14 00 02 B8 35 03 98 21 06 9C 6A 05 D7 33 00 00 00 00 00 00 FF C3 00 83 FC 2D
0,1354,0:45.634.905,116.300 us,3 B,,SP,55,Read Transaction,00 00 18*
0,1355,0:45.639.297,79.000 us,2 B,,SP,55,Write Transaction,00 00
0,1356,0:45.644.650,86.800 us,2 B,,SP,55,Read Transaction,00 08*
0,1357,0:45.645.013,79.100 us,2 B,,SP,55,Write Transaction,12 01
0,1358,0:45.650.360,659.600 us,25 B,,SP,55,Read Transaction,00 00 00 00 00 02 58 64 00 00 00 00 00 00 00 00 00 00 00 00 00 00 01 03 00*
0,1359,0:45.658.887,676.800 us,26 B,,SP,55,Write Transaction,14 00 02 BA 35 03 9A 0A 06 9B B2 05 D6 4E 00 00 00 00 00 00 FF C1 00 85 FC 2F
0,1360,0:45.674.827,116.200 us,3 B,,SP,55,Read Transaction,00 00 18*
0,1361,0:45.679.221,79.000 us,2 B,,SP,55,Write Transaction,00 00
0,1362,0:45.684.569,86.600 us,2 B,,SP,55,Read Transaction,00 08*
0,1363,0:45.684.931,79.100 us,2 B,,SP,55,Write Transaction,12 01
0,1364,0:45.690.279,659.500 us,25 B,,SP,55,Read Transaction,00 00 00 00 00 02 58 64 00 00 00 00 00 00 00 00 00 00 00 00 00 00 01 03 00*
0,1365,0:45.699.296,676.800 us,26 B,,SP,55,Write Transaction,14 00 02 BC D4 03 9D D5 06 9D B8 05 D7 5D 00 00 00 00 00 00 FF C0 00 86 FC 30
0,1366,0:45.715.235,116.300 us,3 B,,SP,55,Read Transaction,00 00 18*
0,1367,0:45.719.628,79.100 us,2 B,,SP,55,Write Transaction,00 00
0,1368,0:45.724.977,86.700 us,2 B,,SP,55,Read Transaction,00 08*
0,1369,0:45.725.340,79.000 us,2 B,,SP,55,Write Transaction,12 01
0,1370,0:45.730.689,659.500 us,25 B,,SP,55,Read Transaction,00 00 00 00 00 02 58 64 00 00 00 00 00 00 00 00 00 00 00 00 00 00 01 03 00*
0,1371,0:45.738.756,676.700 us,26 B,,SP,55,Write Transaction,14 00 02 BC 2B 03 9A AD 06 99 97 05 D4 81 00 00 00 00 00 00 FF BF 00 8B FC 37
0,1372,0:45.754.694,116.200 us,3 B,,SP,55,Read Transaction,00 00 18*
0,1373,0:45.759.088,79.100 us,2 B,,SP,55,Write Transaction,00 00
0,1374,0:45.764.469,86.700 us,2 B,,SP,55,Read Transaction,00 08*
0,1375,0:45.764.832,79.100 us,2 B,,SP,55,Write Transaction,12 01
0,1376,0:45.770.180,659.500 us,25 B,,SP,55,Read Transaction,00 00 00 00 00 02 58 64 00 00 00 00 00 00 00 00 00 00 00 00 00 00 01 03 00*
0,1377,0:45.778.629,676.800 us,26 B,,SP,55,Write Transaction,14 00 02 AE E6 03 84 AF 06 8D B3 05 CE A7 00 00 00 00 00 00 FF C7 00 89 FC 31
0,1378,0:45.794.569,116.300 us,3 B,,SP,55,Read Transaction,00 00 18*
0,1379,0:45.798.961,79.000 us,2 B,,SP,55,Write Transaction,00 00
0,1380,0:45.804.310,86.700 us,2 B,,SP,55,Read Transaction,00 08*
0,1381,0:45.804.672,79.000 us,2 B,,SP,55,Write Transaction,12 01
0,1382,0:45.810.022,659.300 us,25 B,,SP,55,Read Transaction,00 00 00 00 00 02 58 64 00 00 00 00 00 00 00 00 00 00 00 00 00 00 01 03 00*
0,1383,0:45.818.597,676.800 us,26 B,,SP,55,Write Transaction,14 00 02 9C 59 03 68 68 06 80 ED 05 C8 8D 00 00 00 00 00 00 FF C6 00 84 FC 2B
0,1384,0:45.834.540,116.300 us,3 B,,SP,55,Read Transaction,00 00 18*
0,1385,0:45.838.934,79.000 us,2 B,,SP,55,Write Transaction,00 00
0,1386,0:45.844.284,86.600 us,2 B,,SP,55,Read Transaction,00 08*
0,1387,0:45.844.647,79.100 us,2 B,,SP,55,Write Transaction,12 01
0,1388,0:45.849.993,659.600 us,25 B,,SP,55,Read Transaction,00 00 00 00 00 02 58 64 00 00 00 00 00 00 00 00 00 00 00 00 00 00 01 03 00*
0,1389,0:45.858.469,676.800 us,26 B,,SP,55,Write Transaction,14 00 02 90 3B 03 53 60 06 78 CF 05 C5 2F 00 00 00 00 00 00 FF BB 00 82 FC 3B
0,1390,0:45.874.406,116.300 us,3 B,,SP,55,Read Transaction,00 00 18*
0,1391,0:45.878.800,79.000 us,2 B,,SP,55,Write Transaction,00 00
0,1392,0:45.884.147,86.700 us,2 B,,SP,55,Read Transaction,00 08*
0,1393,0:45.884.508,79.100 us,2 B,,SP,55,Write Transaction,12 01
0,1394,0:45.889.859,659.600 us,25 B,,SP,55,Read Transaction,00 00 00 00 00 02 58 64 00 00 00 00 00 00 00 00 00 00 00 00 00 00 01 03 00*
0,1395,0:45.898.500,677.900 us,26 B,,SP,55,Write Transaction,14 00 02 8A 27 03 48 9B 06 74 F5 05 C3 73 00 00 00 00 00 00 FF BD 00 81 FC 2D
0,1396,0:45.914.444,116.300 us,3 B,,SP,55,Read Transaction,00 00 18*
0,1397,0:45.918.835,79.100 us,2 B,,SP,55,Write Transaction,00 00
0,1398,0:45.924.185,86.600 us,2 B,,SP,55,Read Transaction,00 08*
0,1399,0:45.924.548,79.100 us,2 B,,SP,55,Write Transaction,12 01
0,1400,0:45.929.896,659.500 us,25 B,,SP,55,Read Transaction,00 00 00 00 00 02 58 64 00 00 00 00 00 00 00 00 00 00 00 00 00 00 01 03 00*
0,1401,0:45.938.338,676.800 us,26 B,,SP,55,Write Transaction,14 00 02 85 A0 03 42 4D 06 71 08 05 C1 75 00 00 00 00 00 00 FF BD 00 82 FC 33
0,1402,0:45.954.275,116.400 us,3 B,,SP,55,Read Transaction,00 00 18*
0,1403,0:45.958.671,79.100 us,2 B,,SP,55,Write Transaction,00 00
0,1404,0:45.964.019,86.600 us,2 B,,SP,55,Read Transaction,00 08*
0,1405,0:45.964.381,79.100 us,2 B,,SP,55,Write Transaction,12 01
0,1406,0:45.969.730,659.000 us,25 B,,SP,55,Read Transaction,00 00 00 00 00 02 58 64 00 00 00 00 00 00 00 00 00 00 00 00 00 00 01 03 00*
0,1407,0:45.978.311,676.800 us,26 B,,SP,55,Write Transaction,14 00 02 83 F2 03 40 07 06 71 D0 05 C2 94 00 00 00 00 00 00 FF BD 00 89 FC 2C
0,1408,0:45.994.248,116.300 us,3 B,,SP,55,Read Transaction,00 00 18*
0,1409,0:45.998.644,79.200 us,2 B,,SP,55,Write Transaction,00 00
0,1410,0:46.004.002,86.800 us,2 B,,SP,55,Read Transaction,00 08*
0,1411,0:46.004.365,79.200 us,2 B,,SP,55,Write Transaction,12 01
0,1412,0:46.009.762,659.600 us,25 B,,SP,55,Read Transaction,00 00 00 00 00 02 58 64 00 00 00 00 00 00 00 00 00 00 00 00 00 00 01 03 00*
0,1413,0:46.018.173,676.800 us,26 B,,SP,55,Write Transaction,14 00 02 85 A8 03 43 C6 06 74 5C 05 C3 CC 00 00 00 00 00 00 FF C1 00 85 FC 31
0,1414,0:46.034.121,116.300 us,3 B,,SP,55,Read Transaction,00 00 18*
0,1415,0:46.038.516,79.100 us,2 B,,SP,55,Write Transaction,00 00
0,1416,0:46.043.866,86.600 us,2 B,,SP,55,Read Transaction,00 08*
0,1417,0:46.044.226,79.100 us,2 B,,SP,55,Write Transaction,12 01
0,1418,0:46.049.576,659.500 us,25 B,,SP,55,Read Transaction,00 00 00 00 00 02 58 64 00 00 00 00 00 00 00 00 00 00 00 00 00 00 01 03 00*
0,1419,0:46.058.184,676.400 us,26 B,,SP,55,Write Transaction,14 00 02 88 8E 03 49 EF 06 77 86 05 C5 98 00 00 00 00 00 00 FF BE 00 8A FC 32
0,1420,0:46.074.124,116.300 us,3 B,,SP,55,Read Transaction,00 00 18*
0,1421,0:46.078.516,79.100 us,2 B,,SP,55,Write Transaction,00 00
0,1422,0:46.083.866,86.700 us,2 B,,SP,55,Read Transaction,00 08*
0,1423,0:46.084.228,79.100 us,2 B,,SP,55,Write Transaction,12 01
0,1424,0:46.089.578,659.600 us,25 B,,SP,55,Read Transaction,00 00 00 00 00 02 58 64 00 00 00 00 00 00 00 00 00 00 00 00 00 00 01 03 00*
0,1425,0:46.098.073,677.900 us,26 B,,SP,55,Write Transaction,14 00 02 8A A8 03 4E 96 06 7A 29 05 C7 3E 00 00 00 00 00 00 FF C1 00 7E FC 32
0,1426,0:46.114.049,116.300 us,3 B,,SP,55,Read Transaction,00 00 18*
0,1427,0:46.118.446,79.000 us,2 B,,SP,55,Write Transaction,00 00
0,1428,0:46.123.796,86.700 us,2 B,,SP,55,Read Transaction,00 08*
0,1429,0:46.124.159,79.100 us,2 B,,SP,55,Write Transaction,12 01
0,1430,0:46.129.513,660.400 us,25 B,,SP,55,Read Transaction,00 00 00 00 00 02 58 64 00 00 00 00 00 00 00 00 00 00 00 00 00 00 01 03 00*
0,1431,0:46.137.998,676.800 us,26 B,,SP,55,Write Transaction,14 00 02 8C 4C 03 52 79 06 7C 9A 05 C8 DC 00 00 00 00 00 00 FF BC 00 84 FC 36
0,1432,0:46.153.936,116.100 us,3 B,,SP,55,Read Transaction,00 00 18*
0,1433,0:46.158.327,79.100 us,2 B,,SP,55,Write Transaction,00 00
0,1434,0:46.163.677,86.600 us,2 B,,SP,55,Read Transaction,00 08*
0,1435,0:46.164.038,79.100 us,2 B,,SP,55,Write Transaction,12 01
0,1436,0:46.169.390,659.600 us,25 B,,SP,55,Read Transaction,00 00 00 00 00 02 58 64 00 00 00 00 00 00 00 00 00 00 00 00 00 00 01 03 00*
0,1437,0:46.177.916,676.900 us,26 B,,SP,55,Write Transaction,14 00 02 8F CA 03 58 9C 06 80 B6 05 CB 4D 00 00 00 00 00 00 FF BF 00 82 FC 37
0,1438,0:46.193.855,116.300 us,3 B,,SP,55,Read Transaction,00 00 18*
0,1439,0:46.198.246,79.100 us,2 B,,SP,55,Write Transaction,00 00
0,1440,0:46.203.598,86.700 us,2 B,,SP,55,Read Transaction,00 08*
0,1441,0:46.203.961,79.100 us,2 B,,SP,55,Write Transaction,12 01
0,1442,0:46.209.310,660.500 us,25 B,,SP,55,Read Transaction,00 00 00 00 00 02 58 64 26 AD 64 00 00 00 00 00 00 00 00 00 00 00 01 03 00*
0,1443,0:46.217.848,676.800 us,26 B,,SP,55,Write Transaction,14 00 02 93 82 03 60 04 06 81 A0 05 CA A5 00 00 00 00 00 00 FF BF 00 86 FC 32
0,1444,0:46.233.787,116.400 us,3 B,,SP,55,Read Transaction,00 00 18*
0,1445,0:46.238.182,79.000 us,2 B,,SP,55,Write Transaction,00 00
0,1446,0:46.243.531,86.600 us,2 B,,SP,55,Read Transaction,00 08*
0,1447,0:46.243.892,79.000 us,2 B,,SP,55,Write Transaction,12 01
0,1448,0:46.249.241,659.500 us,25 B,,SP,55,Read Transaction,00 00 00 00 00 02 58 64 00 00 00 00 00 00 00 00 00 00 00 00 00 00 01 03 00*
0,1449,0:46.257.763,676.900 us,26 B,,SP,55,Write Transaction,14 00 02 96 6D 03 64 A8 06 83 1F 05 CB 8A 00 00 00 00 00 00 FF BE 00 85 FC 2E
0,1450,0:46.273.700,116.300 us,3 B,,SP,55,Read Transaction,00 00 18*
0,1451,0:46.278.092,79.100 us,2 B,,SP,55,Write Transaction,00 00
0,1452,0:46.283.442,86.600 us,2 B,,SP,55,Read Transaction,00 08*
0,1453,0:46.283.804,79.000 us,2 B,,SP,55,Write Transaction,12 01
0,1454,0:46.289.153,660.500 us,25 B,,SP,55,Read Transaction,00 00 00 00 00 02 58 64 00 00 00 00 00 00 00 00 00 00 00 00 00 00 01 03 00*
0,1455,0:46.297.685,676.800 us,26 B,,SP,55,Write Transaction,14 00 02 9A 22 03 69 1D 06 87 42 05 CE 34 00 00 00 00 00 00 FF BF 00 83 FC 30
0,1456,0:46.313.622,116.200 us,3 B,,SP,55,Read Transaction,00 00 18*
0,1457,0:46.318.016,79.100 us,2 B,,SP,55,Write Transaction,00 00
0,1458,0:46.323.365,86.700 us,2 B,,SP,55,Read Transaction,00 08*
0,1459,0:46.323.726,79.000 us,2 B,,SP,55,Write Transaction,12 01
0,1460,0:46.329.076,659.500 us,25 B,,SP,55,Read Transaction,00 00 00 00 00 02 58 64 00 00 00 00 00 00 00 00 00 00 00 00 00 00 01 03 00*
0,1461,0:46.337.595,676.800 us,26 B,,SP,55,Write Transaction,14 00 02 9D 3B 03 6B 3A 06 8A 53 05 D0 39 00 00 00 00 00 00 FF BC 00 85 FC 36
0,1462,0:46.353.540,116.300 us,3 B,,SP,55,Read Transaction,00 00 18*
0,1463,0:46.357.932,79.000 us,2 B,,SP,55,Write Transaction,00 00
0,1464,0:46.363.282,86.700 us,2 B,,SP,55,Read Transaction,00 08*
0,1465,0:46.363.645,79.000 us,2 B,,SP,55,Write Transaction,12 01
0,1466,0:46.368.994,659.600 us,25 B,,SP,55,Read Transaction,00 00 00 00 00 02 58 64 00 00 00 00 00 00 00 00 00 00 00 00 00 00 01 03 00*
0,1467,0:46.378.498,676.900 us,26 B,,SP,55,Write Transaction,14 00 02 A0 06 03 6C E4 06 8D 8D 05 D2 4B 00 00 00 00 00 00 FF C4 00 85 FC 32
0,1468,0:46.394.446,116.400 us,3 B,,SP,55,Read Transaction,00 00 18*
0,1469,0:46.398.847,79.200 us,2 B,,SP,55,Write Transaction,00 00
0,1470,0:46.404.204,86.700 us,2 B,,SP,55,Read Transaction,00 08*
0,1471,0:46.404.567,79.000 us,2 B,,SP,55,Write Transaction,12 01
0,1472,0:46.409.915,659.400 us,25 B,,SP,55,Read Transaction,00 00 00 00 00 02 58 64 00 00 00 00 00 00 00 00 00 00 00 00 00 00 01 03 00*
0,1473,0:46.417.442,676.900 us,26 B,,SP,55,Write Transaction,14 00 02 A3 C9 03 73 5B 06 90 C1 05 D3 FB 00 00 00 00 00 00 FF BB 00 7E FC 35
0,1474,0:46.433.383,116.500 us,3 B,,SP,55,Read Transaction,00 00 18*
0,1475,0:46.437.775,79.100 us,2 B,,SP,55,Write Transaction,00 00
0,1476,0:46.443.125,86.800 us,2 B,,SP,55,Read Transaction,00 08*
0,1477,0:46.443.489,79.200 us,2 B,,SP,55,Write Transaction,12 01
0,1478,0:46.448.841,660.500 us,25 B,,SP,55,Read Transaction,00 00 00 00 00 02 4E 64 00 00 00 00 00 00 00 00 00 00 00 00 00 00 01 03 00*
0,1479,0:46.457.409,676.900 us,26 B,,SP,55,Write Transaction,14 00 02 A7 30 03 78 4F 06 92 DE 05 D5 28 00 00 00 00 00 00 FF BC 00 82 FC 33
0,1480,0:46.473.346,116.200 us,3 B,,SP,55,Read Transaction,00 00 18*
0,1481,0:46.477.738,79.100 us,2 B,,SP,55,Write Transaction,00 00
0,1482,0:46.483.089,86.700 us,2 B,,SP,55,Read Transaction,00 08*
0,1483,0:46.483.452,79.100 us,2 B,,SP,55,Write Transaction,12 01
0,1484,0:46.488.804,659.500 us,25 B,,SP,55,Read Transaction,00 00 00 00 00 02 4E 64 00 00 00 00 00 00 00 00 00 00 00 00 00 00 01 03 00*
0,1485,0:46.497.324,676.800 us,26 B,,SP,55,Write Transaction,14 00 02 AA 3A 03 7D FA 06 94 C6 05 D6 06 00 00 00 00 00 00 FF BC 00 84 FC 2F
0,1486,0:46.513.259,116.300 us,3 B,,SP,55,Read Transaction,00 00 18*
0,1487,0:46.517.653,79.100 us,2 B,,SP,55,Write Transaction,00 00
0,1488,0:46.523.003,86.700 us,2 B,,SP,55,Read Transaction,00 08*
0,1489,0:46.523.365,79.100 us,2 B,,SP,55,Write Transaction,12 01
0,1490,0:46.528.714,659.400 us,25 B,,SP,55,Read Transaction,00 00 00 00 00 02 4E 64 00 00 00 00 00 00 00 00 00 00 00 00 00 00 01 03 00*
0,1491,0:46.537.264,676.800 us,26 B,,SP,55,Write Transaction,14 00 02 AD C1 03 85 15 06 96 9A 05 D6 96 00 00 00 00 00 00 FF BC 00 80 FC 32
0,1492,0:46.553.200,116.300 us,3 B,,SP,55,Read Transaction,00 00 18*
0,1493,0:46.557.593,79.200 us,2 B,,SP,55,Write Transaction,00 00
0,1494,0:46.562.944,86.600 us,2 B,,SP,55,Read Transaction,00 08*
0,1495,0:46.563.306,79.100 us,2 B,,SP,55,Write Transaction,12 01
0,1496,0:46.568.654,679.600 us,25 B,,SP,55,Read Transaction,00 00 00 00 00 02 4E 64 00 00 00 00 00 00 00 00 00 00 00 00 00 00 01 03 00*
0,1497,0:46.577.177,676.900 us,26 B,,SP,55,Write Transaction,14 00 02 B1 94 03 8B C0 06 99 1F 05 D7 FA 00 00 00 00 00 00 FF C1 00 84 FC 30
0,1498,0:46.593.113,116.300 us,3 B,,SP,55,Read Transaction,00 00 18*
0,1499,0:46.597.507,79.200 us,2 B,,SP,55,Write Transaction,00 00
0,1500,0:46.602.856,86.600 us,2 B,,SP,55,Read Transaction,00 08*
0,1501,0:46.603.217,79.100 us,2 B,,SP,55,Write Transaction,12 01
0,1502,0:46.608.566,659.500 us,25 B,,SP,55,Read Transaction,00 00 00 00 00 02 4E 64 00 00 00 00 00 00 00 00 00 00 00 00 00 00 01 03 00*
0,1503,0:46.617.105,676.600 us,26 B,,SP,55,Write Transaction,14 00 02 B5 13 03 90 16 06 9B C2 05 D9 8D 00 00 00 00 00 00 FF BE 00 8A FC 31
0,1504,0:46.633.046,116.200 us,3 B,,SP,55,Read Transaction,00 00 18*
0,1505,0:46.637.438,79.100 us,2 B,,SP,55,Write Transaction,00 00
0,1506,0:46.642.788,86.600 us,2 B,,SP,55,Read Transaction,00 08*
0,1507,0:46.643.151,79.200 us,2 B,,SP,55,Write Transaction,12 01
0,1508,0:46.648.507,659.300 us,25 B,,SP,55,Read Transaction,00 00 00 00 00 02 4E 64 00 00 00 00 00 00 00 00 00 00 00 00 00 00 01 03 00*
0,1509,0:46.657.036,677.800 us,26 B,,SP,55,Write Transaction,14 00 02 B8 B3 03 95 EF 06 9E AD 05 DB 24 00 00 00 00 00 00 FF BF 00 85 FC 35
0,1510,0:46.672.975,116.300 us,3 B,,SP,55,Read Transaction,00 00 18*
0,1511,0:46.677.367,79.000 us,2 B,,SP,55,Write Transaction,00 00
0,1512,0:46.682.715,86.700 us,2 B,,SP,55,Read Transaction,00 08*
0,1513,0:46.683.100,79.100 us,2 B,,SP,55,Write Transaction,12 01
0,1514,0:46.688.450,659.500 us,25 B,,SP,55,Read Transaction,00 00 00 00 00 02 4E 64 00 00 00 00 00 00 00 00 00 00 00 00 00 00 01 03 00*
0,1515,0:46.696.941,677.400 us,26 B,,SP,55,Write Transaction,14 00 02 BA F9 03 98 46 06 9F 58 05 DB 5D 00 00 00 00 00 00 FF C2 00 83 FC 30
0,1516,0:46.712.884,116.300 us,3 B,,SP,55,Read Transaction,00 00 18*
0,1517,0:46.717.275,79.000 us,2 B,,SP,55,Write Transaction,00 00
0,1518,0:46.722.626,86.800 us,2 B,,SP,55,Read Transaction,00 08*
0,1519,0:46.722.989,79.000 us,2 B,,SP,55,Write Transaction,12 01
0,1520,0:46.728.341,659.500 us,25 B,,SP,55,Read Transaction,00 00 00 00 00 02 4E 64 00 00 00 00 00 00 00 00 00 00 00 00 00 00 01 03 00*
0,1521,0:46.736.951,676.800 us,26 B,,SP,55,Write Transaction,14 00 02 B2 77 03 87 00 06 95 EA 05 D6 58 00 00 00 00 00 00 FF BE 00 82 FC 31
0,1522,0:46.752.895,116.200 us,3 B,,SP,55,Read Transaction,00 00 18*
0,1523,0:46.757.287,79.000 us,2 B,,SP,55,Write Transaction,00 00
0,1524,0:46.762.635,86.700 us,2 B,,SP,55,Read Transaction,00 08*
0,1525,0:46.762.998,79.000 us,2 B,,SP,55,Write Transaction,12 01
0,1526,0:46.768.348,659.500 us,25 B,,SP,55,Read Transaction,00 00 00 00 00 02 4E 64 00 00 00 00 00 00 00 00 00 00 00 00 00 00 01 03 00*
0,1527,0:46.776.791,676.800 us,26 B,,SP,55,Write Transaction,14 00 02 A0 BC 03 6B B2 06 88 C3 05 CF CD 00 00 00 00 00 00 FF BD 00 82 FC 33
0,1528,0:46.792.736,116.200 us,3 B,,SP,55,Read Transaction,00 00 18*
0,1529,0:46.797.128,79.100 us,2 B,,SP,55,Write Transaction,00 00
0,1530,0:46.802.478,86.700 us,2 B,,SP,55,Read Transaction,00 08*
0,1531,0:46.802.839,79.100 us,2 B,,SP,55,Write Transaction,12 01
0,1532,0:46.808.189,659.400 us,25 B,,SP,55,Read Transaction,00 00 00 00 00 02 4E 64 00 00 00 00 00 00 00 00 00 00 00 00 00 00 01 03 00*
0,1533,0:46.816.781,676.900 us,26 B,,SP,55,Write Transaction,14 00 02 95 00 03 59 75 06 81 B7 05 CD 0B 00 00 00 00 00 00 FF BD 00 86 FC 39
0,1534,0:46.832.719,116.300 us,3 B,,SP,55,Read Transaction,00 00 18*
0,1535,0:46.837.111,79.100 us,2 B,,SP,55,Write Transaction,00 00
0,1536,0:46.842.462,86.800 us,2 B,,SP,55,Read Transaction,00 08*
0,1537,0:46.842.824,79.100 us,2 B,,SP,55,Write Transaction,12 01
0,1538,0:46.848.173,659.600 us,25 B,,SP,55,Read Transaction,00 00 00 00 00 02 58 64 00 00 00 00 00 00 00 00 00 00 00 00 00 00 01 03 00*
0,1539,0:46.856.627,677.700 us,26 B,,SP,55,Write Transaction,14 00 02 8F F4 03 50 10 06 7F 8B 05 CC 79 00 00 00 00 00 00 FF BF 00 84 FC 30
0,1540,0:46.872.564,116.300 us,3 B,,SP,55,Read Transaction,00 00 18*
0,1541,0:46.876.957,79.000 us,2 B,,SP,55,Write Transaction,00 00
0,1542,0:46.882.305,86.700 us,2 B,,SP,55,Read Transaction,00 08*
0,1543,0:46.882.667,79.100 us,2 B,,SP,55,Write Transaction,12 01
0,1544,0:46.888.016,659.500 us,25 B,,SP,55,Read Transaction,00 00 00 00 00 02 58 64 00 00 00 00 00 00 00 00 00 00 00 00 00 00 01 03 00*
0,1545,0:46.896.638,676.300 us,26 B,,SP,55,Write Transaction,14 00 02 8C 49 03 49 D9 06 7D 25 05 CB 4F 00 00 00 00 00 00 FF BE 00 81 FC 33
0,1546,0:46.912.576,116.300 us,3 B,,SP,55,Read Transaction,00 00 18*
0,1547,0:46.916.968,79.100 us,2 B,,SP,55,Write Transaction,00 00
0,1548,0:46.922.317,86.700 us,2 B,,SP,55,Read Transaction,00 08*
0,1549,0:46.922.680,79.000 us,2 B,,SP,55,Write Transaction,12 01
0,1550,0:46.928.026,659.100 us,25 B,,SP,55,Read Transaction,00 00 00 00 00 02 58 64 00 00 00 00 00 00 00 00 00 00 00 00 00 00 01 03 00*
0,1551,0:46.936.486,676.800 us,26 B,,SP,55,Write Transaction,14 00 02 89 E1 03 47 C2 06 7A B2 05 C9 D5 00 00 00 00 00 00 FF BC 00 83 FC 30
0,1552,0:46.952.425,116.300 us,3 B,,SP,55,Read Transaction,00 00 18*
0,1553,0:46.956.819,79.100 us,2 B,,SP,55,Write Transaction,00 00
0,1554,0:46.962.169,86.800 us,2 B,,SP,55,Read Transaction,00 08*
0,1555,0:46.962.530,79.200 us,2 B,,SP,55,Write Transaction,12 01
0,1556,0:46.967.883,659.500 us,25 B,,SP,55,Read Transaction,00 00 00 00 00 02 58 64 00 00 00 00 00 00 00 00 00 00 00 00 00 00 01 03 00*
0,1557,0:46.976.442,677.800 us,26 B,,SP,55,Write Transaction,14 00 02 8B FF 03 4C B7 06 7E 97 05 CC 65 00 00 00 00 00 00 FF BE 00 87 FC 31
0,1558,0:46.992.381,116.300 us,3 B,,SP,55,Read Transaction,00 00 18*
0,1559,0:46.996.773,79.100 us,2 B,,SP,55,Write Transaction,00 00
0,1560,0:47.002.123,86.700 us,2 B,,SP,55,Read Transaction,00 08*
0,1561,0:47.002.486,79.100 us,2 B,,SP,55,Write Transaction,12 01
0,1562,0:47.007.837,659.500 us,25 B,,SP,55,Read Transaction,00 00 00 00 00 02 58 64 00 00 00 00 00 00 00 00 00 00 00 00 00 00 01 03 00*
0,1563,0:47.016.379,676.800 us,26 B,,SP,55,Write Transaction,14 00 02 8F C7 03 53 CC 06 83 48 05 CE E5 00 00 00 00 00 00 FF BC 00 83 FC 34
0,1564,0:47.032.332,116.300 us,3 B,,SP,55,Read Transaction,00 00 18*
0,1565,0:47.036.724,79.000 us,2 B,,SP,55,Write Transaction,00 00
0,1566,0:47.042.138,86.700 us,2 B,,SP,55,Read Transaction,00 08*
0,1567,0:47.042.501,79.100 us,2 B,,SP,55,Write Transaction,12 01
0,1568,0:47.047.849,659.400 us,25 B,,SP,55,Read Transaction,00 00 00 00 00 02 58 64 00 00 00 00 00 00 00 00 00 00 00 00 00 00 01 03 00*
0,1569,0:47.056.302,676.800 us,26 B,,SP,55,Write Transaction,14 00 02 92 7C 03 5A 60 06 85 5F 05 CF 98 00 00 00 00 00 00 FF C2 00 83 FC 31
0,1570,0:47.072.240,116.300 us,3 B,,SP,55,Read Transaction,00 00 18*
0,1571,0:47.076.633,79.100 us,2 B,,SP,55,Write Transaction,00 00
0,1572,0:47.081.983,86.700 us,2 B,,SP,55,Read Transaction,00 08*
0,1573,0:47.082.345,79.200 us,2 B,,SP,55,Write Transaction,12 01
0,1574,0:47.087.697,659.500 us,25 B,,SP,55,Read Transaction,00 00 00 00 00 02 58 64 00 00 00 00 00 00 00 00 00 00 00 00 00 00 01 03 00*
0,1575,0:47.096.221,676.800 us,26 B,,SP,55,Write Transaction,14 00 02 95 10 03 5F 6E 06 87 87 05 D0 B7 00 00 00 00 00 00 FF BC 00 84 FC 33
0,1576,0:47.112.167,116.300 us,3 B,,SP,55,Read Transaction,00 00 18*
0,1577,0:47.116.561,79.100 us,2 B,,SP,55,Write Transaction,00 00
0,1578,0:47.121.913,86.700 us,2 B,,SP,55,Read Transaction,00 08*
0,1579,0:47.122.276,79.000 us,2 B,,SP,55,Write Transaction,12 01
0,1580,0:47.127.623,659.600 us,25 B,,SP,55,Read Transaction,00 00 00 00 00 02 58 64 24 B2 64 00 00 00 00 00 00 00 00 00 00 00 01 03 00*
0,1581,0:47.136.151,676.700 us,26 B,,SP,55,Write Transaction,14 00 02 98 AB 03 64 B7 06 8B 8E 05 D3 38 00 00 00 00 00 00 FF BB 00 86 FC 36
0,1582,0:47.152.086,116.000 us,3 B,,SP,55,Read Transaction,00 00 18*
0,1583,0:47.156.480,79.100 us,2 B,,SP,55,Write Transaction,00 00
0,1584,0:47.161.828,86.800 us,2 B,,SP,55,Read Transaction,00 08*
0,1585,0:47.162.190,79.100 us,2 B,,SP,55,Write Transaction,12 01
0,1586,0:47.167.542,659.400 us,25 B,,SP,55,Read Transaction,00 00 00 00 00 02 58 64 00 00 00 00 00 00 00 00 00 00 00 00 00 00 01 03 00*
0,1587,0:47.176.618,676.800 us,26 B,,SP,55,Write Transaction,14 00 02 9D 1B 03 6C 4B 06 8F C9 05 D5 8F 00 00 00 00 00 00 FF BD 00 84 FC 32
0,1588,0:47.192.554,116.200 us,3 B,,SP,55,Read Transaction,00 00 18*
0,1589,0:47.196.945,79.000 us,2 B,,SP,55,Write Transaction,00 00
0,1590,0:47.202.294,86.600 us,2 B,,SP,55,Read Transaction,00 08*
0,1591,0:47.202.657,79.100 us,2 B,,SP,55,Write Transaction,12 01
0,1592,0:47.208.004,659.400 us,25 B,,SP,55,Read Transaction,00 00 00 00 00 02 58 64 00 00 00 00 00 00 00 00 00 00 00 00 00 00 01 03 00*
0,1593,0:47.216.009,677.800 us,26 B,,SP,55,Write Transaction,14 00 02 A1 C6 03 72 87 06 94 41 05 D8 32 00 00 00 00 00 00 FF C0 00 88 FC 31
0,1594,0:47.231.952,116.200 us,3 B,,SP,55,Read Transaction,00 00 18*
0,1595,0:47.236.351,79.200 us,2 B,,SP,55,Write Transaction,00 00
0,1596,0:47.241.707,86.800 us,2 B,,SP,55,Read Transaction,00 08*
0,1597,0:47.242.069,79.100 us,2 B,,SP,55,Write Transaction,12 01
0,1598,0:47.247.418,659.000 us,25 B,,SP,55,Read Transaction,00 00 00 00 00 02 58 64 00 00 00 00 00 00 00 00 00 00 00 00 00 00 01 03 00*
0,1599,0:47.255.939,676.800 us,26 B,,SP,55,Write Transaction,14 00 02 A6 5F 03 78 A0 06 98 65 05 DA 7E 00 00 00 00 00 00 FF C3 00 87 FC 30
0,1600,0:47.271.878,116.300 us,3 B,,SP,55,Read Transaction,00 00 18*
0,1601,0:47.276.269,79.100 us,2 B,,SP,55,Write Transaction,00 00
0,1602,0:47.281.619,86.600 us,2 B,,SP,55,Read Transaction,00 08*
0,1603,0:47.281.981,79.100 us,2 B,,SP,55,Write Transaction,12 01
0,1604,0:47.287.333,660.400 us,25 B,,SP,55,Read Transaction,00 00 00 00 00 02 58 64 00 00 00 00 00 00 00 00 00 00 00 00 00 00 01 03 00*
0,1605,0:47.295.856,676.800 us,26 B,,SP,55,Write Transaction,14 00 02 AB 47 03 80 97 06 9C D0 05 DC BE 00 00 00 00 00 00 FF BF 00 82 FC 31
0,1606,0:47.311.798,116.400 us,3 B,,SP,55,Read Transaction,00 00 18*
0,1607,0:47.316.198,79.100 us,2 B,,SP,55,Write Transaction,00 00
0,1608,0:47.321.554,86.800 us,2 B,,SP,55,Read Transaction,00 08*
0,1609,0:47.321.935,79.200 us,2 B,,SP,55,Write Transaction,12 01
0,1610,0:47.327.290,659.100 us,25 B,,SP,55,Read Transaction,00 00 00 00 00 02 58 64 00 00 00 00 00 00 00 00 00 00 00 00 00 00 01 03 00*
0,1611,0:47.335.768,676.800 us,26 B,,SP,55,Write Transaction,14 00 02 B0 26 03 87 13 06 A0 EC 05 DF 02 00 00 00 00 00 00 FF C2 00 87 FC 35
0,1612,0:47.351.715,116.200 us,3 B,,SP,55,Read Transaction,00 00 18*
0,1613,0:47.356.107,79.100 us,2 B,,SP,55,Write Transaction,00 00
0,1614,0:47.361.460,86.800 us,2 B,,SP,55,Read Transaction,00 08*
0,1615,0:47.361.823,79.100 us,2 B,,SP,55,Write Transaction,12 01
0,1616,0:47.367.181,660.400 us,25 B,,SP,55,Read Transaction,00 00 00 00 00 02 58 64 00 00 00 00 00 00 00 00 00 00 00 00 00 00 01 03 00*
0,1617,0:47.375.728,676.800 us,26 B,,SP,55,Write Transaction,14 00 02 B3 51 03 8A C9 06 A2 F8 05 E0 05 00 00 00 00 00 00 FF C1 00 87 FC 38
0,1618,0:47.391.667,116.300 us,3 B,,SP,55,Read Transaction,00 00 18*
0,1619,0:47.396.061,79.100 us,2 B,,SP,55,Write Transaction,00 00
0,1620,0:47.401.411,86.700 us,2 B,,SP,55,Read Transaction,00 08*
0,1621,0:47.401.774,79.100 us,2 B,,SP,55,Write Transaction,12 01
0,1622,0:47.407.122,659.500 us,25 B,,SP,55,Read Transaction,00 00 00 00 00 02 58 64 00 00 00 00 00 00 00 00 00 00 00 00 00 00 01 03 00*
0,1623,0:47.415.654,676.900 us,26 B,,SP,55,Write Transaction,14 00 02 B6 58 03 8F 09 06 A4 F9 05 E1 11 00 00 00 00 00 00 FF C1 00 86 FC 31
0,1624,0:47.431.608,116.300 us,3 B,,SP,55,Read Transaction,00 00 18*
0,1625,0:47.436.000,79.000 us,2 B,,SP,55,Write Transaction,00 00
0,1626,0:47.441.350,86.700 us,2 B,,SP,55,Read Transaction,00 08*
0,1627,0:47.441.711,79.100 us,2 B,,SP,55,Write Transaction,12 01
0,1628,0:47.447.060,659.500 us,25 B,,SP,55,Read Transaction,00 00 00 00 00 02 58 64 00 00 00 00 00 00 00 00 00 00 00 00 00 00 01 03 00*
0,1629,0:47.455.614,676.800 us,26 B,,SP,55,Write Transaction,14 00 02 B9 F4 03 93 E9 06 A8 5F 05 E3 2C 00 00 00 00 00 00 FF BE 00 85 FC 34
0,1630,0:47.471.556,116.300 us,3 B,,SP,55,Read Transaction,00 00 18*
0,1631,0:47.475.948,79.000 us,2 B,,SP,55,Write Transaction,00 00
0,1632,0:47.481.298,86.700 us,2 B,,SP,55,Read Transaction,00 08*
0,1633,0:47.481.660,79.100 us,2 B,,SP,55,Write Transaction,12 01
0,1634,0:47.487.008,659.600 us,25 B,,SP,55,Read Transaction,00 00 00 00 00 02 58 64 00 00 00 00 00 00 00 00 00 00 00 00 00 00 01 03 00*
0,1635,0:47.495.478,676.800 us,26 B,,SP,55,Write Transaction,14 00 02 BD 7F 03 98 65 06 AB D5 05 E5 40 00 00 00 00 00 00 FF C5 00 88 FC 2E
0,1636,0:47.511.414,116.300 us,3 B,,SP,55,Read Transaction,00 00 18*
0,1637,0:47.515.807,79.200 us,2 B,,SP,55,Write Transaction,00 00
0,1638,0:47.521.157,86.600 us,2 B,,SP,55,Read Transaction,00 08*
0,1639,0:47.521.518,79.100 us,2 B,,SP,55,Write Transaction,12 01
0,1640,0:47.526.867,659.500 us,25 B,,SP,55,Read Transaction,00 00 00 00 00 02 58 64 00 00 00 00 00 00 00 00 00 00 00 00 00 00 01 03 00*
0,1641,0:47.535.447,676.800 us,26 B,,SP,55,Write Transaction,14 00 02 C1 71 03 9E B8 06 AF 5B 05 E7 3A 00 00 00 00 00 00 FF C2 00 85 FC 3B
0,1642,0:47.551.386,116.300 us,3 B,,SP,55,Read Transaction,00 00 18*
0,1643,0:47.555.777,79.200 us,2 B,,SP,55,Write Transaction,00 00
0,1644,0:47.561.134,86.800 us,2 B,,SP,55,Read Transaction,00 08*
0,1645,0:47.561.497,79.100 us,2 B,,SP,55,Write Transaction,12 01
0,1646,0:47.566.844,659.500 us,25 B,,SP,55,Read Transaction,00 00 00 00 00 02 58 64 00 00 00 00 00 00 00 00 00 00 00 00 00 00 01 03 00*
0,1647,0:47.575.323,677.900 us,26 B,,SP,55,Write Transaction,14 00 02 C5 AE 03 A5 86 06 B3 5D 05 E9 7E 00 00 00 00 00 00 FF C2 00 87 FC 33
0,1648,0:47.591.271,116.200 us,3 B,,SP,55,Read Transaction,00 00 18*
0,1649,0:47.595.663,79.100 us,2 B,,SP,55,Write Transaction,00 00
0,1650,0:47.601.013,86.700 us,2 B,,SP,55,Read Transaction,00 08*
0,1651,0:47.601.375,79.000 us,2 B,,SP,55,Write Transaction,12 01
0,1652,0:47.606.725,660.500 us,25 B,,SP,55,Read Transaction,00 00 00 00 00 02 58 64 00 00 00 00 00 00 00 00 00 00 00 00 00 00 01 03 00*
0,1653,0:47.615.288,676.900 us,26 B,,SP,55,Write Transaction,14 00 02 CA 88 03 AD BE 06 B8 3C 05 EC 56 00 00 00 00 00 00 FF BE 00 85 FC 34
0,1654,0:47.631.231,116.300 us,3 B,,SP,55,Read Transaction,00 00 18*
0,1655,0:47.635.621,79.100 us,2 B,,SP,55,Write Transaction,00 00
0,1656,0:47.640.971,86.700 us,2 B,,SP,55,Read Transaction,00 08*
0,1657,0:47.641.334,79.100 us,2 B,,SP,55,Write Transaction,12 01
0,1658,0:47.646.687,660.500 us,25 B,,SP,55,Read Transaction,00 00 00 00 00 02 58 64 00 00 00 00 00 00 00 00 00 00 00 00 00 00 01 03 00*
0,1659,0:47.655.214,676.700 us,26 B,,SP,55,Write Transaction,14 00 02 CD C3 03 B2 6E 06 B8 DB 05 EB F3 00 00 00 00 00 00 FF BE 00 86 FC 33
0,1660,0:47.671.158,116.300 us,3 B,,SP,55,Read Transaction,00 00 18*
0,1661,0:47.675.551,79.100 us,2 B,,SP,55,Write Transaction,00 00
0,1662,0:47.680.973,86.700 us,2 B,,SP,55,Read Transaction,00 08*
0,1663,0:47.681.337,79.100 us,2 B,,SP,55,Write Transaction,12 01
0,1664,0:47.686.685,659.500 us,25 B,,SP,55,Read Transaction,00 00 00 00 00 02 58 64 00 00 00 00 00 00 00 00 00 00 00 00 00 00 01 03 00*
0,1665,0:47.695.128,676.500 us,26 B,,SP,55,Write Transaction,14 00 02 C7 F1 03 A4 03 06 B0 05 05 E7 56 00 00 00 00 00 00 FF BE 00 85 FC 35
0,1666,0:47.711.064,116.300 us,3 B,,SP,55,Read Transaction,00 00 18*
0,1667,0:47.715.457,79.100 us,2 B,,SP,55,Write Transaction,00 00
0,1668,0:47.720.807,86.700 us,2 B,,SP,55,Read Transaction,00 08*
0,1669,0:47.721.170,79.100 us,2 B,,SP,55,Write Transaction,12 01
0,1670,0:47.726.519,659.600 us,25 B,,SP,55,Read Transaction,00 00 00 00 00 02 58 64 00 00 00 00 00 00 00 00 00 00 00 00 00 00 01 03 00*
0,1671,0:47.735.078,676.800 us,26 B,,SP,55,Write Transaction,14 00 02 B8 DD 03 87 A7 06 A5 DB 05 E3 0C 00 00 00 00 00 00 FF C4 00 86 FC 32
0,1672,0:47.751.017,116.200 us,3 B,,SP,55,Read Transaction,00 00 18*
0,1673,0:47.755.409,79.000 us,2 B,,SP,55,Write Transaction,00 00
0,1674,0:47.760.759,86.700 us,2 B,,SP,55,Read Transaction,00 08*
0,1675,0:47.761.122,79.000 us,2 B,,SP,55,Write Transaction,12 01
0,1676,0:47.766.470,659.600 us,25 B,,SP,55,Read Transaction,00 00 00 00 00 02 58 64 00 00 00 00 00 00 00 00 00 00 00 00 00 00 01 03 00*
0,1677,0:47.774.963,677.400 us,26 B,,SP,55,Write Transaction,14 00 02 AC 93 03 73 17 06 9F B0 05 E0 D6 00 00 00 00 00 00 FF C4 00 85 FC 31
0,1678,0:47.790.903,116.300 us,3 B,,SP,55,Read Transaction,00 00 18*
0,1679,0:47.795.297,79.200 us,2 B,,SP,55,Write Transaction,00 00
0,1680,0:47.800.653,86.600 us,2 B,,SP,55,Read Transaction,00 08*
0,1681,0:47.801.015,79.000 us,2 B,,SP,55,Write Transaction,12 01
0,1682,0:47.806.365,659.600 us,25 B,,SP,55,Read Transaction,00 00 00 00 00 02 58 64 00 00 00 00 00 00 00 00 00 00 00 00 00 00 01 03 00*
0,1683,0:47.814.985,676.800 us,26 B,,SP,55,Write Transaction,14 00 02 A6 2F 03 67 78 06 9C A6 05 DF F7 00 00 00 00 00 00 FF C1 00 84 FC 30
0,1684,0:47.830.923,116.300 us,3 B,,SP,55,Read Transaction,00 00 18*
0,1685,0:47.835.315,79.100 us,2 B,,SP,55,Write Transaction,00 00
0,1686,0:47.840.665,86.600 us,2 B,,SP,55,Read Transaction,00 08*
0,1687,0:47.841.027,79.100 us,2 B,,SP,55,Write Transaction,12 01
0,1688,0:47.846.375,659.500 us,25 B,,SP,55,Read Transaction,00 00 00 00 00 02 62 64 00 00 00 00 00 00 00 00 00 00 00 00 00 00 01 03 00*
0,1689,0:47.855.862,676.800 us,26 B,,SP,55,Write Transaction,14 00 02 A3 71 03 61 4B 06 9C 12 05 E0 50 00 00 00 00 00 00 FF C4 00 89 FC 38
0,1690,0:47.871.806,116.400 us,3 B,,SP,55,Read Transaction,00 00 18*
0,1691,0:47.876.201,79.000 us,2 B,,SP,55,Write Transaction,00 00
0,1692,0:47.881.551,86.700 us,2 B,,SP,55,Read Transaction,00 08*
0,1693,0:47.881.911,79.100 us,2 B,,SP,55,Write Transaction,12 01
0,1694,0:47.887.277,659.400 us,25 B,,SP,55,Read Transaction,00 00 00 00 00 02 62 64 00 00 00 00 00 00 00 00 00 00 00 00 00 00 01 03 00*
0,1695,0:47.894.774,677.600 us,26 B,,SP,55,Write Transaction,14 00 02 A2 02 03 5F 6D 06 9B AD 05 E0 60 00 00 00 00 00 00 FF C1 00 87 FC 31
0,1696,0:47.910.712,116.200 us,3 B,,SP,55,Read Transaction,00 00 18*
0,1697,0:47.915.103,79.100 us,2 B,,SP,55,Write Transaction,00 00
0,1698,0:47.920.454,86.600 us,2 B,,SP,55,Read Transaction,00 08*
0,1699,0:47.920.817,79.000 us,2 B,,SP,55,Write Transaction,12 01
0,1700,0:47.926.165,659.400 us,25 B,,SP,55,Read Transaction,00 00 00 00 00 02 62 64 00 00 00 00 00 00 00 00 00 00 00 00 00 00 01 03 00*
0,1701,0:47.934.664,676.800 us,26 B,,SP,55,Write Transaction,14 00 02 A4 5E 03 66 42 06 9E 11 05 E1 81 00 00 00 00 00 00 FF C1 00 89 FC 30
0,1702,0:47.950.600,116.000 us,3 B,,SP,55,Read Transaction,00 00 18*
0,1703,0:47.954.992,79.100 us,2 B,,SP,55,Write Transaction,00 00
0,1704,0:47.960.342,86.600 us,2 B,,SP,55,Read Transaction,00 08*
0,1705,0:47.960.702,79.000 us,2 B,,SP,55,Write Transaction,12 01
0,1706,0:47.966.058,659.800 us,25 B,,SP,55,Read Transaction,00 00 00 00 00 02 62 64 00 00 00 00 00 00 00 00 00 00 00 00 00 00 01 03 00*
0,1707,0:47.974.644,676.700 us,26 B,,SP,55,Write Transaction,14 00 02 A8 4F 03 6E C1 06 A0 BE 05 E2 A2 00 00 00 00 00 00 FF C0 00 8C FC 38
0,1708,0:47.990.580,116.300 us,3 B,,SP,55,Read Transaction,00 00 18*
0,1709,0:47.994.972,79.000 us,2 B,,SP,55,Write Transaction,00 00
0,1710,0:48.000.323,86.700 us,2 B,,SP,55,Read Transaction,00 08*
0,1711,0:48.000.686,79.000 us,2 B,,SP,55,Write Transaction,12 01
0,1712,0:48.006.036,659.500 us,25 B,,SP,55,Read Transaction,00 00 00 00 00 02 62 64 00 00 00 00 00 00 00 00 00 00 00 00 00 00 01 03 00*
0,1713,0:48.014.565,676.700 us,26 B,,SP,55,Write Transaction,14 00 02 A9 4E 03 6F F2 06 A0 FD 05 E2 AE 00 00 00 00 00 00 FF BF 00 86 FC 31
0,1714,0:48.030.528,116.300 us,3 B,,SP,55,Read Transaction,00 00 18*
0,1715,0:48.034.920,79.000 us,2 B,,SP,55,Write Transaction,00 00
0,1716,0:48.040.269,86.700 us,2 B,,SP,55,Read Transaction,00 08*
0,1717,0:48.040.632,79.000 us,2 B,,SP,55,Write Transaction,12 01
0,1718,0:48.045.981,660.100 us,25 B,,SP,55,Read Transaction,00 00 00 00 00 02 62 64 00 00 00 00 00 00 00 00 00 00 00 00 00 00 01 03 00*
0,1719,0:48.054.495,676.900 us,26 B,,SP,55,Write Transaction,14 00 02 A9 F5 03 70 F3 06 A1 C3 05 E3 4F 00 00 00 00 00 00 FF BE 00 8B FC 2A
0,1720,0:48.070.430,116.300 us,3 B,,SP,55,Read Transaction,00 00 18*
0,1721,0:48.074.825,79.100 us,2 B,,SP,55,Write Transaction,00 00
0,1722,0:48.080.175,86.700 us,2 B,,SP,55,Read Transaction,00 08*
0,1723,0:48.080.536,79.100 us,2 B,,SP,55,Write Transaction,12 01
0,1724,0:48.085.887,659.600 us,25 B,,SP,55,Read Transaction,00 00 00 00 00 02 62 64 24 6C 64 00 00 00 00 00 00 00 00 00 00 00 01 03 00*
0,1725,0:48.094.418,676.900 us,26 B,,SP,55,Write Transaction,14 00 02 AB F3 03 74 84 06 A3 E1 05 E4 72 00 00 00 00 00 00 FF BF 00 84 FC 30
0,1726,0:48.110.359,116.200 us,3 B,,SP,55,Read Transaction,00 00 18*
0,1727,0:48.114.750,79.100 us,2 B,,SP,55,Write Transaction,00 00
0,1728,0:48.120.100,86.600 us,2 B,,SP,55,Read Transaction,00 08*
0,1729,0:48.120.462,79.100 us,2 B,,SP,55,Write Transaction,12 01
0,1730,0:48.125.810,659.600 us,25 B,,SP,55,Read Transaction,00 00 00 00 00 02 62 64 00 00 00 00 00 00 00 00 00 00 00 00 00 00 01 03 00*
0,1731,0:48.134.344,677.800 us,26 B,,SP,55,Write Transaction,14 00 02 AF 84 03 7A 48 06 A7 78 05 E6 7F 00 00 00 00 00 00 FF C7 00 84 FC 2E
0,1732,0:48.150.301,116.300 us,3 B,,SP,55,Read Transaction,00 00 18*
0,1733,0:48.154.695,79.000 us,2 B,,SP,55,Write Transaction,00 00
0,1734,0:48.160.048,86.700 us,2 B,,SP,55,Read Transaction,00 08*
0,1735,0:48.160.410,79.000 us,2 B,,SP,55,Write Transaction,12 01
0,1736,0:48.165.760,659.500 us,25 B,,SP,55,Read Transaction,00 00 00 00 00 02 62 64 00 00 00 00 00 00 00 00 00 00 00 00 00 00 01 03 00*
0,1737,0:48.174.283,677.800 us,26 B,,SP,55,Write Transaction,14 00 02 B2 29 03 7D 63 06 A9 CC 05 E7 B4 00 00 00 00 00 00 FF C2 00 82 FC 30
0,1738,0:48.190.224,116.200 us,3 B,,SP,55,Read Transaction,00 00 18*
0,1739,0:48.194.616,79.000 us,2 B,,SP,55,Write Transaction,00 00
0,1740,0:48.199.966,86.600 us,2 B,,SP,55,Read Transaction,00 08*
0,1741,0:48.200.329,79.000 us,2 B,,SP,55,Write Transaction,12 01
0,1742,0:48.205.676,659.400 us,25 B,,SP,55,Read Transaction,00 00 00 00 00 02 62 64 00 00 00 00 00 00 00 00 00 00 00 00 00 00 01 03 00*
0,1743,0:48.214.210,676.800 us,26 B,,SP,55,Write Transaction,14 00 02 B4 4B 03 7F B6 06 AB 32 05 E8 42 00 00 00 00 00 00 FF BD 00 84 FC 33
0,1744,0:48.230.149,116.300 us,3 B,,SP,55,Read Transaction,00 00 18*
0,1745,0:48.234.544,79.100 us,2 B,,SP,55,Write Transaction,00 00
0,1746,0:48.239.893,86.600 us,2 B,,SP,55,Read Transaction,00 08*
0,1747,0:48.240.254,79.000 us,2 B,,SP,55,Write Transaction,12 01
0,1748,0:48.245.604,659.200 us,25 B,,SP,55,Read Transaction,00 00 00 00 00 02 62 64 00 00 00 00 00 00 00 00 00 00 00 00 00 00 01 03 00*
0,1749,0:48.254.099,677.800 us,26 B,,SP,55,Write Transaction,14 00 02 B6 82 03 83 42 06 AC 8F 05 E8 C6 00 00 00 00 00 00 FF C2 00 83 FC 30
0,1750,0:48.270.056,116.300 us,3 B,,SP,55,Read Transaction,00 00 18*
0,1751,0:48.274.448,79.000 us,2 B,,SP,55,Write Transaction,00 00
0,1752,0:48.279.798,86.700 us,2 B,,SP,55,Read Transaction,00 08*
0,1753,0:48.280.160,79.100 us,2 B,,SP,55,Write Transaction,12 01
0,1754,0:48.285.510,659.400 us,25 B,,SP,55,Read Transaction,00 00 00 00 00 02 62 64 00 00 00 00 00 00 00 00 00 00 00 00 00 00 01 03 00*
0,1755,0:48.294.099,676.900 us,26 B,,SP,55,Write Transaction,14 00 02 B8 8F 03 85 A0 06 AD 9E 05 E9 46 00 00 00 00 00 00 FF BB 00 8A FC 34
0,1756,0:48.310.053,116.400 us,3 B,,SP,55,Read Transaction,00 00 18*
0,1757,0:48.314.451,79.100 us,2 B,,SP,55,Write Transaction,00 00
0,1758,0:48.319.823,86.700 us,2 B,,SP,55,Read Transaction,00 08*
0,1759,0:48.320.187,79.100 us,2 B,,SP,55,Write Transaction,12 01
0,1760,0:48.325.535,659.600 us,25 B,,SP,55,Read Transaction,00 00 00 00 00 02 62 64 00 00 00 00 00 00 00 00 00 00 00 00 00 00 01 03 00*
0,1761,0:48.333.945,676.800 us,26 B,,SP,55,Write Transaction,14 00 02 BA AB 03 88 09 06 AF 8B 05 EA 70 00 00 00 00 00 00 FF BE 00 87 FC 30
0,1762,0:48.349.890,116.400 us,3 B,,SP,55,Read Transaction,00 00 18*
0,1763,0:48.354.282,79.100 us,2 B,,SP,55,Write Transaction,00 00
0,1764,0:48.359.633,86.700 us,2 B,,SP,55,Read Transaction,00 08*
0,1765,0:48.359.996,79.000 us,2 B,,SP,55,Write Transaction,12 01
0,1766,0:48.365.345,659.600 us,25 B,,SP,55,Read Transaction,00 00 00 00 00 02 62 64 00 00 00 00 00 00 00 00 00 00 00 00 00 00 01 03 00*
0,1767,0:48.373.933,676.800 us,26 B,,SP,55,Write Transaction,14 00 02 BD 7D 03 8D 0E 06 B1 40 05 EB 28 00 00 00 00 00 00 FF C2 00 83 FC 36
0,1768,0:48.389.871,116.200 us,3 B,,SP,55,Read Transaction,00 00 18*
0,1769,0:48.394.265,79.000 us,2 B,,SP,55,Write Transaction,00 00
0,1770,0:48.399.614,86.700 us,2 B,,SP,55,Read Transaction,00 08*
0,1771,0:48.399.977,79.000 us,2 B,,SP,55,Write Transaction,12 01
0,1772,0:48.405.324,659.500 us,25 B,,SP,55,Read Transaction,00 00 00 00 00 02 62 64 00 00 00 00 00 00 00 00 00 00 00 00 00 00 01 03 00*
0,1773,0:48.413.804,676.800 us,26 B,,SP,55,Write Transaction,14 00 02 BF DF 03 91 7F 06 B2 A0 05 EB A9 00 00 00 00 00 00 FF BF 00 86 FC 2D
0,1774,0:48.429.744,116.400 us,3 B,,SP,55,Read Transaction,00 00 18*
0,1775,0:48.434.142,79.100 us,2 B,,SP,55,Write Transaction,00 00
0,1776,0:48.439.492,86.600 us,2 B,,SP,55,Read Transaction,00 08*
0,1777,0:48.439.853,79.100 us,2 B,,SP,55,Write Transaction,12 01
0,1778,0:48.445.202,659.500 us,25 B,,SP,55,Read Transaction,00 00 00 00 00 02 62 64 00 00 00 00 00 00 00 00 00 00 00 00 00 00 01 03 00*
0,1779,0:48.453.826,676.800 us,26 B,,SP,55,Write Transaction,14 00 02 C2 68 03 95 E0 06 B4 04 05 EC 3F 00 00 00 00 00 00 FF C2 00 88 FC 2A
0,1780,0:48.469.767,116.300 us,3 B,,SP,55,Read Transaction,00 00 18*
0,1781,0:48.474.160,79.000 us,2 B,,SP,55,Write Transaction,00 00
0,1782,0:48.479.510,86.700 us,2 B,,SP,55,Read Transaction,00 08*
0,1783,0:48.479.872,79.100 us,2 B,,SP,55,Write Transaction,12 01
0,1784,0:48.485.221,659.400 us,25 B,,SP,55,Read Transaction,00 00 00 00 00 02 62 64 00 00 00 00 00 00 00 00 00 00 00 00 00 00 01 03 00*
0,1785,0:48.493.671,676.800 us,26 B,,SP,55,Write Transaction,14 00 02 C5 DB 03 9B 49 06 B7 0F 05 ED F5 00 00 00 00 00 00 FF C1 00 86 FC 38
0,1786,0:48.509.611,116.300 us,3 B,,SP,55,Read Transaction,00 00 18*
0,1787,0:48.514.005,79.100 us,2 B,,SP,55,Write Transaction,00 00
0,1788,0:48.519.353,86.700 us,2 B,,SP,55,Read Transaction,00 08*
0,1789,0:48.519.715,79.100 us,2 B,,SP,55,Write Transaction,12 01
0,1790,0:48.525.064,659.500 us,25 B,,SP,55,Read Transaction,00 00 00 00 00 02 62 64 00 00 00 00 00 00 00 00 00 00 00 00 00 00 01 03 00*
0,1791,0:48.533.650,677.700 us,26 B,,SP,55,Write Transaction,14 00 02 C9 A6 03 A1 EC 06 BA DC 05 F0 1E 00 00 00 00 00 00 FF C0 00 85 FC 34
0,1792,0:48.549.601,116.400 us,3 B,,SP,55,Read Transaction,00 00 18*
0,1793,0:48.553.995,79.100 us,2 B,,SP,55,Write Transaction,00 00
0,1794,0:48.559.345,86.700 us,2 B,,SP,55,Read Transaction,00 08*
0,1795,0:48.559.707,79.100 us,2 B,,SP,55,Write Transaction,12 01
0,1796,0:48.565.100,659.500 us,25 B,,SP,55,Read Transaction,00 00 00 00 00 02 62 64 00 00 00 00 00 00 00 00 00 00 00 00 00 00 01 03 00*
0,1797,0:48.573.542,676.900 us,26 B,,SP,55,Write Transaction,14 00 02 CD F2 03 A8 E5 06 BE 6A 05 F2 07 00 00 00 00 00 00 FF C4 00 85 FC 30
0,1798,0:48.589.488,116.400 us,3 B,,SP,55,Read Transaction,00 00 18*
0,1799,0:48.593.884,79.100 us,2 B,,SP,55,Write Transaction,00 00
0,1800,0:48.599.233,86.700 us,2 B,,SP,55,Read Transaction,00 08*
0,1801,0:48.599.604,79.100 us,2 B,,SP,55,Write Transaction,12 01
0,1802,0:48.604.955,659.600 us,25 B,,SP,55,Read Transaction,00 00 00 00 00 02 62 64 00 00 00 00 00 00 00 00 00 00 00 00 00 00 01 03 00*
0,1803,0:48.613.485,676.800 us,26 B,,SP,55,Write Transaction,14 00 02 D0 43 03 AB CC 06 BE 83 05 F1 81 00 00 00 00 00 00 FF C4 00 86 FC 30
0,1804,0:48.629.425,116.300 us,3 B,,SP,55,Read Transaction,00 00 18*
0,1805,0:48.633.817,79.100 us,2 B,,SP,55,Write Transaction,00 00
0,1806,0:48.639.168,86.600 us,2 B,,SP,55,Read Transaction,00 08*
0,1807,0:48.639.531,79.200 us,2 B,,SP,55,Write Transaction,12 01
0,1808,0:48.644.882,660.600 us,25 B,,SP,55,Read Transaction,00 00 00 00 00 02 62 64 00 00 00 00 00 00 00 00 00 00 00 00 00 00 01 03 00*
0,1809,0:48.653.454,677.400 us,26 B,,SP,55,Write Transaction,14 00 02 CA 82 03 9C 88 06 B7 38 05 ED E8 00 00 00 00 00 00 FF C1 00 84 FC 33
0,1810,0:48.669.393,116.300 us,3 B,,SP,55,Read Transaction,00 00 18*
0,1811,0:48.673.788,79.000 us,2 B,,SP,55,Write Transaction,00 00
0,1812,0:48.679.139,86.700 us,2 B,,SP,55,Read Transaction,00 08*
0,1813,0:48.679.501,79.100 us,2 B,,SP,55,Write Transaction,12 01
0,1814,0:48.684.849,659.600 us,25 B,,SP,55,Read Transaction,00 00 00 00 00 02 62 64 00 00 00 00 00 00 00 00 00 00 00 00 00 00 01 03 00*
0,1815,0:48.693.341,676.800 us,26 B,,SP,55,Write Transaction,14 00 02 BC 3D 03 81 7A 06 AC D1 05 E9 41 00 00 00 00 00 00 FF C1 00 8C FC 35
0,1816,0:48.709.279,116.300 us,3 B,,SP,55,Read Transaction,00 00 18*
0,1817,0:48.713.674,79.100 us,2 B,,SP,55,Write Transaction,00 00
0,1818,0:48.719.026,86.600 us,2 B,,SP,55,Read Transaction,00 08*
0,1819,0:48.719.387,79.100 us,2 B,,SP,55,Write Transaction,12 01
0,1820,0:48.724.740,659.500 us,25 B,,SP,55,Read Transaction,00 00 00 00 00 02 62 64 00 00 00 00 00 00 00 00 00 00 00 00 00 00 01 03 00*
0,1821,0:48.733.283,676.800 us,26 B,,SP,55,Write Transaction,14 00 02 B1 EF 03 70 CF 06 A7 5E 05 E7 2D 00 00 00 00 00 00 FF BD 00 88 FC 30
0,1822,0:48.749.224,116.300 us,3 B,,SP,55,Read Transaction,00 00 18*
0,1823,0:48.753.616,79.100 us,2 B,,SP,55,Write Transaction,00 00
0,1824,0:48.758.967,86.700 us,2 B,,SP,55,Read Transaction,00 08*
0,1825,0:48.759.329,79.100 us,2 B,,SP,55,Write Transaction,12 01
0,1826,0:48.764.680,660.500 us,25 B,,SP,55,Read Transaction,00 00 00 00 00 02 62 64 00 00 00 00 00 00 00 00 00 00 00 00 00 00 01 03 00*
0,1827,0:48.773.207,676.500 us,26 B,,SP,55,Write Transaction,14 00 02 AF 1B 03 6C C7 06 A6 47 05 E6 F6 00 00 00 00 00 00 FF C1 00 8C FC 36
0,1828,0:48.789.144,116.200 us,3 B,,SP,55,Read Transaction,00 00 18*
0,1829,0:48.793.537,79.000 us,2 B,,SP,55,Write Transaction,00 00
0,1830,0:48.798.887,86.700 us,2 B,,SP,55,Read Transaction,00 08*
0,1831,0:48.799.248,79.100 us,2 B,,SP,55,Write Transaction,12 01
0,1832,0:48.804.599,659.500 us,25 B,,SP,55,Read Transaction,00 00 00 00 00 02 62 64 00 00 00 00 00 00 00 00 00 00 00 00 00 00 01 03 00*
0,1833,0:48.813.131,676.900 us,26 B,,SP,55,Write Transaction,14 00 02 AD 7D 03 6A 4E 06 A5 8D 05 E6 E3 00 00 00 00 00 00 FF C2 00 85 FC 35
0,1834,0:48.829.070,116.300 us,3 B,,SP,55,Read Transaction,00 00 18*
0,1835,0:48.833.462,79.100 us,2 B,,SP,55,Write Transaction,00 00
0,1836,0:48.838.812,86.600 us,2 B,,SP,55,Read Transaction,00 08*
0,1837,0:48.839.175,79.000 us,2 B,,SP,55,Write Transaction,12 01
0,1838,0:48.844.523,659.600 us,25 B,,SP,55,Read Transaction,00 00 00 00 00 02 62 64 00 00 00 00 00 00 00 00 00 00 00 00 00 00 01 03 00*
0,1839,0:48.853.052,676.800 us,26 B,,SP,55,Write Transaction,14 00 02 AE 13 03 6C 5D 06 A6 A6 05 E7 C0 00 00 00 00 00 00 FF C1 00 88 FC 2B
0,1840,0:48.868.992,116.200 us,3 B,,SP,55,Read Transaction,00 00 18*
0,1841,0:48.873.386,79.100 us,2 B,,SP,55,Write Transaction,00 00
0,1842,0:48.878.735,86.600 us,2 B,,SP,55,Read Transaction,00 08*
0,1843,0:48.879.096,79.100 us,2 B,,SP,55,Write Transaction,12 01
0,1844,0:48.884.446,659.400 us,25 B,,SP,55,Read Transaction,00 00 00 00 00 02 62 64 00 00 00 00 00 00 00 00 00 00 00 00 00 00 01 03 00*
0,1845,0:48.892.977,677.700 us,26 B,,SP,55,Write Transaction,14 00 02 B1 CD 03 72 E3 06 AA BB 05 EA 05 00 00 00 00 00 00 FF BE 00 83 FC 34
0,1846,0:48.908.916,116.200 us,3 B,,SP,55,Read Transaction,00 00 18*
0,1847,0:48.913.307,79.000 us,2 B,,SP,55,Write Transaction,00 00
0,1848,0:48.918.659,86.700 us,2 B,,SP,55,Read Transaction,00 08*
0,1849,0:48.919.022,79.100 us,2 B,,SP,55,Write Transaction,12 01
0,1850,0:48.924.371,659.300 us,25 B,,SP,55,Read Transaction,00 00 00 00 00 02 62 64 00 00 00 00 00 00 00 00 00 00 00 00 00 00 01 03 00*
0,1851,0:48.932.969,677.800 us,26 B,,SP,55,Write Transaction,14 00 02 B5 5F 03 78 CB 06 AD C8 05 EB C5 00 00 00 00 00 00 FF C4 00 81 FC 33
0,1852,0:48.948.912,116.200 us,3 B,,SP,55,Read Transaction,00 00 18*
0,1853,0:48.953.306,79.000 us,2 B,,SP,55,Write Transaction,00 00
0,1854,0:48.958.661,86.600 us,2 B,,SP,55,Read Transaction,00 08*
0,1855,0:48.959.025,79.000 us,2 B,,SP,55,Write Transaction,12 01
0,1856,0:48.964.372,659.500 us,25 B,,SP,55,Read Transaction,00 00 00 00 00 02 62 64 00 00 00 00 00 00 00 00 00 00 00 00 00 00 01 03 00*
0,1857,0:48.972.825,677.900 us,26 B,,SP,55,Write Transaction,14 00 02 B6 E3 03 79 7F 06 AF 3A 05 EC E1 00 00 00 00 00 00 FF BE 00 86 FC 30
0,1858,0:48.988.766,116.200 us,3 B,,SP,55,Read Transaction,00 00 18*
0,1859,0:48.993.157,79.100 us,2 B,,SP,55,Write Transaction,00 00
0,1860,0:48.998.510,86.600 us,2 B,,SP,55,Read Transaction,00 08*
0,1861,0:48.998.873,79.000 us,2 B,,SP,55,Write Transaction,12 01
0,1862,0:49.004.222,659.500 us,25 B,,SP,55,Read Transaction,00 00 00 00 00 02 62 64 00 00 00 00 00 00 00 00 00 00 00 00 00 00 01 03 00*
0,1863,0:49.012.773,676.800 us,26 B,,SP,55,Write Transaction,14 00 02 B7 94 03 79 82 06 AF 8C 05 ED 18 00 00 00 00 00 00 FF BD 00 86 FC 38
0,1864,0:49.028.724,116.400 us,3 B,,SP,55,Read Transaction,00 00 18*
0,1865,0:49.033.121,79.200 us,2 B,,SP,55,Write Transaction,00 00
0,1866,0:49.038.470,86.700 us,2 B,,SP,55,Read Transaction,00 08*
0,1867,0:49.038.833,79.100 us,2 B,,SP,55,Write Transaction,12 01
0,1868,0:49.044.180,659.500 us,25 B,,SP,55,Read Transaction,00 00 00 00 00 02 62 64 26 23 64 00 00 00 00 00 00 00 00 00 00 00 01 03 00*
0,1869,0:49.052.702,676.800 us,26 B,,SP,55,Write Transaction,14 00 02 B8 C5 03 7C 37 06 B0 85 05 ED C0 00 00 00 00 00 00 FF C3 00 88 FC 31
0,1870,0:49.068.650,116.500 us,3 B,,SP,55,Read Transaction,00 00 18*
0,1871,0:49.073.050,79.000 us,2 B,,SP,55,Write Transaction,00 00
0,1872,0:49.078.399,86.700 us,2 B,,SP,55,Read Transaction,00 08*
0,1873,0:49.078.760,79.000 us,2 B,,SP,55,Write Transaction,12 01
0,1874,0:49.084.110,660.500 us,25 B,,SP,55,Read Transaction,00 00 00 00 00 02 62 64 00 00 00 00 00 00 00 00 00 00 00 00 00 00 01 03 00*
0,1875,0:49.092.654,676.900 us,26 B,,SP,55,Write Transaction,14 00 02 BB D6 03 82 5D 06 B2 E9 05 EE D0 00 00 00 00 00 00 FF C0 00 83 FC 35
0,1876,0:49.108.604,116.200 us,3 B,,SP,55,Read Transaction,00 00 18*
0,1877,0:49.112.997,79.100 us,2 B,,SP,55,Write Transaction,00 00
0,1878,0:49.118.353,86.800 us,2 B,,SP,55,Read Transaction,00 08*
0,1879,0:49.118.716,79.200 us,2 B,,SP,55,Write Transaction,12 01
0,1880,0:49.124.068,659.600 us,25 B,,SP,55,Read Transaction,00 00 00 00 00 02 62 64 00 00 00 00 00 00 00 00 00 00 00 00 00 00 01 03 00*
0,1881,0:49.132.563,676.800 us,26 B,,SP,55,Write Transaction,14 00 02 BF 4A 03 89 3F 06 B5 9B 05 F0 32 00 00 00 00 00 00 FF BF 00 86 FC 32
0,1882,0:49.148.500,116.300 us,3 B,,SP,55,Read Transaction,00 00 18*
0,1883,0:49.152.895,79.100 us,2 B,,SP,55,Write Transaction,00 00
0,1884,0:49.158.246,86.600 us,2 B,,SP,55,Read Transaction,00 08*
0,1885,0:49.158.607,79.000 us,2 B,,SP,55,Write Transaction,12 01
0,1886,0:49.163.957,659.600 us,25 B,,SP,55,Read Transaction,00 00 00 00 00 02 62 64 00 00 00 00 00 00 00 00 00 00 00 00 00 00 01 03 00*
0,1887,0:49.172.499,677.900 us,26 B,,SP,55,Write Transaction,14 00 02 C2 C8 03 8D A7 06 B8 38 05 F1 A2 00 00 00 00 00 00 FF C2 00 8C FC 30
0,1888,0:49.188.455,116.200 us,3 B,,SP,55,Read Transaction,00 00 18*
0,1889,0:49.192.848,79.100 us,2 B,,SP,55,Write Transaction,00 00
0,1890,0:49.198.199,86.700 us,2 B,,SP,55,Read Transaction,00 08*
0,1891,0:49.198.562,79.100 us,2 B,,SP,55,Write Transaction,12 01
0,1892,0:49.203.934,659.600 us,25 B,,SP,55,Read Transaction,00 00 00 00 00 02 62 64 00 00 00 00 00 00 00 00 00 00 00 00 00 00 01 03 00*
0,1893,0:49.212.474,677.000 us,26 B,,SP,55,Write Transaction,14 00 02 C4 AB 03 8F 8C 06 B8 F3 05 F1 A5 00 00 00 00 00 00 FF C0 00 86 FC 39
0,1894,0:49.228.417,116.200 us,3 B,,SP,55,Read Transaction,00 00 18*
0,1895,0:49.232.811,79.100 us,2 B,,SP,55,Write Transaction,00 00
0,1896,0:49.238.160,86.700 us,2 B,,SP,55,Read Transaction,00 08*
0,1897,0:49.238.521,79.100 us,2 B,,SP,55,Write Transaction,12 01
0,1898,0:49.243.879,659.500 us,25 B,,SP,55,Read Transaction,00 00 00 00 00 02 62 64 00 00 00 00 00 00 00 00 00 00 00 00 00 00 01 03 00*
0,1899,0:49.252.322,676.900 us,26 B,,SP,55,Write Transaction,14 00 02 C7 02 03 92 54 06 BB 1A 05 F2 F9 00 00 00 00 00 00 FF C1 00 85 FC 2F
0,1900,0:49.268.262,116.200 us,3 B,,SP,55,Read Transaction,00 00 18*
0,1901,0:49.272.654,79.000 us,2 B,,SP,55,Write Transaction,00 00
0,1902,0:49.278.008,86.800 us,2 B,,SP,55,Read Transaction,00 08*
0,1903,0:49.278.371,79.200 us,2 B,,SP,55,Write Transaction,12 01
0,1904,0:49.283.728,659.400 us,25 B,,SP,55,Read Transaction,00 00 00 00 00 02 62 64 00 00 00 00 00 00 00 00 00 00 00 00 00 00 01 03 00*
0,1905,0:49.292.326,676.900 us,26 B,,SP,55,Write Transaction,14 00 02 C9 D7 03 94 11 06 BD 7A 05 F4 4E 00 00 00 00 00 00 FF C3 00 87 FC 35
0,1906,0:49.308.273,116.200 us,3 B,,SP,55,Read Transaction,00 00 18*
0,1907,0:49.312.667,79.100 us,2 B,,SP,55,Write Transaction,00 00
0,1908,0:49.318.017,86.600 us,2 B,,SP,55,Read Transaction,00 08*
0,1909,0:49.318.379,79.100 us,2 B,,SP,55,Write Transaction,12 01
0,1910,0:49.323.729,659.800 us,25 B,,SP,55,Read Transaction,00 00 00 00 00 02 62 64 00 00 00 00 00 00 00 00 00 00 00 00 00 00 01 03 00*
0,1911,0:49.332.199,676.900 us,26 B,,SP,55,Write Transaction,14 00 02 CB AE 03 95 CE 06 BE C6 05 F5 08 00 00 00 00 00 00 FF BB 00 88 FC 31
0,1912,0:49.348.139,116.200 us,3 B,,SP,55,Read Transaction,00 00 18*
0,1913,0:49.352.532,79.100 us,2 B,,SP,55,Write Transaction,00 00
0,1914,0:49.357.881,86.700 us,2 B,,SP,55,Read Transaction,00 08*
0,1915,0:49.358.242,79.100 us,2 B,,SP,55,Write Transaction,12 01
0,1916,0:49.363.592,659.600 us,25 B,,SP,55,Read Transaction,00 00 00 00 00 02 62 64 00 00 00 00 00 00 00 00 00 00 00 00 00 00 01 03 00*
0,1917,0:49.372.181,676.900 us,26 B,,SP,55,Write Transaction,14 00 02 CE 5D 03 99 11 06 C1 5D 05 F6 8F 00 00 00 00 00 00 FF BE 00 87 FC 2F
0,1918,0:49.388.121,116.300 us,3 B,,SP,55,Read Transaction,00 00 18*
0,1919,0:49.392.513,79.100 us,2 B,,SP,55,Write Transaction,00 00
0,1920,0:49.397.864,86.600 us,2 B,,SP,55,Read Transaction,00 08*
0,1921,0:49.398.226,79.100 us,2 B,,SP,55,Write Transaction,12 01
0,1922,0:49.403.574,659.200 us,25 B,,SP,55,Read Transaction,00 00 00 00 00 02 62 64 00 00 00 00 00 00 00 00 00 00 00 00 00 00 01 03 00*
0,1923,0:49.412.066,676.800 us,26 B,,SP,55,Write Transaction,14 00 02 D1 1D 03 9D D1 06 C3 35 05 F7 71 00 00 00 00 00 00 FF B8 00 84 FC 3B
0,1924,0:49.428.005,116.300 us,3 B,,SP,55,Read Transaction,00 00 18*
0,1925,0:49.432.398,79.100 us,2 B,,SP,55,Write Transaction,00 00
0,1926,0:49.437.748,86.700 us,2 B,,SP,55,Read Transaction,00 08*
0,1927,0:49.438.109,79.100 us,2 B,,SP,55,Write Transaction,12 01
0,1928,0:49.443.459,659.600 us,25 B,,SP,55,Read Transaction,00 00 00 00 00 02 6C 64 00 00 00 00 00 00 00 00 00 00 00 00 00 00 01 03 00*
0,1929,0:49.452.332,676.900 us,26 B,,SP,55,Write Transaction,14 00 02 D3 D2 03 A2 44 06 C4 B1 05 F8 1A 00 00 00 00 00 00 FF C3 00 89 FC 33
0,1930,0:49.468.272,116.300 us,3 B,,SP,55,Read Transaction,00 00 18*
0,1931,0:49.472.665,79.200 us,2 B,,SP,55,Write Transaction,00 00
0,1932,0:49.478.022,86.800 us,2 B,,SP,55,Read Transaction,00 08*
0,1933,0:49.478.385,79.200 us,2 B,,SP,55,Write Transaction,12 01
0,1934,0:49.483.742,660.600 us,25 B,,SP,55,Read Transaction,00 00 00 00 00 02 6C 64 00 00 00 00 00 00 00 00 00 00 00 00 00 00 01 03 00*
0,1935,0:49.491.902,676.800 us,26 B,,SP,55,Write Transaction,14 00 02 D7 9B 03 A8 EE 06 C8 6E 05 FA 47 00 00 00 00 00 00 FF C2 00 88 FC 3A
0,1936,0:49.507.848,116.300 us,3 B,,SP,55,Read Transaction,00 00 18*
0,1937,0:49.512.243,79.100 us,2 B,,SP,55,Write Transaction,00 00
0,1938,0:49.517.593,86.700 us,2 B,,SP,55,Read Transaction,00 08*
0,1939,0:49.517.954,79.100 us,2 B,,SP,55,Write Transaction,12 01
0,1940,0:49.523.305,659.400 us,25 B,,SP,55,Read Transaction,00 00 00 00 00 02 6C 64 00 00 00 00 00 00 00 00 00 00 00 00 00 00 01 03 00*
0,1941,0:49.531.871,677.900 us,26 B,,SP,55,Write Transaction,14 00 02 DB 42 03 AF 42 06 CA C8 05 FB 2B 00 00 00 00 00 00 FF BF 00 87 FC 30
0,1942,0:49.547.814,116.300 us,3 B,,SP,55,Read Transaction,00 00 18*
0,1943,0:49.552.206,79.000 us,2 B,,SP,55,Write Transaction,00 00
0,1944,0:49.557.563,86.800 us,2 B,,SP,55,Read Transaction,00 08*
0,1945,0:49.557.926,79.200 us,2 B,,SP,55,Write Transaction,12 01
0,1946,0:49.563.280,659.600 us,25 B,,SP,55,Read Transaction,00 00 00 00 00 02 6C 64 00 00 00 00 00 00 00 00 00 00 00 00 00 00 01 03 00*
0,1947,0:49.571.807,677.000 us,26 B,,SP,55,Write Transaction,14 00 02 D8 E5 03 A5 C2 06 C5 79 05 F8 31 00 00 00 00 00 00 FF C2 00 8B FC 30
0,1948,0:49.587.748,116.300 us,3 B,,SP,55,Read Transaction,00 00 18*
0,1949,0:49.592.142,79.100 us,2 B,,SP,55,Write Transaction,00 00
0,1950,0:49.597.495,86.600 us,2 B,,SP,55,Read Transaction,00 08*
0,1951,0:49.597.858,79.000 us,2 B,,SP,55,Write Transaction,12 01
0,1952,0:49.603.206,659.600 us,25 B,,SP,55,Read Transaction,00 00 00 00 00 02 6C 64 00 00 00 00 00 00 00 00 00 00 00 00 00 00 01 03 00*
0,1953,0:49.611.739,676.900 us,26 B,,SP,55,Write Transaction,14 00 02 CB 71 03 8A A0 06 B9 A6 05 F2 84 00 00 00 00 00 00 FF BD 00 84 FC 30
0,1954,0:49.627.677,116.200 us,3 B,,SP,55,Read Transaction,00 00 18*
0,1955,0:49.632.070,79.100 us,2 B,,SP,55,Write Transaction,00 00
0,1956,0:49.637.421,86.700 us,2 B,,SP,55,Read Transaction,00 08*
0,1957,0:49.637.785,79.100 us,2 B,,SP,55,Write Transaction,12 01
0,1958,0:49.643.136,659.500 us,25 B,,SP,55,Read Transaction,00 00 00 00 00 02 6C 64 00 00 00 00 00 00 00 00 00 00 00 00 00 00 01 03 00*
0,1959,0:49.651.681,676.800 us,26 B,,SP,55,Write Transaction,14 00 02 BD 44 03 71 CC 06 B0 34 05 EE 7F 00 00 00 00 00 00 FF BF 00 87 FC 38
0,1960,0:49.667.623,116.100 us,3 B,,SP,55,Read Transaction,00 00 18*
0,1961,0:49.672.016,79.100 us,2 B,,SP,55,Write Transaction,00 00
0,1962,0:49.677.372,86.800 us,2 B,,SP,55,Read Transaction,00 08*
0,1963,0:49.677.735,79.200 us,2 B,,SP,55,Write Transaction,12 01
0,1964,0:49.683.092,659.600 us,25 B,,SP,55,Read Transaction,00 00 00 00 00 02 6C 64 00 00 00 00 00 00 00 00 00 00 00 00 00 00 01 03 00*
0,1965,0:49.691.592,677.900 us,26 B,,SP,55,Write Transaction,14 00 02 B5 C7 03 66 9C 06 AB B8 05 EC 99 00 00 00 00 00 00 FF C0 00 8B FC 2F
0,1966,0:49.707.542,116.400 us,3 B,,SP,55,Read Transaction,00 00 18*
0,1967,0:49.711.943,79.200 us,2 B,,SP,55,Write Transaction,00 00
0,1968,0:49.717.299,86.700 us,2 B,,SP,55,Read Transaction,00 08*
0,1969,0:49.717.661,79.100 us,2 B,,SP,55,Write Transaction,12 01
0,1970,0:49.723.012,659.300 us,25 B,,SP,55,Read Transaction,00 00 00 00 00 02 6C 64 00 00 00 00 00 00 00 00 00 00 00 00 00 00 01 03 00*
0,1971,0:49.731.555,676.900 us,26 B,,SP,55,Write Transaction,14 00 02 B2 B4 03 65 46 06 A8 D5 05 EB 6C 00 00 00 00 00 00 FF BC 00 89 FC 30
0,1972,0:49.747.504,116.500 us,3 B,,SP,55,Read Transaction,00 00 18*
0,1973,0:49.751.902,79.000 us,2 B,,SP,55,Write Transaction,00 00
0,1974,0:49.757.253,86.600 us,2 B,,SP,55,Read Transaction,00 08*
0,1975,0:49.757.615,79.100 us,2 B,,SP,55,Write Transaction,12 01
0,1976,0:49.762.964,659.600 us,25 B,,SP,55,Read Transaction,00 00 00 00 00 02 6C 64 00 00 00 00 00 00 00 00 00 00 00 00 00 00 01 03 00*
0,1977,0:49.771.442,676.900 us,26 B,,SP,55,Write Transaction,14 00 02 B0 D5 03 64 E3 06 A7 00 05 EA 68 00 00 00 00 00 00 FF C3 00 89 FC 32
0,1978,0:49.787.389,116.300 us,3 B,,SP,55,Read Transaction,00 00 18*
0,1979,0:49.791.784,79.000 us,2 B,,SP,55,Write Transaction,00 00
0,1980,0:49.797.135,86.700 us,2 B,,SP,55,Read Transaction,00 08*
0,1981,0:49.797.496,79.100 us,2 B,,SP,55,Write Transaction,12 01
0,1982,0:49.802.847,659.700 us,25 B,,SP,55,Read Transaction,00 00 00 00 00 02 6C 64 00 00 00 00 00 00 00 00 00 00 00 00 00 00 01 03 00*
0,1983,0:49.811.389,677.000 us,26 B,,SP,55,Write Transaction,14 00 02 B1 A5 03 69 7E 06 A7 D5 05 EA F0 00 00 00 00 00 00 FF C1 00 88 FC 32
0,1984,0:49.827.334,116.500 us,3 B,,SP,55,Read Transaction,00 00 18*
0,1985,0:49.831.733,79.200 us,2 B,,SP,55,Write Transaction,00 00
0,1986,0:49.837.084,86.700 us,2 B,,SP,55,Read Transaction,00 08*
0,1987,0:49.837.446,79.100 us,2 B,,SP,55,Write Transaction,12 01
0,1988,0:49.842.798,659.600 us,25 B,,SP,55,Read Transaction,00 00 00 00 00 02 6C 64 00 00 00 00 00 00 00 00 00 00 00 00 00 00 01 03 00*
0,1989,0:49.851.342,677.900 us,26 B,,SP,55,Write Transaction,14 00 02 B5 AE 03 71 94 06 AC 0C 05 ED 5A 00 00 00 00 00 00 FF BF 00 86 FC 30
0,1990,0:49.867.293,116.400 us,3 B,,SP,55,Read Transaction,00 00 18*
0,1991,0:49.871.690,79.100 us,2 B,,SP,55,Write Transaction,00 00
0,1992,0:49.877.046,86.800 us,2 B,,SP,55,Read Transaction,00 08*
0,1993,0:49.877.408,79.200 us,2 B,,SP,55,Write Transaction,12 01
0,1994,0:49.882.765,659.600 us,25 B,,SP,55,Read Transaction,00 00 00 00 00 02 6C 64 00 00 00 00 00 00 00 00 00 00 00 00 00 00 01 03 00*
0,1995,0:49.891.215,676.900 us,26 B,,SP,55,Write Transaction,14 00 02 B8 5B 03 75 C6 06 AD DA 05 EE 2C 00 00 00 00 00 00 FF DF 00 7B FC 3B
0,1996,0:49.907.155,116.200 us,3 B,,SP,55,Read Transaction,00 00 18*
0,1997,0:49.911.545,79.100 us,2 B,,SP,55,Write Transaction,00 00
0,1998,0:49.916.896,86.700 us,2 B,,SP,55,Read Transaction,00 08*
0,1999,0:49.917.259,79.000 us,2 B,,SP,55,Write Transaction,12 01
0,2000,0:49.922.612,660.400 us,25 B,,SP,55,Read Transaction,00 00 00 00 00 02 6C 64 00 00 00 00 00 00 00 00 00 00 00 00 00 00 01 03 00*
0,2001,0:49.931.220,676.800 us,26 B,,SP,55,Write Transaction,14 00 02 B9 D5 03 78 41 06 AF 98 05 EF 6C 00 00 00 00 00 00 FF BB 00 87 FC 32
0,2002,0:49.947.160,121.500 us,3 B,,SP,55,Read Transaction,00 00 18*
0,2003,0:49.951.562,79.100 us,2 B,,SP,55,Write Transaction,00 00
0,2004,0:49.956.914,86.700 us,2 B,,SP,55,Read Transaction,00 08*
0,2005,0:49.957.276,79.000 us,2 B,,SP,55,Write Transaction,12 01
0,2006,0:49.962.624,659.600 us,25 B,,SP,55,Read Transaction,00 00 00 00 00 02 6C 64 00 00 00 00 00 00 00 00 00 00 00 00 00 00 01 03 00*
0,2007,0:49.971.070,676.900 us,26 B,,SP,55,Write Transaction,14 00 02 BC A8 03 7D 53 06 B2 A9 05 F1 57 00 00 00 00 00 00 FF C0 00 84 FC 36
0,2008,0:49.987.020,116.300 us,3 B,,SP,55,Read Transaction,00 00 18*
0,2009,0:49.991.413,79.000 us,2 B,,SP,55,Write Transaction,00 00
0,2010,0:49.996.763,86.700 us,2 B,,SP,55,Read Transaction,00 08*
0,2011,0:49.997.124,79.000 us,2 B,,SP,55,Write Transaction,12 01
0,2012,0:50.002.475,659.400 us,25 B,,SP,55,Read Transaction,00 00 00 00 00 02 6C 64 25 BD 64 00 00 00 00 00 00 00 00 00 00 00 01 03 00*
0,2013,0:50.011.058,676.800 us,26 B,,SP,55,Write Transaction,14 00 02 BF D3 03 82 C8 06 B5 50 05 F2 B6 00 00 00 00 00 00 FF B7 00 87 FC 33
0,2014,0:50.026.996,116.300 us,3 B,,SP,55,Read Transaction,00 00 18*
0,2015,0:50.031.387,79.100 us,2 B,,SP,55,Write Transaction,00 00
0,2016,0:50.036.737,86.700 us,2 B,,SP,55,Read Transaction,00 08*
0,2017,0:50.037.099,79.100 us,2 B,,SP,55,Write Transaction,12 01
0,2018,0:50.042.449,659.600 us,25 B,,SP,55,Read Transaction,00 00 00 00 00 02 6C 64 00 00 00 00 00 00 00 00 00 00 00 00 00 00 01 03 00*
0,2019,0:50.050.924,676.900 us,26 B,,SP,55,Write Transaction,14 00 02 C3 BE 03 89 78 06 B8 E0 05 F4 BA 00 00 00 00 00 00 FF C0 00 89 FC 30
0,2020,0:50.066.864,116.400 us,3 B,,SP,55,Read Transaction,00 00 18*
0,2021,0:50.071.262,79.000 us,2 B,,SP,55,Write Transaction,00 00
0,2022,0:50.076.611,86.700 us,2 B,,SP,55,Read Transaction,00 08*
0,2023,0:50.076.973,79.100 us,2 B,,SP,55,Write Transaction,12 01
0,2024,0:50.082.325,660.500 us,25 B,,SP,55,Read Transaction,00 00 00 00 00 02 6C 64 00 00 00 00 00 00 00 00 00 00 00 00 00 00 01 03 00*
0,2025,0:50.091.025,676.900 us,26 B,,SP,55,Write Transaction,14 00 02 C8 71 03 91 B4 06 BC F7 05 F6 F2 00 00 00 00 00 00 FF BD 00 88 FC 30
0,2026,0:50.106.966,116.200 us,3 B,,SP,55,Read Transaction,00 00 18*
0,2027,0:50.111.360,79.000 us,2 B,,SP,55,Write Transaction,00 00
0,2028,0:50.116.710,86.600 us,2 B,,SP,55,Read Transaction,00 08*
0,2029,0:50.117.072,79.000 us,2 B,,SP,55,Write Transaction,12 01
0,2030,0:50.122.419,659.600 us,25 B,,SP,55,Read Transaction,00 00 00 00 00 02 6C 64 00 00 00 00 00 00 00 00 00 00 00 00 00 00 01 03 00*
0,2031,0:50.131.646,676.900 us,26 B,,SP,55,Write Transaction,14 00 02 CD 67 03 99 AF 06 C1 1B 05 F9 2C 00 00 00 00 00 00 FF BE 00 8C FC 36
0,2032,0:50.147.592,116.300 us,3 B,,SP,55,Read Transaction,00 00 18*
0,2033,0:50.151.988,79.100 us,2 B,,SP,55,Write Transaction,00 00
0,2034,0:50.157.336,86.700 us,2 B,,SP,55,Read Transaction,00 08*
0,2035,0:50.157.698,79.100 us,2 B,,SP,55,Write Transaction,12 01
0,2036,0:50.163.048,659.600 us,25 B,,SP,55,Read Transaction,00 00 00 00 00 02 6C 64 00 00 00 00 00 00 00 00 00 00 00 00 00 00 01 03 00*
0,2037,0:50.170.763,676.800 us,26 B,,SP,55,Write Transaction,14 00 02 D1 CC 03 A0 75 06 C4 A6 05 FB 1B 00 00 00 00 00 00 FF BB 00 88 FC 31
0,2038,0:50.186.698,116.300 us,3 B,,SP,55,Read Transaction,00 00 18*
0,2039,0:50.191.089,79.000 us,2 B,,SP,55,Write Transaction,00 00
0,2040,0:50.196.440,86.700 us,2 B,,SP,55,Read Transaction,00 08*
0,2041,0:50.196.802,79.100 us,2 B,,SP,55,Write Transaction,12 01
0,2042,0:50.202.151,659.500 us,25 B,,SP,55,Read Transaction,00 00 00 00 00 02 6C 64 00 00 00 00 00 00 00 00 00 00 00 00 00 00 01 03 00*
0,2043,0:50.210.707,676.800 us,26 B,,SP,55,Write Transaction,14 00 02 D5 95 03 A5 91 06 C7 B7 05 FC C5 00 00 00 00 00 00 FF BC 00 87 FC 34
0,2044,0:50.226.653,116.300 us,3 B,,SP,55,Read Transaction,00 00 18*
0,2045,0:50.231.048,79.100 us,2 B,,SP,55,Write Transaction,00 00
0,2046,0:50.236.397,86.700 us,2 B,,SP,55,Read Transaction,00 08*
0,2047,0:50.236.761,79.100 us,2 B,,SP,55,Write Transaction,12 01
0,2048,0:50.242.107,659.200 us,25 B,,SP,55,Read Transaction,00 00 00 00 00 02 6C 64 00 00 00 00 00 00 00 00 00 00 00 00 00 00 01 03 00*
0,2049,0:50.250.632,676.800 us,26 B,,SP,55,Write Transaction,14 00 02 D9 0F 03 AB 09 06 CA 11 05 FD F4 00 00 00 00 00 00 FF BA 00 8A FC 35
0,2050,0:50.266.570,116.200 us,3 B,,SP,55,Read Transaction,00 00 18*
0,2051,0:50.270.961,79.000 us,2 B,,SP,55,Write Transaction,00 00
0,2052,0:50.276.334,86.700 us,2 B,,SP,55,Read Transaction,00 08*
0,2053,0:50.276.697,79.100 us,2 B,,SP,55,Write Transaction,12 01
0,2054,0:50.282.051,659.800 us,25 B,,SP,55,Read Transaction,00 00 00 00 00 02 6C 64 00 00 00 00 00 00 00 00 00 00 00 00 00 00 01 03 00*
0,2055,0:50.290.554,676.900 us,26 B,,SP,55,Write Transaction,14 00 02 DC A1 03 B1 6D 06 CD 14 05 FF 88 00 00 00 00 00 00 FF C1 00 86 FC 30
0,2056,0:50.306.581,116.400 us,3 B,,SP,55,Read Transaction,00 00 18*
0,2057,0:50.310.975,79.100 us,2 B,,SP,55,Write Transaction,00 00
0,2058,0:50.316.327,86.700 us,2 B,,SP,55,Read Transaction,00 08*
0,2059,0:50.316.689,79.100 us,2 B,,SP,55,Write Transaction,12 01
0,2060,0:50.322.038,659.600 us,25 B,,SP,55,Read Transaction,00 00 00 00 00 02 6C 64 00 00 00 00 00 00 00 00 00 00 00 00 00 00 01 03 00*
0,2061,0:50.330.444,676.900 us,26 B,,SP,55,Write Transaction,14 00 02 E0 54 03 B7 69 06 CF E4 06 01 02 00 00 00 00 00 00 FF BE 00 8E FC 30
0,2062,0:50.346.387,116.200 us,3 B,,SP,55,Read Transaction,00 00 18*
0,2063,0:50.350.780,79.000 us,2 B,,SP,55,Write Transaction,00 00
0,2064,0:50.356.128,86.700 us,2 B,,SP,55,Read Transaction,00 08*
0,2065,0:50.356.489,79.000 us,2 B,,SP,55,Write Transaction,12 01
0,2066,0:50.361.838,659.500 us,25 B,,SP,55,Read Transaction,00 00 00 00 00 02 6C 64 00 00 00 00 00 00 00 00 00 00 00 00 00 00 01 03 00*
0,2067,0:50.370.452,677.700 us,26 B,,SP,55,Write Transaction,14 00 02 E3 BE 03 BB FC 06 D2 DD 06 02 B8 00 00 00 00 00 00 FF C4 00 89 FC 31
0,2068,0:50.386.397,116.200 us,3 B,,SP,55,Read Transaction,00 00 18*
0,2069,0:50.390.790,79.000 us,2 B,,SP,55,Write Transaction,00 00
0,2070,0:50.396.142,86.800 us,2 B,,SP,55,Read Transaction,00 08*
0,2071,0:50.396.505,79.200 us,2 B,,SP,55,Write Transaction,12 01
0,2072,0:50.401.857,659.400 us,25 B,,SP,55,Read Transaction,00 00 00 00 00 02 6C 64 00 00 00 00 00 00 00 00 00 00 00 00 00 00 01 03 00*
0,2073,0:50.410.312,676.800 us,26 B,,SP,55,Write Transaction,14 00 02 E7 7F 03 C1 BB 06 D5 E4 06 04 49 00 00 00 00 00 00 FF C0 00 88 FC 33
0,2074,0:50.426.247,116.300 us,3 B,,SP,55,Read Transaction,00 00 18*
0,2075,0:50.430.645,79.100 us,2 B,,SP,55,Write Transaction,00 00
0,2076,0:50.435.995,86.700 us,2 B,,SP,55,Read Transaction,00 08*
0,2077,0:50.436.357,79.100 us,2 B,,SP,55,Write Transaction,12 01
0,2078,0:50.441.707,659.400 us,25 B,,SP,55,Read Transaction,00 00 00 00 00 02 6C 64 00 00 00 00 00 00 00 00 00 00 00 00 00 00 01 03 00*
0,2079,0:50.450.303,676.800 us,26 B,,SP,55,Write Transaction,14 00 02 EB 1A 03 C7 7C 06 D9 24 06 06 12 00 00 00 00 00 00 FF BC 00 87 FC 30
0,2080,0:50.466.244,116.300 us,3 B,,SP,55,Read Transaction,00 00 18*
0,2081,0:50.470.635,79.000 us,2 B,,SP,55,Write Transaction,00 00
0,2082,0:50.475.985,86.700 us,2 B,,SP,55,Read Transaction,00 08*
0,2083,0:50.476.347,79.000 us,2 B,,SP,55,Write Transaction,12 01
0,2084,0:50.481.697,659.500 us,25 B,,SP,55,Read Transaction,00 00 00 00 00 02 6C 64 00 00 00 00 00 00 00 00 00 00 00 00 00 00 01 03 00*
0,2085,0:50.490.235,676.700 us,26 B,,SP,55,Write Transaction,14 00 02 EE BD 03 CD 45 06 DA F5 06 06 9F 00 00 00 00 00 00 FF C4 00 89 FC 30
0,2086,0:50.506.175,116.200 us,3 B,,SP,55,Read Transaction,00 00 18*
0,2087,0:50.510.567,79.100 us,2 B,,SP,55,Write Transaction,00 00
0,2088,0:50.515.916,86.700 us,2 B,,SP,55,Read Transaction,00 08*
0,2089,0:50.516.281,79.000 us,2 B,,SP,55,Write Transaction,12 01
0,2090,0:50.521.632,659.600 us,25 B,,SP,55,Read Transaction,00 00 00 00 00 02 6C 64 00 00 00 00 00 00 00 00 00 00 00 00 00 00 01 03 00*
0,2091,0:50.530.149,676.800 us,26 B,,SP,55,Write Transaction,14 00 02 EB A2 03 C2 F9 06 D3 91 06 02 51 00 00 00 00 00 00 FF BB 00 8B FC 36
0,2092,0:50.546.082,116.200 us,3 B,,SP,55,Read Transaction,00 00 18*
0,2093,0:50.550.475,79.100 us,2 B,,SP,55,Write Transaction,00 00
0,2094,0:50.555.830,86.700 us,2 B,,SP,55,Read Transaction,00 08*
0,2095,0:50.556.192,79.000 us,2 B,,SP,55,Write Transaction,12 01
0,2096,0:50.561.542,659.500 us,25 B,,SP,55,Read Transaction,00 00 00 00 00 02 6C 64 00 00 00 00 00 00 00 00 00 00 00 00 00 00 01 03 00*
0,2097,0:50.570.088,676.800 us,26 B,,SP,55,Write Transaction,14 00 02 DE 40 03 A8 E5 06 C6 C6 05 FC 36 00 00 00 00 00 00 FF BF 00 8A FC 34
0,2098,0:50.586.026,116.200 us,3 B,,SP,55,Read Transaction,00 00 18*
0,2099,0:50.590.419,79.100 us,2 B,,SP,55,Write Transaction,00 00
0,2100,0:50.595.768,86.600 us,2 B,,SP,55,Read Transaction,00 08*
0,2101,0:50.596.131,79.000 us,2 B,,SP,55,Write Transaction,12 01
0,2102,0:50.601.478,659.300 us,25 B,,SP,55,Read Transaction,00 00 00 00 00 02 6C 64 00 00 00 00 00 00 00 00 00 00 00 00 00 00 01 03 00*
0,2103,0:50.610.012,676.700 us,26 B,,SP,55,Write Transaction,14 00 02 D0 81 03 93 F5 06 BD C4 05 F8 6E 00 00 00 00 00 00 FF BD 00 86 FC 37
0,2104,0:50.625.946,116.300 us,3 B,,SP,55,Read Transaction,00 00 18*
0,2105,0:50.630.376,79.000 us,2 B,,SP,55,Write Transaction,00 00
0,2106,0:50.635.724,86.600 us,2 B,,SP,55,Read Transaction,00 08*
0,2107,0:50.636.085,79.100 us,2 B,,SP,55,Write Transaction,12 01
0,2108,0:50.641.435,659.500 us,25 B,,SP,55,Read Transaction,00 00 00 00 00 02 6C 64 00 00 00 00 00 00 00 00 00 00 00 00 00 00 01 03 00*
0,2109,0:50.649.945,677.700 us,26 B,,SP,55,Write Transaction,14 00 02 C9 1F 03 89 1C 06 B9 4E 05 F6 7B 00 00 00 00 00 00 FF C5 00 89 FC 34
0,2110,0:50.665.893,116.300 us,3 B,,SP,55,Read Transaction,00 00 18*
0,2111,0:50.670.285,79.100 us,2 B,,SP,55,Write Transaction,00 00
0,2112,0:50.675.634,86.700 us,2 B,,SP,55,Read Transaction,00 08*
0,2113,0:50.675.997,79.200 us,2 B,,SP,55,Write Transaction,12 01
0,2114,0:50.681.349,659.500 us,25 B,,SP,55,Read Transaction,00 00 00 00 00 02 6C 64 00 00 00 00 00 00 00 00 00 00 00 00 00 00 01 03 00*
0,2115,0:50.689.863,676.800 us,26 B,,SP,55,Write Transaction,14 00 02 C5 B8 03 81 B0 06 B7 DE 05 F6 49 00 00 00 00 00 00 FF BC 00 8A FC 30
0,2116,0:50.705.799,116.200 us,3 B,,SP,55,Read Transaction,00 00 18*
0,2117,0:50.710.193,79.000 us,2 B,,SP,55,Write Transaction,00 00
0,2118,0:50.715.543,86.700 us,2 B,,SP,55,Read Transaction,00 08*
0,2119,0:50.715.904,79.100 us,2 B,,SP,55,Write Transaction,12 01
0,2120,0:50.721.258,660.500 us,25 B,,SP,55,Read Transaction,00 00 00 00 00 02 6C 64 00 00 00 00 00 00 00 00 00 00 00 00 00 00 01 03 00*
0,2121,0:50.729.859,676.900 us,26 B,,SP,55,Write Transaction,14 00 02 C3 55 03 7C F7 06 B6 8D 05 F5 E9 00 00 00 00 00 00 FF C1 00 89 FC 30
0,2122,0:50.745.802,116.300 us,3 B,,SP,55,Read Transaction,00 00 18*
0,2123,0:50.750.194,79.000 us,2 B,,SP,55,Write Transaction,00 00
0,2124,0:50.755.542,86.700 us,2 B,,SP,55,Read Transaction,00 08*
0,2125,0:50.755.904,79.000 us,2 B,,SP,55,Write Transaction,12 01
0,2126,0:50.761.251,659.600 us,25 B,,SP,55,Read Transaction,00 00 00 00 00 02 6C 64 00 00 00 00 00 00 00 00 00 00 00 00 00 00 01 03 00*
0,2127,0:50.769.719,676.700 us,26 B,,SP,55,Write Transaction,14 00 02 C3 8B 03 7F B2 06 B7 7A 05 F6 B6 00 00 00 00 00 00 FF BE 00 87 FC 30
0,2128,0:50.785.659,116.200 us,3 B,,SP,55,Read Transaction,00 00 18*
0,2129,0:50.790.053,79.000 us,2 B,,SP,55,Write Transaction,00 00
0,2130,0:50.795.402,86.700 us,2 B,,SP,55,Read Transaction,00 08*
0,2131,0:50.795.764,79.000 us,2 B,,SP,55,Write Transaction,12 01
0,2132,0:50.801.119,660.400 us,25 B,,SP,55,Read Transaction,00 00 00 00 00 02 6C 64 00 00 00 00 00 00 00 00 00 00 00 00 00 00 01 03 00*
0,2133,0:50.809.626,676.900 us,26 B,,SP,55,Write Transaction,14 00 02 C7 C0 03 89 79 06 BB 46 05 F8 9C 00 00 00 00 00 00 FF C1 00 8A FC 34
0,2134,0:50.825.576,116.300 us,3 B,,SP,55,Read Transaction,00 00 18*
0,2135,0:50.829.968,79.000 us,2 B,,SP,55,Write Transaction,00 00
0,2136,0:50.835.318,86.700 us,2 B,,SP,55,Read Transaction,00 08*
0,2137,0:50.835.681,79.000 us,2 B,,SP,55,Write Transaction,12 01
0,2138,0:50.841.032,660.500 us,25 B,,SP,55,Read Transaction,00 00 00 00 00 02 6C 64 00 00 00 00 00 00 00 00 00 00 00 00 00 00 01 03 00*
0,2139,0:50.849.614,676.800 us,26 B,,SP,55,Write Transaction,14 00 02 CB 67 03 90 86 06 BD 57 05 F9 5F 00 00 00 00 00 00 FF BD 00 8A FC 31
0,2140,0:50.865.559,116.300 us,3 B,,SP,55,Read Transaction,00 00 18*
0,2141,0:50.869.953,79.100 us,2 B,,SP,55,Write Transaction,00 00
0,2142,0:50.875.303,86.700 us,2 B,,SP,55,Read Transaction,00 08*
0,2143,0:50.875.668,79.000 us,2 B,,SP,55,Write Transaction,12 01
0,2144,0:50.881.015,659.200 us,25 B,,SP,55,Read Transaction,00 00 00 00 00 02 6C 64 00 00 00 00 00 00 00 00 00 00 00 00 00 00 01 03 00*
0,2145,0:50.889.488,676.900 us,26 B,,SP,55,Write Transaction,14 00 02 CD 4C 03 94 7C 06 BE BB 05 FA 2F 00 00 00 00 00 00 FF C1 00 85 FC 31
0,2146,0:50.905.426,116.300 us,3 B,,SP,55,Read Transaction,00 00 18*
0,2147,0:50.909.817,79.100 us,2 B,,SP,55,Write Transaction,00 00
0,2148,0:50.915.182,86.700 us,2 B,,SP,55,Read Transaction,00 08*
0,2149,0:50.915.544,79.100 us,2 B,,SP,55,Write Transaction,12 01
0,2150,0:50.920.894,659.600 us,25 B,,SP,55,Read Transaction,00 00 00 00 00 02 6C 64 00 00 00 00 00 00 00 00 00 00 00 00 00 00 01 03 00*
0,2151,0:50.929.888,676.900 us,26 B,,SP,55,Write Transaction,14 00 02 D0 CB 03 9B 26 06 C1 C3 05 FB D8 00 00 00 00 00 00 FF BD 00 8C FC 36
0,2152,0:50.945.827,116.300 us,3 B,,SP,55,Read Transaction,00 00 18*
0,2153,0:50.950.219,79.000 us,2 B,,SP,55,Write Transaction,00 00
0,2154,0:50.955.570,86.700 us,2 B,,SP,55,Read Transaction,00 08*
0,2155,0:50.955.933,79.100 us,2 B,,SP,55,Write Transaction,12 01
0,2156,0:50.961.287,660.500 us,25 B,,SP,55,Read Transaction,00 00 00 00 00 02 6C 64 25 39 64 00 00 00 00 00 00 00 00 00 00 00 01 03 00*
0,2157,0:50.969.367,676.900 us,26 B,,SP,55,Write Transaction,14 00 02 D4 5C 03 A0 EA 06 C5 18 05 FD B4 00 00 00 00 00 00 FF BC 00 87 FC 32
0,2158,0:50.985.305,116.300 us,3 B,,SP,55,Read Transaction,00 00 18*
0,2159,0:50.989.698,79.000 us,2 B,,SP,55,Write Transaction,00 00
0,2160,0:50.995.049,86.700 us,2 B,,SP,55,Read Transaction,00 08*
0,2161,0:50.995.411,79.100 us,2 B,,SP,55,Write Transaction,12 01
0,2162,0:51.000.761,659.500 us,25 B,,SP,55,Read Transaction,00 00 00 00 00 02 6C 64 00 00 00 00 00 00 00 00 00 00 00 00 00 00 01 03 00*
0,2163,0:51.009.366,676.800 us,26 B,,SP,55,Write Transaction,14 00 02 D8 42 03 A7 16 06 C8 91 05 FF 90 00 00 00 00 00 00 FF C3 00 8A FC 33
0,2164,0:51.025.304,116.200 us,3 B,,SP,55,Read Transaction,00 00 18*
0,2165,0:51.029.697,79.100 us,2 B,,SP,55,Write Transaction,00 00
0,2166,0:51.035.047,86.700 us,2 B,,SP,55,Read Transaction,00 08*
0,2167,0:51.035.410,79.100 us,2 B,,SP,55,Write Transaction,12 01
0,2168,0:51.040.757,659.500 us,25 B,,SP,55,Read Transaction,00 00 00 00 00 02 76 64 00 00 00 00 00 00 00 00 00 00 00 00 00 00 01 03 00*
0,2169,0:51.049.235,676.800 us,26 B,,SP,55,Write Transaction,14 00 02 DC E3 03 AE C1 06 CC C1 06 01 D4 00 00 00 00 00 00 FF C1 00 86 FC 35
0,2170,0:51.065.195,116.200 us,3 B,,SP,55,Read Transaction,00 00 18*
0,2171,0:51.069.589,79.000 us,2 B,,SP,55,Write Transaction,00 00
0,2172,0:51.074.937,86.700 us,2 B,,SP,55,Read Transaction,00 08*
0,2173,0:51.075.298,79.000 us,2 B,,SP,55,Write Transaction,12 01
0,2174,0:51.080.647,659.900 us,25 B,,SP,55,Read Transaction,00 00 00 00 00 02 76 64 00 00 00 00 00 00 00 00 00 00 00 00 00 00 01 03 00*
0,2175,0:51.089.199,676.900 us,26 B,,SP,55,Write Transaction,14 00 02 E0 FA 03 B5 4B 06 D0 07 06 03 73 00 00 00 00 00 00 FF C2 00 88 FC 2D
0,2176,0:51.105.141,116.200 us,3 B,,SP,55,Read Transaction,00 00 18*
0,2177,0:51.109.532,79.000 us,2 B,,SP,55,Write Transaction,00 00
0,2178,0:51.114.882,86.700 us,2 B,,SP,55,Read Transaction,00 08*
0,2179,0:51.115.245,79.200 us,2 B,,SP,55,Write Transaction,12 01
0,2180,0:51.120.595,659.600 us,25 B,,SP,55,Read Transaction,00 00 00 00 00 02 76 64 00 00 00 00 00 00 00 00 00 00 00 00 00 00 01 03 00*
0,2181,0:51.129.134,676.800 us,26 B,,SP,55,Write Transaction,14 00 02 E4 87 03 BA 0A 06 D3 1F 06 05 45 00 00 00 00 00 00 FF C1 00 8A FC 36
0,2182,0:51.145.076,116.200 us,3 B,,SP,55,Read Transaction,00 00 18*
0,2183,0:51.149.470,79.000 us,2 B,,SP,55,Write Transaction,00 00
0,2184,0:51.154.818,86.700 us,2 B,,SP,55,Read Transaction,00 08*
0,2185,0:51.155.204,79.000 us,2 B,,SP,55,Write Transaction,12 01
0,2186,0:51.160.554,659.600 us,25 B,,SP,55,Read Transaction,00 00 00 00 00 02 76 64 00 00 00 00 00 00 00 00 00 00 00 00 00 00 01 03 00*
0,2187,0:51.169.061,676.700 us,26 B,,SP,55,Write Transaction,14 00 02 E8 A9 03 C0 2C 06 D6 F0 06 07 51 00 00 00 00 00 00 FF C2 00 8B FC 2E
0,2188,0:51.185.002,116.300 us,3 B,,SP,55,Read Transaction,00 00 18*
0,2189,0:51.189.395,79.100 us,2 B,,SP,55,Write Transaction,00 00
0,2190,0:51.194.749,86.800 us,2 B,,SP,55,Read Transaction,00 08*
0,2191,0:51.195.112,79.200 us,2 B,,SP,55,Write Transaction,12 01
0,2192,0:51.200.463,659.600 us,25 B,,SP,55,Read Transaction,00 00 00 00 00 02 76 64 00 00 00 00 00 00 00 00 00 00 00 00 00 00 01 03 00*
0,2193,0:51.209.002,676.900 us,26 B,,SP,55,Write Transaction,14 00 02 EC 33 03 C5 4A 06 DA 43 06 09 48 00 00 00 00 00 00 FF C0 00 8B FC 37
0,2194,0:51.224.951,116.300 us,3 B,,SP,55,Read Transaction,00 00 18*
0,2195,0:51.229.345,79.000 us,2 B,,SP,55,Write Transaction,00 00
0,2196,0:51.234.695,86.700 us,2 B,,SP,55,Read Transaction,00 08*
0,2197,0:51.235.056,79.000 us,2 B,,SP,55,Write Transaction,12 01
0,2198,0:51.240.404,659.500 us,25 B,,SP,55,Read Transaction,00 00 00 00 00 02 76 64 00 00 00 00 00 00 00 00 00 00 00 00 00 00 01 03 00*
0,2199,0:51.248.931,676.900 us,26 B,,SP,55,Write Transaction,14 00 02 EF C9 03 CA C7 06 DD 04 06 0A AA 00 00 00 00 00 00 FF C3 00 88 FC 33
0,2200,0:51.264.870,116.300 us,3 B,,SP,55,Read Transaction,00 00 18*
0,2201,0:51.269.264,79.100 us,2 B,,SP,55,Write Transaction,00 00
0,2202,0:51.274.612,86.600 us,2 B,,SP,55,Read Transaction,00 08*
0,2203,0:51.274.974,79.000 us,2 B,,SP,55,Write Transaction,12 01
0,2204,0:51.280.326,659.600 us,25 B,,SP,55,Read Transaction,00 00 00 00 00 02 76 64 00 00 00 00 00 00 00 00 00 00 00 00 00 00 01 03 00*
0,2205,0:51.288.846,676.800 us,26 B,,SP,55,Write Transaction,14 00 02 F2 AD 03 CF 06 06 DE CB 06 0B A2 00 00 00 00 00 00 FF C1 00 88 FC 38
0,2206,0:51.304.808,116.200 us,3 B,,SP,55,Read Transaction,00 00 18*
0,2207,0:51.309.205,79.200 us,2 B,,SP,55,Write Transaction,00 00
0,2208,0:51.314.560,86.700 us,2 B,,SP,55,Read Transaction,00 08*
0,2209,0:51.314.922,79.100 us,2 B,,SP,55,Write Transaction,12 01
0,2210,0:51.320.270,659.600 us,25 B,,SP,55,Read Transaction,00 00 00 00 00 02 76 64 00 00 00 00 00 00 00 00 00 00 00 00 00 00 01 03 00*
0,2211,0:51.328.779,676.800 us,26 B,,SP,55,Write Transaction,14 00 02 F5 DB 03 D3 55 06 E1 DA 06 0D 72 00 00 00 00 00 00 FF C4 00 8A FC 30
0,2212,0:51.344.715,116.300 us,3 B,,SP,55,Read Transaction,00 00 18*
0,2213,0:51.349.108,79.000 us,2 B,,SP,55,Write Transaction,00 00
0,2214,0:51.354.456,86.600 us,2 B,,SP,55,Read Transaction,00 08*
0,2215,0:51.354.818,79.000 us,2 B,,SP,55,Write Transaction,12 01
0,2216,0:51.360.167,659.200 us,25 B,,SP,55,Read Transaction,00 00 00 00 00 02 76 64 00 00 00 00 00 00 00 00 00 00 00 00 00 00 01 03 00*
0,2217,0:51.368.739,676.800 us,26 B,,SP,55,Write Transaction,14 00 02 F9 3C 03 D8 74 06 E5 08 06 0F 23 00 00 00 00 00 00 FF C1 00 89 FC 2F
0,2218,0:51.384.677,116.200 us,3 B,,SP,55,Read Transaction,00 00 18*
0,2219,0:51.389.068,79.000 us,2 B,,SP,55,Write Transaction,00 00
0,2220,0:51.394.417,86.700 us,2 B,,SP,55,Read Transaction,00 08*
0,2221,0:51.394.779,79.100 us,2 B,,SP,55,Write Transaction,12 01
0,2222,0:51.400.126,659.500 us,25 B,,SP,55,Read Transaction,00 00 00 00 00 02 76 64 00 00 00 00 00 00 00 00 00 00 00 00 00 00 01 03 00*
0,2223,0:51.408.664,676.800 us,26 B,,SP,55,Write Transaction,14 00 02 FC EE 03 DD 97 06 E8 D9 06 11 65 00 00 00 00 00 00 FF BE 00 87 FC 33
0,2224,0:51.424.603,116.200 us,3 B,,SP,55,Read Transaction,00 00 18*
0,2225,0:51.428.997,79.100 us,2 B,,SP,55,Write Transaction,00 00
0,2226,0:51.434.345,86.600 us,2 B,,SP,55,Read Transaction,00 08*
0,2227,0:51.434.707,79.100 us,2 B,,SP,55,Write Transaction,12 01
0,2228,0:51.440.060,659.600 us,25 B,,SP,55,Read Transaction,00 00 00 00 00 02 76 64 00 00 00 00 00 00 00 00 00 00 00 00 00 00 01 03 00*
0,2229,0:51.448.557,676.800 us,26 B,,SP,55,Write Transaction,14 00 03 00 74 03 E3 3A 06 EB 5B 06 12 42 00 00 00 00 00 00 FF C4 00 91 FC 36
0,2230,0:51.464.498,116.200 us,3 B,,SP,55,Read Transaction,00 00 18*
0,2231,0:51.468.890,79.100 us,2 B,,SP,55,Write Transaction,00 00
0,2232,0:51.474.240,86.700 us,2 B,,SP,55,Read Transaction,00 08*
0,2233,0:51.474.602,79.100 us,2 B,,SP,55,Write Transaction,12 01
0,2234,0:51.479.952,659.000 us,25 B,,SP,55,Read Transaction,00 00 00 00 00 02 76 64 00 00 00 00 00 00 00 00 00 00 00 00 00 00 01 03 00*
0,2235,0:51.488.556,676.800 us,26 B,,SP,55,Write Transaction,14 00 02 FE EA 03 DC CE 06 E4 8C 06 0D FC 00 00 00 00 00 00 FF BD 00 87 FC 30
0,2236,0:51.504.503,116.300 us,3 B,,SP,55,Read Transaction,00 00 18*
0,2237,0:51.508.901,79.100 us,2 B,,SP,55,Write Transaction,00 00
0,2238,0:51.514.256,86.700 us,2 B,,SP,55,Read Transaction,00 08*
0,2239,0:51.514.619,79.100 us,2 B,,SP,55,Write Transaction,12 01
0,2240,0:51.519.967,659.600 us,25 B,,SP,55,Read Transaction,00 00 00 00 00 02 76 64 00 00 00 00 00 00 00 00 00 00 00 00 00 00 01 03 00*
0,2241,0:51.528.425,676.900 us,26 B,,SP,55,Write Transaction,14 00 02 F3 E8 03 C4 FF 06 D8 2D 06 07 C4 00 00 00 00 00 00 FF C4 00 85 FC 36
0,2242,0:51.544.364,116.300 us,3 B,,SP,55,Read Transaction,00 00 18*
0,2243,0:51.548.756,79.100 us,2 B,,SP,55,Write Transaction,00 00
0,2244,0:51.554.108,86.600 us,2 B,,SP,55,Read Transaction,00 08*
0,2245,0:51.554.469,79.100 us,2 B,,SP,55,Write Transaction,12 01
0,2246,0:51.559.819,659.600 us,25 B,,SP,55,Read Transaction,00 00 00 00 00 02 76 64 00 00 00 00 00 00 00 00 00 00 00 00 00 00 01 03 00*
0,2247,0:51.568.385,676.800 us,26 B,,SP,55,Write Transaction,14 00 02 E5 73 03 AE F3 06 CD 4B 06 02 B6 00 00 00 00 00 00 FF C5 00 85 FC 2F
0,2248,0:51.584.326,116.300 us,3 B,,SP,55,Read Transaction,00 00 18*
0,2249,0:51.588.719,79.000 us,2 B,,SP,55,Write Transaction,00 00
0,2250,0:51.594.070,86.700 us,2 B,,SP,55,Read Transaction,00 08*
0,2251,0:51.594.432,79.100 us,2 B,,SP,55,Write Transaction,12 01
0,2252,0:51.599.788,660.500 us,25 B,,SP,55,Read Transaction,00 00 00 00 00 02 76 64 00 00 00 00 00 00 00 00 00 00 00 00 00 00 01 03 00*
0,2253,0:51.609.038,676.800 us,26 B,,SP,55,Write Transaction,14 00 02 DB 73 03 A0 AE 06 C7 BB 06 00 8C 00 00 00 00 00 00 FF C4 00 88 FC 33
0,2254,0:51.624.979,116.200 us,3 B,,SP,55,Read Transaction,00 00 18*
0,2255,0:51.629.375,79.200 us,2 B,,SP,55,Write Transaction,00 00
0,2256,0:51.634.733,86.800 us,2 B,,SP,55,Read Transaction,00 08*
0,2257,0:51.635.094,79.200 us,2 B,,SP,55,Write Transaction,12 01
0,2258,0:51.640.452,659.600 us,25 B,,SP,55,Read Transaction,00 00 00 00 00 02 80 64 00 00 00 00 00 00 00 00 00 00 00 00 00 00 01 03 00*
0,2259,0:51.648.258,676.900 us,26 B,,SP,55,Write Transaction,14 00 02 D5 D4 03 97 B1 06 C4 6C 05 FF 06 00 00 00 00 00 00 FF C1 00 87 FC 30
0,2260,0:51.664.203,116.200 us,3 B,,SP,55,Read Transaction,00 00 18*
0,2261,0:51.668.595,79.100 us,2 B,,SP,55,Write Transaction,00 00
0,2262,0:51.673.947,86.700 us,2 B,,SP,55,Read Transaction,00 08*
0,2263,0:51.674.309,79.000 us,2 B,,SP,55,Write Transaction,12 01
0,2264,0:51.679.657,659.500 us,25 B,,SP,55,Read Transaction,00 00 00 00 00 02 80 64 00 00 00 00 00 00 00 00 00 00 00 00 00 00 01 03 00*
0,2265,0:51.688.173,676.900 us,26 B,,SP,55,Write Transaction,14 00 02 D2 74 03 91 D3 06 C2 A2 05 FE 4A 00 00 00 00 00 00 FF C0 00 89 FC 33
0,2266,0:51.704.121,116.200 us,3 B,,SP,55,Read Transaction,00 00 18*
0,2267,0:51.708.514,79.100 us,2 B,,SP,55,Write Transaction,00 00
0,2268,0:51.713.867,86.700 us,2 B,,SP,55,Read Transaction,00 08*
0,2269,0:51.714.228,79.100 us,2 B,,SP,55,Write Transaction,12 01
0,2270,0:51.719.578,659.600 us,25 B,,SP,55,Read Transaction,00 00 00 00 00 02 80 64 00 00 00 00 00 00 00 00 00 00 00 00 00 00 01 03 00*
0,2271,0:51.728.134,676.900 us,26 B,,SP,55,Write Transaction,14 00 02 D2 71 03 91 98 06 C4 7B 05 FF D4 00 00 00 00 00 00 FF BE 00 8A FC 30
0,2272,0:51.744.073,116.300 us,3 B,,SP,55,Read Transaction,00 00 18*
0,2273,0:51.748.466,79.100 us,2 B,,SP,55,Write Transaction,00 00
0,2274,0:51.753.818,86.700 us,2 B,,SP,55,Read Transaction,00 08*
0,2275,0:51.754.180,79.100 us,2 B,,SP,55,Write Transaction,12 01
0,2276,0:51.759.529,659.500 us,25 B,,SP,55,Read Transaction,00 00 00 00 00 02 80 64 00 00 00 00 00 00 00 00 00 00 00 00 00 00 01 03 00*
0,2277,0:51.768.058,676.900 us,26 B,,SP,55,Write Transaction,14 00 02 D5 E9 03 99 1F 06 C8 11 06 01 A7 00 00 00 00 00 00 FF C1 00 8C FC 32
0,2278,0:51.783.998,116.300 us,3 B,,SP,55,Read Transaction,00 00 18*
0,2279,0:51.788.393,79.000 us,2 B,,SP,55,Write Transaction,00 00
0,2280,0:51.793.741,86.700 us,2 B,,SP,55,Read Transaction,00 08*
0,2281,0:51.794.104,79.100 us,2 B,,SP,55,Write Transaction,12 01
0,2282,0:51.799.453,659.600 us,25 B,,SP,55,Read Transaction,00 00 00 00 00 02 80 64 00 00 00 00 00 00 00 00 00 00 00 00 00 00 01 03 00*
0,2283,0:51.807.962,676.800 us,26 B,,SP,55,Write Transaction,14 00 02 D8 F8 03 9E 4C 06 CA 3E 06 02 C3 00 00 00 00 00 00 FF C0 00 85 FC 31
0,2284,0:51.823.906,116.200 us,3 B,,SP,55,Read Transaction,00 00 18*
0,2285,0:51.828.301,79.100 us,2 B,,SP,55,Write Transaction,00 00
0,2286,0:51.833.651,86.700 us,2 B,,SP,55,Read Transaction,00 08*
0,2287,0:51.834.014,79.100 us,2 B,,SP,55,Write Transaction,12 01
0,2288,0:51.839.366,660.500 us,25 B,,SP,55,Read Transaction,00 00 00 00 00 02 80 64 00 00 00 00 00 00 00 00 00 00 00 00 00 00 01 03 00*
0,2289,0:51.847.952,676.900 us,26 B,,SP,55,Write Transaction,14 00 02 DB 0D 03 A1 FF 06 CB C9 06 03 93 00 00 00 00 00 00 FF C3 00 8C FC 2B
0,2290,0:51.863.897,116.300 us,3 B,,SP,55,Read Transaction,00 00 18*
0,2291,0:51.868.291,79.100 us,2 B,,SP,55,Write Transaction,00 00
0,2292,0:51.873.642,86.700 us,2 B,,SP,55,Read Transaction,00 08*
0,2293,0:51.874.004,79.000 us,2 B,,SP,55,Write Transaction,12 01
0,2294,0:51.879.352,659.500 us,25 B,,SP,55,Read Transaction,00 00 00 00 00 02 80 64 24 71 64 00 00 00 00 00 00 00 00 00 00 00 01 03 00*
0,2295,0:51.887.820,676.800 us,26 B,,SP,55,Write Transaction,14 00 02 DC B1 03 A4 68 06 CD 29 06 04 79 00 00 00 00 00 00 FF C1 00 89 FC 32
0,2296,0:51.903.764,116.400 us,3 B,,SP,55,Read Transaction,00 00 18*
0,2297,0:51.908.159,79.100 us,2 B,,SP,55,Write Transaction,00 00
0,2298,0:51.913.513,86.800 us,2 B,,SP,55,Read Transaction,00 08*
0,2299,0:51.913.874,79.100 us,2 B,,SP,55,Write Transaction,12 01
0,2300,0:51.919.226,659.600 us,25 B,,SP,55,Read Transaction,00 00 00 00 00 02 80 64 00 00 00 00 00 00 00 00 00 00 00 00 00 00 01 03 00*
0,2301,0:51.927.831,676.900 us,26 B,,SP,55,Write Transaction,14 00 02 DF AF 03 A8 B6 06 D0 C9 06 06 B7 00 00 00 00 00 00 FF C0 00 8B FC 30
0,2302,0:51.943.774,116.300 us,3 B,,SP,55,Read Transaction,00 00 18*
0,2303,0:51.948.166,79.100 us,2 B,,SP,55,Write Transaction,00 00
0,2304,0:51.953.516,86.600 us,2 B,,SP,55,Read Transaction,00 08*
0,2305,0:51.953.879,79.000 us,2 B,,SP,55,Write Transaction,12 01
0,2306,0:51.959.227,659.600 us,25 B,,SP,55,Read Transaction,00 00 00 00 00 02 80 64 00 00 00 00 00 00 00 00 00 00 00 00 00 00 01 03 00*
0,2307,0:51.967.697,676.900 us,26 B,,SP,55,Write Transaction,14 00 02 E3 95 03 AE E4 06 D4 E4 06 08 E4 00 00 00 00 00 00 FF C3 00 8A FC 33
0,2308,0:51.983.634,116.200 us,3 B,,SP,55,Read Transaction,00 00 18*
0,2309,0:51.988.029,79.200 us,2 B,,SP,55,Write Transaction,00 00
0,2310,0:51.993.381,86.700 us,2 B,,SP,55,Read Transaction,00 08*
0,2311,0:51.993.742,79.000 us,2 B,,SP,55,Write Transaction,12 01
0,2312,0:51.999.095,660.500 us,25 B,,SP,55,Read Transaction,00 00 00 00 00 02 80 64 00 00 00 00 00 00 00 00 00 00 00 00 00 00 01 03 00*
0,2313,0:52.007.665,676.800 us,26 B,,SP,55,Write Transaction,14 00 02 E8 43 03 B6 E9 06 D9 55 06 0B 51 00 00 00 00 00 00 FF C0 00 8A FC 33
0,2314,0:52.023.615,116.400 us,3 B,,SP,55,Read Transaction,00 00 18*
0,2315,0:52.028.013,79.200 us,2 B,,SP,55,Write Transaction,00 00
0,2316,0:52.033.369,86.600 us,2 B,,SP,55,Read Transaction,00 08*
0,2317,0:52.033.732,79.000 us,2 B,,SP,55,Write Transaction,12 01
0,2318,0:52.039.085,660.500 us,25 B,,SP,55,Read Transaction,00 00 00 00 00 02 76 64 00 00 00 00 00 00 00 00 00 00 00 00 00 00 01 03 00*
0,2319,0:52.047.575,677.800 us,26 B,,SP,55,Write Transaction,14 00 02 EC 92 03 BD 74 06 DD 14 06 0D 31 00 00 00 00 00 00 FF C0 00 8A FC 2F
0,2320,0:52.063.524,116.200 us,3 B,,SP,55,Read Transaction,00 00 18*
0,2321,0:52.067.919,79.100 us,2 B,,SP,55,Write Transaction,00 00
0,2322,0:52.073.269,86.700 us,2 B,,SP,55,Read Transaction,00 08*
0,2323,0:52.073.630,79.000 us,2 B,,SP,55,Write Transaction,12 01
0,2324,0:52.078.980,659.500 us,25 B,,SP,55,Read Transaction,00 00 00 00 00 02 76 64 00 00 00 00 00 00 00 00 00 00 00 00 00 00 01 03 00*
0,2325,0:52.087.540,677.800 us,26 B,,SP,55,Write Transaction,14 00 02 EF 8F 03 C0 DA 06 DF 64 06 0E 6C 00 00 00 00 00 00 FF C1 00 89 FC 35
0,2326,0:52.103.477,116.300 us,3 B,,SP,55,Read Transaction,00 00 18*
0,2327,0:52.107.868,79.100 us,2 B,,SP,55,Write Transaction,00 00
0,2328,0:52.113.218,86.600 us,2 B,,SP,55,Read Transaction,00 08*
0,2329,0:52.113.580,79.000 us,2 B,,SP,55,Write Transaction,12 01
0,2330,0:52.118.929,659.500 us,25 B,,SP,55,Read Transaction,00 00 00 00 00 02 76 64 00 00 00 00 00 00 00 00 00 00 00 00 00 00 01 03 00*
0,2331,0:52.127.460,676.800 us,26 B,,SP,55,Write Transaction,14 00 02 F3 55 03 C6 53 06 E3 03 06 10 59 00 00 00 00 00 00 FF C1 00 83 FC 31
0,2332,0:52.143.408,116.300 us,3 B,,SP,55,Read Transaction,00 00 18*
0,2333,0:52.147.803,79.000 us,2 B,,SP,55,Write Transaction,00 00
0,2334,0:52.153.153,86.700 us,2 B,,SP,55,Read Transaction,00 08*
0,2335,0:52.153.516,79.100 us,2 B,,SP,55,Write Transaction,12 01
0,2336,0:52.158.863,659.600 us,25 B,,SP,55,Read Transaction,00 00 00 00 00 02 76 64 00 00 00 00 00 00 00 00 00 00 00 00 00 00 01 03 00*
0,2337,0:52.167.382,676.800 us,26 B,,SP,55,Write Transaction,14 00 02 F6 9B 03 CA D5 06 E5 73 06 11 76 00 00 00 00 00 00 FF C1 00 8A FC 34
0,2338,0:52.183.319,116.300 us,3 B,,SP,55,Read Transaction,00 00 18*
0,2339,0:52.187.711,79.100 us,2 B,,SP,55,Write Transaction,00 00
0,2340,0:52.193.063,86.700 us,2 B,,SP,55,Read Transaction,00 08*
0,2341,0:52.193.425,79.000 us,2 B,,SP,55,Write Transaction,12 01
0,2342,0:52.198.775,659.600 us,25 B,,SP,55,Read Transaction,00 00 00 00 00 02 76 64 00 00 00 00 00 00 00 00 00 00 00 00 00 00 01 03 00*
0,2343,0:52.207.344,676.900 us,26 B,,SP,55,Write Transaction,14 00 02 F9 30 03 CE 31 06 E7 27 06 12 5C 00 00 00 00 00 00 FF 84 00 88 FC 30
0,2344,0:52.223.284,116.200 us,3 B,,SP,55,Read Transaction,00 00 18*
0,2345,0:52.227.677,79.000 us,2 B,,SP,55,Write Transaction,00 00
0,2346,0:52.233.027,86.700 us,2 B,,SP,55,Read Transaction,00 08*
0,2347,0:52.233.389,79.200 us,2 B,,SP,55,Write Transaction,12 01
0,2348,0:52.238.739,659.600 us,25 B,,SP,55,Read Transaction,00 00 00 00 00 02 76 64 00 00 00 00 00 00 00 00 00 00 00 00 00 00 01 03 00*
0,2349,0:52.247.244,676.900 us,26 B,,SP,55,Write Transaction,14 00 02 FB BF 03 D0 CB 06 E8 D6 06 13 5B 00 00 00 00 00 00 FF C6 00 8A FC 34
0,2350,0:52.263.196,116.300 us,3 B,,SP,55,Read Transaction,00 00 18*
0,2351,0:52.267.589,79.100 us,2 B,,SP,55,Write Transaction,00 00
0,2352,0:52.272.937,86.600 us,2 B,,SP,55,Read Transaction,00 08*
0,2353,0:52.273.299,79.100 us,2 B,,SP,55,Write Transaction,12 01
0,2354,0:52.278.648,659.600 us,25 B,,SP,55,Read Transaction,00 00 00 00 00 02 76 64 00 00 00 00 00 00 00 00 00 00 00 00 00 00 01 03 00*
0,2355,0:52.287.189,676.900 us,26 B,,SP,55,Write Transaction,14 00 02 FD AB 03 D2 92 06 EA 32 06 14 30 00 00 00 00 00 00 FF C7 00 8F FC 33
0,2356,0:52.303.131,116.300 us,3 B,,SP,55,Read Transaction,00 00 18*
0,2357,0:52.307.525,79.200 us,2 B,,SP,55,Write Transaction,00 00
0,2358,0:52.312.881,86.600 us,2 B,,SP,55,Read Transaction,00 08*
0,2359,0:52.313.244,79.100 us,2 B,,SP,55,Write Transaction,12 01
0,2360,0:52.318.600,660.600 us,25 B,,SP,55,Read Transaction,00 00 00 00 00 02 76 64 00 00 00 00 00 00 00 00 00 00 00 00 00 00 01 03 00*
0,2361,0:52.327.114,677.800 us,26 B,,SP,55,Write Transaction,14 00 02 FF E6 03 D6 B1 06 EB 93 06 14 B9 00 00 00 00 00 00 FF C1 00 8A FC 2F
0,2362,0:52.343.057,116.400 us,3 B,,SP,55,Read Transaction,00 00 18*
0,2363,0:52.347.453,79.000 us,2 B,,SP,55,Write Transaction,00 00
0,2364,0:52.352.803,86.700 us,2 B,,SP,55,Read Transaction,00 08*
0,2365,0:52.353.164,79.000 us,2 B,,SP,55,Write Transaction,12 01
0,2366,0:52.358.514,660.400 us,25 B,,SP,55,Read Transaction,00 00 00 00 00 02 76 64 00 00 00 00 00 00 00 00 00 00 00 00 00 00 01 03 00*
0,2367,0:52.367.030,678.000 us,26 B,,SP,55,Write Transaction,14 00 03 02 B1 03 DC 15 06 ED 77 06 15 AC 00 00 00 00 00 00 FF C0 00 8D FC 37
0,2368,0:52.382.975,116.300 us,3 B,,SP,55,Read Transaction,00 00 18*
0,2369,0:52.387.367,79.000 us,2 B,,SP,55,Write Transaction,00 00
0,2370,0:52.392.718,86.700 us,2 B,,SP,55,Read Transaction,00 08*
0,2371,0:52.393.081,79.100 us,2 B,,SP,55,Write Transaction,12 01
0,2372,0:52.398.431,659.500 us,25 B,,SP,55,Read Transaction,00 00 00 00 00 02 76 64 00 00 00 00 00 00 00 00 00 00 00 00 00 00 01 03 00*
0,2373,0:52.407.097,676.900 us,26 B,,SP,55,Write Transaction,14 00 03 05 E3 03 E1 C6 06 EF F5 06 16 C7 00 00 00 00 00 00 FF BF 00 87 FC 32
0,2374,0:52.423.037,116.300 us,3 B,,SP,55,Read Transaction,00 00 18*
0,2375,0:52.427.432,79.000 us,2 B,,SP,55,Write Transaction,00 00
0,2376,0:52.432.852,86.700 us,2 B,,SP,55,Read Transaction,00 08*
0,2377,0:52.433.215,79.100 us,2 B,,SP,55,Write Transaction,12 01
0,2378,0:52.438.562,659.500 us,25 B,,SP,55,Read Transaction,00 00 00 00 00 02 76 64 00 00 00 00 00 00 00 00 00 00 00 00 00 00 01 03 00*
0,2379,0:52.446.888,676.900 us,26 B,,SP,55,Write Transaction,14 00 03 05 BB 03 DF 86 06 EA FA 06 13 1E 00 00 00 00 00 00 FF C5 00 8E FC 30
0,2380,0:52.462.828,116.400 us,3 B,,SP,55,Read Transaction,00 00 18*
0,2381,0:52.467.221,79.100 us,2 B,,SP,55,Write Transaction,00 00
0,2382,0:52.472.572,86.600 us,2 B,,SP,55,Read Transaction,00 08*
0,2383,0:52.472.934,79.100 us,2 B,,SP,55,Write Transaction,12 01
0,2384,0:52.478.285,659.500 us,25 B,,SP,55,Read Transaction,00 00 00 00 00 02 76 64 00 00 00 00 00 00 00 00 00 00 00 00 00 00 01 03 00*
0,2385,0:52.486.894,676.800 us,26 B,,SP,55,Write Transaction,14 00 02 FB 87 03 C9 F2 06 DE 92 06 0C C8 00 00 00 00 00 00 FF C4 00 86 FC 34
0,2386,0:52.502.870,116.300 us,3 B,,SP,55,Read Transaction,00 00 18*
0,2387,0:52.507.263,79.100 us,2 B,,SP,55,Write Transaction,00 00
0,2388,0:52.512.613,86.700 us,2 B,,SP,55,Read Transaction,00 08*
0,2389,0:52.512.976,79.100 us,2 B,,SP,55,Write Transaction,12 01
0,2390,0:52.518.324,659.600 us,25 B,,SP,55,Read Transaction,00 00 00 00 00 02 76 64 00 00 00 00 00 00 00 00 00 00 00 00 00 00 01 03 00*
0,2391,0:52.526.768,676.900 us,26 B,,SP,55,Write Transaction,14 00 02 ED 0F 03 B3 45 06 D3 27 06 07 4B 00 00 00 00 00 00 FF BF 00 88 FC 35
0,2392,0:52.542.728,116.400 us,3 B,,SP,55,Read Transaction,00 00 18*
0,2393,0:52.547.127,79.100 us,2 B,,SP,55,Write Transaction,00 00
0,2394,0:52.552.476,86.700 us,2 B,,SP,55,Read Transaction,00 08*
0,2395,0:52.552.837,79.100 us,2 B,,SP,55,Write Transaction,12 01
0,2396,0:52.558.190,659.600 us,25 B,,SP,55,Read Transaction,00 00 00 00 00 02 76 64 00 00 00 00 00 00 00 00 00 00 00 00 00 00 01 03 00*
0,2397,0:52.566.738,676.900 us,26 B,,SP,55,Write Transaction,14 00 02 E1 60 03 A1 F0 06 CB D7 06 03 EC 00 00 00 00 00 00 FF BF 00 89 FC 31
0,2398,0:52.582.677,116.300 us,3 B,,SP,55,Read Transaction,00 00 18*
0,2399,0:52.587.069,79.000 us,2 B,,SP,55,Write Transaction,00 00
0,2400,0:52.592.419,86.600 us,2 B,,SP,55,Read Transaction,00 08*
0,2401,0:52.592.781,79.000 us,2 B,,SP,55,Write Transaction,12 01
0,2402,0:52.598.129,659.500 us,25 B,,SP,55,Read Transaction,00 00 00 00 00 02 76 64 00 00 00 00 00 00 00 00 00 00 00 00 00 00 01 03 00*
0,2403,0:52.606.865,676.800 us,26 B,,SP,55,Write Transaction,14 00 02 DA C0 03 96 12 06 C8 4C 06 02 62 00 00 00 00 00 00 FF FE 00 8A FC 32
0,2404,0:52.622.802,116.300 us,3 B,,SP,55,Read Transaction,00 00 18*
0,2405,0:52.627.196,79.100 us,2 B,,SP,55,Write Transaction,00 00
0,2406,0:52.632.545,86.700 us,2 B,,SP,55,Read Transaction,00 08*
0,2407,0:52.632.906,79.000 us,2 B,,SP,55,Write Transaction,12 01
0,2408,0:52.638.259,659.600 us,25 B,,SP,55,Read Transaction,00 00 00 00 00 02 76 64 00 00 00 00 00 00 00 00 00 00 00 00 00 00 01 03 00*
0,2409,0:52.646.653,677.800 us,26 B,,SP,55,Write Transaction,14 00 02 D6 DF 03 8D A9 06 C6 17 06 01 45 00 00 00 00 00 00 FF BC 00 8A FC 30
0,2410,0:52.662.600,116.400 us,3 B,,SP,55,Read Transaction,00 00 18*
0,2411,0:52.666.997,79.100 us,2 B,,SP,55,Write Transaction,00 00
0,2412,0:52.672.348,86.700 us,2 B,,SP,55,Read Transaction,00 08*
0,2413,0:52.672.711,79.100 us,2 B,,SP,55,Write Transaction,12 01
0,2414,0:52.678.068,659.600 us,25 B,,SP,55,Read Transaction,00 00 00 00 00 02 76 64 00 00 00 00 00 00 00 00 00 00 00 00 00 00 01 03 00*
0,2415,0:52.686.500,676.900 us,26 B,,SP,55,Write Transaction,14 00 02 D4 FA 03 8A BF 06 C5 6E 06 00 E5 00 00 00 00 00 00 FF C1 00 82 FC 30
0,2416,0:52.702.440,116.300 us,3 B,,SP,55,Read Transaction,00 00 18*
0,2417,0:52.706.834,79.100 us,2 B,,SP,55,Write Transaction,00 00
0,2418,0:52.712.183,86.700 us,2 B,,SP,55,Read Transaction,00 08*
0,2419,0:52.712.543,79.100 us,2 B,,SP,55,Write Transaction,12 01
0,2420,0:52.717.914,659.600 us,25 B,,SP,55,Read Transaction,00 00 00 00 00 02 76 64 00 00 00 00 00 00 00 00 00 00 00 00 00 00 01 03 00*
0,2421,0:52.726.461,677.800 us,26 B,,SP,55,Write Transaction,14 00 02 D6 EE 03 90 57 06 C8 0A 06 02 65 00 00 00 00 00 00 FF C1 00 89 FC 36
0,2422,0:52.742.402,116.200 us,3 B,,SP,55,Read Transaction,00 00 18*
0,2423,0:52.746.792,79.000 us,2 B,,SP,55,Write Transaction,00 00
0,2424,0:52.752.143,86.600 us,2 B,,SP,55,Read Transaction,00 08*
0,2425,0:52.752.505,79.000 us,2 B,,SP,55,Write Transaction,12 01
0,2426,0:52.757.854,659.500 us,25 B,,SP,55,Read Transaction,00 00 00 00 00 02 76 64 00 00 00 00 00 00 00 00 00 00 00 00 00 00 01 03 00*
0,2427,0:52.766.405,676.800 us,26 B,,SP,55,Write Transaction,14 00 02 D9 3F 03 95 AE 06 CA 3D 06 03 8C 00 00 00 00 00 00 FF BD 00 88 FC 31
0,2428,0:52.782.352,116.400 us,3 B,,SP,55,Read Transaction,00 00 18*
0,2429,0:52.786.751,79.200 us,2 B,,SP,55,Write Transaction,00 00
0,2430,0:52.792.110,86.800 us,2 B,,SP,55,Read Transaction,00 08*
0,2431,0:52.792.472,79.100 us,2 B,,SP,55,Write Transaction,12 01
0,2432,0:52.797.821,659.600 us,25 B,,SP,55,Read Transaction,00 00 00 00 00 02 76 64 00 00 00 00 00 00 00 00 00 00 00 00 00 00 01 03 00*
0,2433,0:52.806.745,677.900 us,26 B,,SP,55,Write Transaction,14 00 02 DA 9B 03 9A 6C 06 CB 1A 06 04 10 00 00 00 00 00 00 FF C0 00 85 FC 31
0,2434,0:52.822.693,116.300 us,3 B,,SP,55,Read Transaction,00 00 18*
0,2435,0:52.827.086,79.000 us,2 B,,SP,55,Write Transaction,00 00
0,2436,0:52.832.437,86.700 us,2 B,,SP,55,Read Transaction,00 08*
0,2437,0:52.832.798,79.100 us,2 B,,SP,55,Write Transaction,12 01
0,2438,0:52.838.149,659.600 us,25 B,,SP,55,Read Transaction,00 00 00 00 00 02 76 64 00 00 00 00 00 00 00 00 00 00 00 00 00 00 01 03 00*
0,2439,0:52.846.296,676.900 us,26 B,,SP,55,Write Transaction,14 00 02 DD 67 03 A0 86 06 CE 3F 06 06 00 00 00 00 00 00 00 FF BE 00 8A FC 2F
0,2440,0:52.862.244,116.400 us,3 B,,SP,55,Read Transaction,00 00 18*
0,2441,0:52.866.637,79.200 us,2 B,,SP,55,Write Transaction,00 00
0,2442,0:52.871.992,86.700 us,2 B,,SP,55,Read Transaction,00 08*
0,2443,0:52.872.354,79.100 us,2 B,,SP,55,Write Transaction,12 01
0,2444,0:52.877.703,659.700 us,25 B,,SP,55,Read Transaction,00 00 00 00 00 02 76 64 25 71 64 00 00 00 00 00 00 00 00 00 00 00 01 03 00*
0,2445,0:52.886.172,676.900 us,26 B,,SP,55,Write Transaction,14 00 02 E0 DE 03 A6 44 06 D2 36 06 08 6B 00 00 00 00 00 00 FF C0 00 85 FC 36
0,2446,0:52.902.111,116.400 us,3 B,,SP,55,Read Transaction,00 00 18*
0,2447,0:52.906.506,79.100 us,2 B,,SP,55,Write Transaction,00 00
0,2448,0:52.911.860,86.800 us,2 B,,SP,55,Read Transaction,00 08*
0,2449,0:52.912.222,79.100 us,2 B,,SP,55,Write Transaction,12 01
0,2450,0:52.917.577,660.500 us,25 B,,SP,55,Read Transaction,00 00 00 00 00 02 76 64 00 00 00 00 00 00 00 00 00 00 00 00 00 00 01 03 00*
0,2451,0:52.926.164,676.900 us,26 B,,SP,55,Write Transaction,14 00 02 E5 60 03 AE 9D 06 D6 85 06 0A BD 00 00 00 00 00 00 FF BC 00 85 FC 32
0,2452,0:52.942.104,116.300 us,3 B,,SP,55,Read Transaction,00 00 18*
0,2453,0:52.946.496,79.000 us,2 B,,SP,55,Write Transaction,00 00
0,2454,0:52.951.847,86.700 us,2 B,,SP,55,Read Transaction,00 08*
0,2455,0:52.952.209,79.100 us,2 B,,SP,55,Write Transaction,12 01
0,2456,0:52.957.557,659.600 us,25 B,,SP,55,Read Transaction,00 00 00 00 00 02 76 64 00 00 00 00 00 00 00 00 00 00 00 00 00 00 01 03 00*
0,2457,0:52.966.054,676.800 us,26 B,,SP,55,Write Transaction,14 00 02 E9 C0 03 B6 6C 06 DA 1D 06 0C 66 00 00 00 00 00 00 FF BC 00 87 FC 37
0,2458,0:52.981.996,116.300 us,3 B,,SP,55,Read Transaction,00 00 18*
0,2459,0:52.986.389,79.000 us,2 B,,SP,55,Write Transaction,00 00
0,2460,0:52.991.739,86.700 us,2 B,,SP,55,Read Transaction,00 08*
0,2461,0:52.992.100,79.100 us,2 B,,SP,55,Write Transaction,12 01
0,2462,0:52.997.453,660.600 us,25 B,,SP,55,Read Transaction,00 00 00 00 00 02 76 64 00 00 00 00 00 00 00 00 00 00 00 00 00 00 01 03 00*
0,2463,0:53.006.520,676.900 us,26 B,,SP,55,Write Transaction,14 00 02 EE 58 03 BD AF 06 DD F5 06 0E 59 00 00 00 00 00 00 FF BD 00 86 FC 2E
0,2464,0:53.022.462,116.200 us,3 B,,SP,55,Read Transaction,00 00 18*
0,2465,0:53.026.854,79.100 us,2 B,,SP,55,Write Transaction,00 00
0,2466,0:53.032.205,86.700 us,2 B,,SP,55,Read Transaction,00 08*
0,2467,0:53.032.568,79.100 us,2 B,,SP,55,Write Transaction,12 01
0,2468,0:53.037.925,660.600 us,25 B,,SP,55,Read Transaction,00 00 00 00 00 02 76 64 00 00 00 00 00 00 00 00 00 00 00 00 00 00 01 03 00*
0,2469,0:53.045.927,676.800 us,26 B,,SP,55,Write Transaction,14 00 02 F2 7E 03 C4 13 06 E1 C5 06 10 4F 00 00 00 00 00 00 FF C4 00 88 FC 2F
0,2470,0:53.061.868,116.300 us,3 B,,SP,55,Read Transaction,00 00 18*
0,2471,0:53.066.262,79.100 us,2 B,,SP,55,Write Transaction,00 00
0,2472,0:53.071.616,86.700 us,2 B,,SP,55,Read Transaction,00 08*
0,2473,0:53.071.978,79.100 us,2 B,,SP,55,Write Transaction,12 01
0,2474,0:53.077.328,659.600 us,25 B,,SP,55,Read Transaction,00 00 00 00 00 02 76 64 00 00 00 00 00 00 00 00 00 00 00 00 00 00 01 03 00*
0,2475,0:53.085.868,676.800 us,26 B,,SP,55,Write Transaction,14 00 02 F5 AF 03 C8 0D 06 E4 0F 06 11 69 00 00 00 00 00 00 FF C1 00 89 FC 33
0,2476,0:53.101.814,116.200 us,3 B,,SP,55,Read Transaction,00 00 18*
0,2477,0:53.106.204,79.000 us,2 B,,SP,55,Write Transaction,00 00
0,2478,0:53.111.556,86.700 us,2 B,,SP,55,Read Transaction,00 08*
0,2479,0:53.111.919,79.100 us,2 B,,SP,55,Write Transaction,12 01
0,2480,0:53.117.276,659.600 us,25 B,,SP,55,Read Transaction,00 00 00 00 00 02 76 64 00 00 00 00 00 00 00 00 00 00 00 00 00 00 01 03 00*
0,2481,0:53.125.814,677.000 us,26 B,,SP,55,Write Transaction,14 00 02 F8 D9 03 CC 33 06 E6 9D 06 12 CC 00 00 00 00 00 00 FF C2 00 8A FC 30
0,2482,0:53.141.755,116.300 us,3 B,,SP,55,Read Transaction,00 00 18*
0,2483,0:53.146.149,79.100 us,2 B,,SP,55,Write Transaction,00 00
0,2484,0:53.151.500,86.800 us,2 B,,SP,55,Read Transaction,00 08*
0,2485,0:53.151.862,79.100 us,2 B,,SP,55,Write Transaction,12 01
0,2486,0:53.157.211,659.600 us,25 B,,SP,55,Read Transaction,00 00 00 00 00 02 76 64 00 00 00 00 00 00 00 00 00 00 00 00 00 00 01 03 00*
0,2487,0:53.165.763,676.900 us,26 B,,SP,55,Write Transaction,14 00 02 FB 23 03 CE 5F 06 E8 3C 06 13 C9 00 00 00 00 00 00 FF C5 00 88 FC 35
0,2488,0:53.181.705,116.300 us,3 B,,SP,55,Read Transaction,00 00 18*
0,2489,0:53.186.099,79.100 us,2 B,,SP,55,Write Transaction,00 00
0,2490,0:53.191.449,86.700 us,2 B,,SP,55,Read Transaction,00 08*
0,2491,0:53.191.810,79.100 us,2 B,,SP,55,Write Transaction,12 01
0,2492,0:53.197.162,659.600 us,25 B,,SP,55,Read Transaction,00 00 00 00 00 02 76 64 00 00 00 00 00 00 00 00 00 00 00 00 00 00 01 03 00*
0,2493,0:53.206.874,676.900 us,26 B,,SP,55,Write Transaction,14 00 02 FD 18 03 CF 69 06 E9 64 06 14 83 00 00 00 00 00 00 FF C4 00 89 FC 30
0,2494,0:53.222.815,116.300 us,3 B,,SP,55,Read Transaction,00 00 18*
0,2495,0:53.227.208,79.100 us,2 B,,SP,55,Write Transaction,00 00
0,2496,0:53.232.558,86.700 us,2 B,,SP,55,Read Transaction,00 08*
0,2497,0:53.232.921,79.100 us,2 B,,SP,55,Write Transaction,12 01
0,2498,0:53.238.271,659.600 us,25 B,,SP,55,Read Transaction,00 00 00 00 00 02 76 64 00 00 00 00 00 00 00 00 00 00 00 00 00 00 01 03 00*
0,2499,0:53.245.586,676.900 us,26 B,,SP,55,Write Transaction,14 00 02 FF 26 03 D3 6A 06 EB 2C 06 15 83 00 00 00 00 00 00 FF C5 00 8F FC 30
0,2500,0:53.261.526,116.300 us,3 B,,SP,55,Read Transaction,00 00 18*
0,2501,0:53.265.920,79.100 us,2 B,,SP,55,Write Transaction,00 00
0,2502,0:53.271.269,86.700 us,2 B,,SP,55,Read Transaction,00 08*
0,2503,0:53.271.631,79.100 us,2 B,,SP,55,Write Transaction,12 01
0,2504,0:53.276.981,659.400 us,25 B,,SP,55,Read Transaction,00 00 00 00 00 02 76 64 00 00 00 00 00 00 00 00 00 00 00 00 00 00 01 03 00*
0,2505,0:53.285.587,676.600 us,26 B,,SP,55,Write Transaction,14 00 03 00 DF 03 D6 74 06 EB 0E 06 15 43 00 00 00 00 00 00 FF C3 00 8D FC 31
0,2506,0:53.301.525,116.100 us,3 B,,SP,55,Read Transaction,00 00 18*
0,2507,0:53.305.920,79.100 us,2 B,,SP,55,Write Transaction,00 00
0,2508,0:53.311.274,86.700 us,2 B,,SP,55,Read Transaction,00 08*
0,2509,0:53.311.637,79.100 us,2 B,,SP,55,Write Transaction,12 01
0,2510,0:53.316.987,659.700 us,25 B,,SP,55,Read Transaction,00 00 00 00 00 02 76 64 00 00 00 00 00 00 00 00 00 00 00 00 00 00 01 03 00*
0,2511,0:53.325.527,676.900 us,26 B,,SP,55,Write Transaction,14 00 03 02 74 03 DA 67 06 E9 A2 06 13 83 00 00 00 00 00 00 FF C1 00 86 FC 2F
0,2512,0:53.341.464,116.100 us,3 B,,SP,55,Read Transaction,00 00 18*
0,2513,0:53.345.859,79.100 us,2 B,,SP,55,Write Transaction,00 00
0,2514,0:53.351.209,86.700 us,2 B,,SP,55,Read Transaction,00 08*
0,2515,0:53.351.569,79.100 us,2 B,,SP,55,Write Transaction,12 01
0,2516,0:53.356.923,660.500 us,25 B,,SP,55,Read Transaction,00 00 00 00 00 02 76 64 00 00 00 00 00 00 00 00 00 00 00 00 00 00 01 03 00*
0,2517,0:53.365.394,676.900 us,26 B,,SP,55,Write Transaction,14 00 03 03 A5 03 DC EA 06 E8 21 06 12 3E 00 00 00 00 00 00 FF C1 00 86 FC 2D
0,2518,0:53.381.332,116.200 us,3 B,,SP,55,Read Transaction,00 00 18*
0,2519,0:53.385.725,79.100 us,2 B,,SP,55,Write Transaction,00 00
0,2520,0:53.391.075,86.700 us,2 B,,SP,55,Read Transaction,00 08*
0,2521,0:53.391.438,79.100 us,2 B,,SP,55,Write Transaction,12 01
0,2522,0:53.396.788,659.600 us,25 B,,SP,55,Read Transaction,00 00 00 00 00 02 76 64 00 00 00 00 00 00 00 00 00 00 00 00 00 00 01 03 00*
0,2523,0:53.406.148,676.800 us,26 B,,SP,55,Write Transaction,14 00 03 00 4C 03 D4 69 06 E2 15 06 0E 9E 00 00 00 00 00 00 FF C4 00 88 FC 34
0,2524,0:53.422.096,116.300 us,3 B,,SP,55,Read Transaction,00 00 18*
0,2525,0:53.426.488,79.100 us,2 B,,SP,55,Write Transaction,00 00
0,2526,0:53.431.837,86.700 us,2 B,,SP,55,Read Transaction,00 08*
0,2527,0:53.432.200,79.100 us,2 B,,SP,55,Write Transaction,12 01
0,2528,0:53.437.548,659.500 us,25 B,,SP,55,Read Transaction,00 00 00 00 00 02 76 64 00 00 00 00 00 00 00 00 00 00 00 00 00 00 01 03 00*
0,2529,0:53.445.268,676.900 us,26 B,,SP,55,Write Transaction,14 00 02 F2 99 03 BB 6C 06 D6 19 06 08 E7 00 00 00 00 00 00 FF BF 00 88 FC 31
0,2530,0:53.461.209,116.500 us,3 B,,SP,55,Read Transaction,00 00 18*
0,2531,0:53.465.604,79.100 us,2 B,,SP,55,Write Transaction,00 00
0,2532,0:53.470.952,86.700 us,2 B,,SP,55,Read Transaction,00 08*
0,2533,0:53.471.314,79.000 us,2 B,,SP,55,Write Transaction,12 01
0,2534,0:53.476.663,659.600 us,25 B,,SP,55,Read Transaction,00 00 00 00 00 02 76 64 00 00 00 00 00 00 00 00 00 00 00 00 00 00 01 03 00*
0,2535,0:53.485.263,676.900 us,26 B,,SP,55,Write Transaction,14 00 02 E3 49 03 A3 7E 06 CC 6E 06 04 93 00 00 00 00 00 00 FF C2 00 89 FC 36
0,2536,0:53.501.202,116.300 us,3 B,,SP,55,Read Transaction,00 00 18*
0,2537,0:53.505.593,79.100 us,2 B,,SP,55,Write Transaction,00 00
0,2538,0:53.510.944,86.800 us,2 B,,SP,55,Read Transaction,00 08*
0,2539,0:53.511.307,79.100 us,2 B,,SP,55,Write Transaction,12 01
0,2540,0:53.516.657,659.600 us,25 B,,SP,55,Read Transaction,00 00 00 00 00 02 76 64 00 00 00 00 00 00 00 00 00 00 00 00 00 00 01 03 00*
0,2541,0:53.525.138,676.900 us,26 B,,SP,55,Write Transaction,14 00 02 D8 FC 03 91 A0 06 C6 F3 06 02 1E 00 00 00 00 00 00 FF BC 00 86 FC 39
0,2542,0:53.541.075,116.300 us,3 B,,SP,55,Read Transaction,00 00 18*
0,2543,0:53.545.468,79.100 us,2 B,,SP,55,Write Transaction,00 00
0,2544,0:53.550.818,86.600 us,2 B,,SP,55,Read Transaction,00 08*
0,2545,0:53.551.179,79.100 us,2 B,,SP,55,Write Transaction,12 01
0,2546,0:53.556.529,659.600 us,25 B,,SP,55,Read Transaction,00 00 00 00 00 02 76 64 00 00 00 00 00 00 00 00 00 00 00 00 00 00 01 03 00*
0,2547,0:53.565.163,676.900 us,26 B,,SP,55,Write Transaction,14 00 02 D2 3D 03 84 D2 06 C2 72 05 FF A2 00 00 00 00 00 00 FF BF 00 84 FC 31
0,2548,0:53.581.103,116.100 us,3 B,,SP,55,Read Transaction,00 00 18*
0,2549,0:53.585.495,79.100 us,2 B,,SP,55,Write Transaction,00 00
0,2550,0:53.590.845,86.600 us,2 B,,SP,55,Read Transaction,00 08*
0,2551,0:53.591.208,79.000 us,2 B,,SP,55,Write Transaction,12 01
0,2552,0:53.596.554,659.400 us,25 B,,SP,55,Read Transaction,00 00 00 00 00 02 76 64 00 00 00 00 00 00 00 00 00 00 00 00 00 00 01 03 00*
0,2553,0:53.605.941,676.900 us,26 B,,SP,55,Write Transaction,14 00 02 CD 90 03 7E AA 06 BE 5B 05 FD 65 00 00 00 00 00 00 FF BE 00 87 FC 34
0,2554,0:53.621.882,116.300 us,3 B,,SP,55,Read Transaction,00 00 18*
0,2555,0:53.626.274,79.000 us,2 B,,SP,55,Write Transaction,00 00
0,2556,0:53.631.623,86.600 us,2 B,,SP,55,Read Transaction,00 08*
0,2557,0:53.631.986,79.000 us,2 B,,SP,55,Write Transaction,12 01
0,2558,0:53.637.334,659.500 us,25 B,,SP,55,Read Transaction,00 00 00 00 00 02 76 64 00 00 00 00 00 00 00 00 00 00 00 00 00 00 01 03 00*
0,2559,0:53.644.974,676.900 us,26 B,,SP,55,Write Transaction,14 00 02 CD 07 03 82 4A 06 BD AE 05 FC 8F 00 00 00 00 00 00 FF BF 00 84 FC 31
0,2560,0:53.660.912,116.300 us,3 B,,SP,55,Read Transaction,00 00 18*
0,2561,0:53.665.303,79.100 us,2 B,,SP,55,Write Transaction,00 00
0,2562,0:53.670.653,86.700 us,2 B,,SP,55,Read Transaction,00 08*
0,2563,0:53.671.015,79.100 us,2 B,,SP,55,Write Transaction,12 01
0,2564,0:53.676.365,659.500 us,25 B,,SP,55,Read Transaction,00 00 00 00 00 02 76 64 00 00 00 00 00 00 00 00 00 00 00 00 00 00 01 03 00*
0,2565,0:53.684.909,676.900 us,26 B,,SP,55,Write Transaction,14 00 02 CE 75 03 87 C3 06 BD C8 05 FC 43 00 00 00 00 00 00 FF C3 00 89 FC 31
0,2566,0:53.700.849,116.300 us,3 B,,SP,55,Read Transaction,00 00 18*
0,2567,0:53.705.243,79.100 us,2 B,,SP,55,Write Transaction,00 00
0,2568,0:53.710.591,86.700 us,2 B,,SP,55,Read Transaction,00 08*
0,2569,0:53.710.955,79.100 us,2 B,,SP,55,Write Transaction,12 01
0,2570,0:53.716.303,659.600 us,25 B,,SP,55,Read Transaction,00 00 00 00 00 02 76 64 00 00 00 00 00 00 00 00 00 00 00 00 00 00 01 03 00*
0,2571,0:53.724.860,676.900 us,26 B,,SP,55,Write Transaction,14 00 02 CE 57 03 89 3F 06 BE 25 05 FC 85 00 00 00 00 00 00 FF BD 00 81 FC 30
0,2572,0:53.740.796,116.300 us,3 B,,SP,55,Read Transaction,00 00 18*
0,2573,0:53.745.187,79.000 us,2 B,,SP,55,Write Transaction,00 00
0,2574,0:53.750.554,86.600 us,2 B,,SP,55,Read Transaction,00 08*
0,2575,0:53.750.916,79.100 us,2 B,,SP,55,Write Transaction,12 01
0,2576,0:53.756.266,659.600 us,25 B,,SP,55,Read Transaction,00 00 00 00 00 02 76 64 00 00 00 00 00 00 00 00 00 00 00 00 00 00 01 03 00*
0,2577,0:53.764.798,676.800 us,26 B,,SP,55,Write Transaction,14 00 02 CD 91 03 8A 29 06 BD 40 05 FB D4 00 00 00 00 00 00 FF C0 00 83 FC 36
0,2578,0:53.780.791,116.300 us,3 B,,SP,55,Read Transaction,00 00 18*
0,2579,0:53.785.184,79.100 us,2 B,,SP,55,Write Transaction,00 00
0,2580,0:53.790.538,86.800 us,2 B,,SP,55,Read Transaction,00 08*
0,2581,0:53.790.901,79.200 us,2 B,,SP,55,Write Transaction,12 01
0,2582,0:53.796.256,660.700 us,25 B,,SP,55,Read Transaction,00 00 00 00 00 02 76 64 00 00 00 00 00 00 00 00 00 00 00 00 00 00 01 03 00*
0,2583,0:53.805.645,676.900 us,26 B,,SP,55,Write Transaction,14 00 02 CE 2E 03 8D B3 06 BE 41 05 FC 50 00 00 00 00 00 00 FF BF 00 8B FC 30
0,2584,0:53.821.583,116.300 us,3 B,,SP,55,Read Transaction,00 00 18*
0,2585,0:53.825.977,79.100 us,2 B,,SP,55,Write Transaction,00 00
0,2586,0:53.831.325,86.600 us,2 B,,SP,55,Read Transaction,00 08*
0,2587,0:53.831.686,79.000 us,2 B,,SP,55,Write Transaction,12 01
0,2588,0:53.837.036,659.500 us,25 B,,SP,55,Read Transaction,00 00 00 00 00 02 76 64 25 FF 64 00 00 00 00 00 00 00 00 00 00 00 01 03 00*
0,2589,0:53.844.665,676.800 us,26 B,,SP,55,Write Transaction,14 00 02 D1 18 03 94 B8 06 C2 D9 05 FF 30 00 00 00 00 00 00 FF BD 00 85 FC 32
0,2590,0:53.860.609,116.200 us,3 B,,SP,55,Read Transaction,00 00 18*
0,2591,0:53.865.001,79.100 us,2 B,,SP,55,Write Transaction,00 00
0,2592,0:53.870.351,86.700 us,2 B,,SP,55,Read Transaction,00 08*
0,2593,0:53.870.714,79.100 us,2 B,,SP,55,Write Transaction,12 01
0,2594,0:53.876.063,659.600 us,25 B,,SP,55,Read Transaction,00 00 00 00 00 02 76 64 00 00 00 00 00 00 00 00 00 00 00 00 00 00 01 03 00*
0,2595,0:53.884.763,676.900 us,26 B,,SP,55,Write Transaction,14 00 02 D5 18 03 9C 2B 06 C7 D3 06 02 41 00 00 00 00 00 00 FF BB 00 8B FC 35
0,2596,0:53.900.709,116.400 us,3 B,,SP,55,Read Transaction,00 00 18*
0,2597,0:53.905.106,79.000 us,2 B,,SP,55,Write Transaction,00 00
0,2598,0:53.910.455,86.700 us,2 B,,SP,55,Read Transaction,00 08*
0,2599,0:53.910.817,79.100 us,2 B,,SP,55,Write Transaction,12 01
0,2600,0:53.916.168,659.700 us,25 B,,SP,55,Read Transaction,00 00 00 00 00 02 76 64 00 00 00 00 00 00 00 00 00 00 00 00 00 00 01 03 00*
0,2601,0:53.924.544,676.900 us,26 B,,SP,55,Write Transaction,14 00 02 D8 60 03 A1 A5 06 CA DC 06 03 C9 00 00 00 00 00 00 FF C1 00 85 FC 37
0,2602,0:53.940.489,116.300 us,3 B,,SP,55,Read Transaction,00 00 18*
0,2603,0:53.944.882,79.100 us,2 B,,SP,55,Write Transaction,00 00
0,2604,0:53.950.233,86.700 us,2 B,,SP,55,Read Transaction,00 08*
0,2605,0:53.950.596,79.100 us,2 B,,SP,55,Write Transaction,12 01
0,2606,0:53.955.946,659.600 us,25 B,,SP,55,Read Transaction,00 00 00 00 00 02 76 64 00 00 00 00 00 00 00 00 00 00 00 00 00 00 01 03 00*
0,2607,0:53.964.501,677.800 us,26 B,,SP,55,Write Transaction,14 00 02 DC 17 03 A8 AC 06 CE C0 06 06 1B 00 00 00 00 00 00 FF C0 00 89 FC 37
0,2608,0:53.980.449,116.400 us,3 B,,SP,55,Read Transaction,00 00 18*
0,2609,0:53.984.848,79.200 us,2 B,,SP,55,Write Transaction,00 00
0,2610,0:53.990.203,86.600 us,2 B,,SP,55,Read Transaction,00 08*
0,2611,0:53.990.587,79.100 us,2 B,,SP,55,Write Transaction,12 01
0,2612,0:53.995.941,660.500 us,25 B,,SP,55,Read Transaction,00 00 00 00 00 02 76 64 00 00 00 00 00 00 00 00 00 00 00 00 00 00 01 03 00*
0,2613,0:54.005.536,676.900 us,26 B,,SP,55,Write Transaction,14 00 02 E0 B9 03 B0 68 06 D4 3F 06 09 61 00 00 00 00 00 00 FF C0 00 86 FC 37
0,2614,0:54.021.475,116.300 us,3 B,,SP,55,Read Transaction,00 00 18*
0,2615,0:54.025.870,79.000 us,2 B,,SP,55,Write Transaction,00 00
0,2616,0:54.031.218,86.700 us,2 B,,SP,55,Read Transaction,00 08*
0,2617,0:54.031.580,79.000 us,2 B,,SP,55,Write Transaction,12 01
0,2618,0:54.036.932,660.500 us,25 B,,SP,55,Read Transaction,00 00 00 00 00 02 76 64 00 00 00 00 00 00 00 00 00 00 00 00 00 00 01 03 00*
0,2619,0:54.044.333,676.900 us,26 B,,SP,55,Write Transaction,14 00 02 E4 94 03 B7 CC 06 D7 12 06 0A AA 00 00 00 00 00 00 FF BD 00 86 FC 30
0,2620,0:54.060.280,116.200 us,3 B,,SP,55,Read Transaction,00 00 18*
0,2621,0:54.064.675,79.100 us,2 B,,SP,55,Write Transaction,00 00
0,2622,0:54.070.025,86.700 us,2 B,,SP,55,Read Transaction,00 08*
0,2623,0:54.070.390,79.100 us,2 B,,SP,55,Write Transaction,12 01
0,2624,0:54.075.738,659.700 us,25 B,,SP,55,Read Transaction,00 00 00 00 00 02 76 64 00 00 00 00 00 00 00 00 00 00 00 00 00 00 01 03 00*
0,2625,0:54.084.237,676.900 us,26 B,,SP,55,Write Transaction,14 00 02 E8 66 03 BE 0C 06 DB 03 06 0C F5 00 00 00 00 00 00 FF BA 00 8B FC 32
0,2626,0:54.100.174,116.300 us,3 B,,SP,55,Read Transaction,00 00 18*
0,2627,0:54.104.586,79.100 us,2 B,,SP,55,Write Transaction,00 00
0,2628,0:54.109.935,86.800 us,2 B,,SP,55,Read Transaction,00 08*
0,2629,0:54.110.296,79.200 us,2 B,,SP,55,Write Transaction,12 01
0,2630,0:54.115.649,659.700 us,25 B,,SP,55,Read Transaction,00 00 00 00 00 02 76 64 00 00 00 00 00 00 00 00 00 00 00 00 00 00 01 03 00*
0,2631,0:54.124.221,676.800 us,26 B,,SP,55,Write Transaction,14 00 02 EC 21 03 C3 F7 06 DE 5A 06 0E 9C 00 00 00 00 00 00 FF BD 00 8C FC 34
0,2632,0:54.140.178,116.300 us,3 B,,SP,55,Read Transaction,00 00 18*
0,2633,0:54.144.570,79.000 us,2 B,,SP,55,Write Transaction,00 00
0,2634,0:54.149.920,86.700 us,2 B,,SP,55,Read Transaction,00 08*
0,2635,0:54.150.283,79.000 us,2 B,,SP,55,Write Transaction,12 01
0,2636,0:54.155.631,659.600 us,25 B,,SP,55,Read Transaction,00 00 00 00 00 02 76 64 00 00 00 00 00 00 00 00 00 00 00 00 00 00 01 03 00*
0,2637,0:54.164.148,676.900 us,26 B,,SP,55,Write Transaction,14 00 02 EE AA 03 C6 ED 06 DF 75 06 0F 12 00 00 00 00 00 00 FF BF 00 83 FC 39
0,2638,0:54.180.086,116.300 us,3 B,,SP,55,Read Transaction,00 00 18*
0,2639,0:54.184.480,79.200 us,2 B,,SP,55,Write Transaction,00 00
0,2640,0:54.189.833,86.700 us,2 B,,SP,55,Read Transaction,00 08*
0,2641,0:54.190.195,79.100 us,2 B,,SP,55,Write Transaction,12 01
0,2642,0:54.195.544,659.500 us,25 B,,SP,55,Read Transaction,00 00 00 00 00 02 76 64 00 00 00 00 00 00 00 00 00 00 00 00 00 00 01 03 00*
0,2643,0:54.205.264,676.900 us,26 B,,SP,55,Write Transaction,14 00 02 F0 F3 03 C9 FB 06 E1 67 06 0F F6 00 00 00 00 00 00 FF BF 00 86 FC 2C
0,2644,0:54.221.203,116.300 us,3 B,,SP,55,Read Transaction,00 00 18*
0,2645,0:54.225.597,79.200 us,2 B,,SP,55,Write Transaction,00 00
0,2646,0:54.230.951,86.700 us,2 B,,SP,55,Read Transaction,00 08*
0,2647,0:54.231.313,79.100 us,2 B,,SP,55,Write Transaction,12 01
0,2648,0:54.236.663,659.500 us,25 B,,SP,55,Read Transaction,00 00 00 00 00 02 76 64 00 00 00 00 00 00 00 00 00 00 00 00 00 00 01 03 00*
0,2649,0:54.244.000,676.700 us,26 B,,SP,55,Write Transaction,14 00 02 F3 97 03 CD 63 06 E3 8A 06 11 10 00 00 00 00 00 00 FF C2 00 83 FC 35
0,2650,0:54.259.939,116.300 us,3 B,,SP,55,Read Transaction,00 00 18*
0,2651,0:54.264.333,79.100 us,2 B,,SP,55,Write Transaction,00 00
0,2652,0:54.269.683,86.700 us,2 B,,SP,55,Read Transaction,00 08*
0,2653,0:54.270.044,79.000 us,2 B,,SP,55,Write Transaction,12 01
0,2654,0:54.275.395,659.600 us,25 B,,SP,55,Read Transaction,00 00 00 00 00 02 76 64 00 00 00 00 00 00 00 00 00 00 00 00 00 00 01 03 00*
0,2655,0:54.283.933,676.800 us,26 B,,SP,55,Write Transaction,14 00 02 F6 E6 03 D3 0D 06 E6 E0 06 13 02 00 00 00 00 00 00 FF BF 00 86 FC 32
0,2656,0:54.299.872,116.300 us,3 B,,SP,55,Read Transaction,00 00 18*
0,2657,0:54.304.266,79.000 us,2 B,,SP,55,Write Transaction,00 00
0,2658,0:54.309.616,86.600 us,2 B,,SP,55,Read Transaction,00 08*
0,2659,0:54.309.978,79.000 us,2 B,,SP,55,Write Transaction,12 01
0,2660,0:54.315.333,660.500 us,25 B,,SP,55,Read Transaction,00 00 00 00 00 02 76 64 00 00 00 00 00 00 00 00 00 00 00 00 00 00 01 03 00*
0,2661,0:54.323.919,676.900 us,26 B,,SP,55,Write Transaction,14 00 02 FA 1E 03 D7 5E 06 E9 03 06 13 E0 00 00 00 00 00 00 FF BF 00 89 FC 30
0,2662,0:54.339.859,116.200 us,3 B,,SP,55,Read Transaction,00 00 18*
0,2663,0:54.344.252,79.100 us,2 B,,SP,55,Write Transaction,00 00
0,2664,0:54.349.616,86.700 us,2 B,,SP,55,Read Transaction,00 08*
0,2665,0:54.349.977,79.000 us,2 B,,SP,55,Write Transaction,12 01
0,2666,0:54.355.326,659.600 us,25 B,,SP,55,Read Transaction,00 00 00 00 00 02 76 64 00 00 00 00 00 00 00 00 00 00 00 00 00 00 01 03 00*
0,2667,0:54.363.812,676.900 us,26 B,,SP,55,Write Transaction,14 00 02 F5 D7 03 CC 52 06 E1 90 06 0F 7F 00 00 00 00 00 00 FF BB 00 8A FC 32
0,2668,0:54.379.751,116.300 us,3 B,,SP,55,Read Transaction,00 00 18*
0,2669,0:54.384.185,79.000 us,2 B,,SP,55,Write Transaction,00 00
0,2670,0:54.389.540,86.700 us,2 B,,SP,55,Read Transaction,00 08*
0,2671,0:54.389.903,79.100 us,2 B,,SP,55,Write Transaction,12 01
0,2672,0:54.395.253,659.500 us,25 B,,SP,55,Read Transaction,00 00 00 00 00 02 76 64 00 00 00 00 00 00 00 00 00 00 00 00 00 00 01 03 00*
0,2673,0:54.403.807,677.900 us,26 B,,SP,55,Write Transaction,14 00 02 E6 9D 03 B4 8F 06 D5 92 06 09 C0 00 00 00 00 00 00 FF BC 00 8B FC 30
0,2674,0:54.419.765,116.300 us,3 B,,SP,55,Read Transaction,00 00 18*
0,2675,0:54.424.156,79.100 us,2 B,,SP,55,Write Transaction,00 00
0,2676,0:54.429.506,86.700 us,2 B,,SP,55,Read Transaction,00 08*
0,2677,0:54.429.868,79.100 us,2 B,,SP,55,Write Transaction,12 01
0,2678,0:54.435.218,659.200 us,25 B,,SP,55,Read Transaction,00 00 00 00 00 02 76 64 00 00 00 00 00 00 00 00 00 00 00 00 00 00 01 03 00*
0,2679,0:54.443.673,676.800 us,26 B,,SP,55,Write Transaction,14 00 02 D8 07 03 9F 72 06 CD E8 06 06 82 00 00 00 00 00 00 FF BD 00 8A FC 37
0,2680,0:54.459.612,116.300 us,3 B,,SP,55,Read Transaction,00 00 18*
0,2681,0:54.464.006,79.100 us,2 B,,SP,55,Write Transaction,00 00
0,2682,0:54.469.354,86.700 us,2 B,,SP,55,Read Transaction,00 08*
0,2683,0:54.469.715,79.000 us,2 B,,SP,55,Write Transaction,12 01
0,2684,0:54.475.070,660.500 us,25 B,,SP,55,Read Transaction,00 00 00 00 00 02 76 64 00 00 00 00 00 00 00 00 00 00 00 00 00 00 01 03 00*
0,2685,0:54.483.678,676.700 us,26 B,,SP,55,Write Transaction,14 00 02 CE 66 03 91 3F 06 C9 74 06 04 80 00 00 00 00 00 00 FF BF 00 8E FC 31
0,2686,0:54.499.617,116.200 us,3 B,,SP,55,Read Transaction,00 00 18*
0,2687,0:54.504.008,79.100 us,2 B,,SP,55,Write Transaction,00 00
0,2688,0:54.509.358,86.700 us,2 B,,SP,55,Read Transaction,00 08*
0,2689,0:54.509.720,79.100 us,2 B,,SP,55,Write Transaction,12 01
0,2690,0:54.515.068,659.600 us,25 B,,SP,55,Read Transaction,00 00 00 00 00 02 76 64 00 00 00 00 00 00 00 00 00 00 00 00 00 00 01 03 00*
0,2691,0:54.523.548,676.900 us,26 B,,SP,55,Write Transaction,14 00 02 C7 8B 03 86 0E 06 C5 BB 06 02 B1 00 00 00 00 00 00 FF BE 00 89 FC 31
0,2692,0:54.539.487,116.300 us,3 B,,SP,55,Read Transaction,00 00 18*
0,2693,0:54.543.883,79.200 us,2 B,,SP,55,Write Transaction,00 00
0,2694,0:54.549.237,86.700 us,2 B,,SP,55,Read Transaction,00 08*
0,2695,0:54.549.598,79.100 us,2 B,,SP,55,Write Transaction,12 01
0,2696,0:54.554.948,659.500 us,25 B,,SP,55,Read Transaction,00 00 00 00 00 02 76 64 00 00 00 00 00 00 00 00 00 00 00 00 00 00 01 03 00*
0,2697,0:54.564.190,676.800 us,26 B,,SP,55,Write Transaction,14 00 02 C2 AB 03 80 37 06 C3 05 06 01 45 00 00 00 00 00 00 FF BD 00 89 FC 37
0,2698,0:54.580.132,116.400 us,3 B,,SP,55,Read Transaction,00 00 18*
0,2699,0:54.584.529,79.000 us,2 B,,SP,55,Write Transaction,00 00
0,2700,0:54.589.882,86.700 us,2 B,,SP,55,Read Transaction,00 08*
0,2701,0:54.590.244,79.000 us,2 B,,SP,55,Write Transaction,12 01
0,2702,0:54.595.601,660.500 us,25 B,,SP,55,Read Transaction,00 00 00 00 00 02 76 64 00 00 00 00 00 00 00 00 00 00 00 00 00 00 01 03 00*
0,2703,0:54.603.432,676.900 us,26 B,,SP,55,Write Transaction,14 00 02 C2 02 03 82 46 06 C4 7B 06 02 63 00 00 00 00 00 00 FF BF 00 89 FC 31
0,2704,0:54.619.375,116.300 us,3 B,,SP,55,Read Transaction,00 00 18*
0,2705,0:54.623.770,79.100 us,2 B,,SP,55,Write Transaction,00 00
0,2706,0:54.629.119,86.800 us,2 B,,SP,55,Read Transaction,00 08*
0,2707,0:54.629.482,79.200 us,2 B,,SP,55,Write Transaction,12 01
0,2708,0:54.634.835,659.500 us,25 B,,SP,55,Read Transaction,00 00 00 00 00 02 76 64 00 00 00 00 00 00 00 00 00 00 00 00 00 00 01 03 00*
0,2709,0:54.643.378,676.900 us,26 B,,SP,55,Write Transaction,14 00 02 C4 64 03 89 43 06 C6 41 06 02 E4 00 00 00 00 00 00 FF B8 00 8C FC 30
0,2710,0:54.659.316,116.400 us,3 B,,SP,55,Read Transaction,00 00 18*
0,2711,0:54.663.710,79.100 us,2 B,,SP,55,Write Transaction,00 00
0,2712,0:54.669.061,86.700 us,2 B,,SP,55,Read Transaction,00 08*
0,2713,0:54.669.423,79.100 us,2 B,,SP,55,Write Transaction,12 01
0,2714,0:54.674.776,659.600 us,25 B,,SP,55,Read Transaction,00 00 00 00 00 02 76 64 00 00 00 00 00 00 00 00 00 00 00 00 00 00 01 03 00*
0,2715,0:54.683.359,676.900 us,26 B,,SP,55,Write Transaction,14 00 02 C5 9D 03 8D 15 06 C7 3C 06 03 59 00 00 00 00 00 00 FF BD 00 89 FC 34
0,2716,0:54.699.298,116.300 us,3 B,,SP,55,Read Transaction,00 00 18*
0,2717,0:54.703.692,79.000 us,2 B,,SP,55,Write Transaction,00 00
0,2718,0:54.709.043,86.700 us,2 B,,SP,55,Read Transaction,00 08*
0,2719,0:54.709.406,79.100 us,2 B,,SP,55,Write Transaction,12 01
0,2720,0:54.714.756,659.500 us,25 B,,SP,55,Read Transaction,00 00 00 00 00 02 76 64 00 00 00 00 00 00 00 00 00 00 00 00 00 00 01 03 00*
0,2721,0:54.723.266,677.500 us,26 B,,SP,55,Write Transaction,14 00 02 C6 18 03 8F 7F 06 C7 DB 06 03 A0 00 00 00 00 00 00 FF BC 00 82 FC 31
0,2722,0:54.739.216,116.400 us,3 B,,SP,55,Read Transaction,00 00 18*
0,2723,0:54.743.611,79.100 us,2 B,,SP,55,Write Transaction,00 00
0,2724,0:54.748.960,86.700 us,2 B,,SP,55,Read Transaction,00 08*
0,2725,0:54.749.321,79.100 us,2 B,,SP,55,Write Transaction,12 01
0,2726,0:54.754.672,659.500 us,25 B,,SP,55,Read Transaction,00 00 00 00 00 02 76 64 00 00 00 00 00 00 00 00 00 00 00 00 00 00 01 03 00*
0,2727,0:54.763.205,676.900 us,26 B,,SP,55,Write Transaction,14 00 02 C7 93 03 93 C6 06 C9 95 06 04 91 00 00 00 00 00 00 FF BA 00 89 FC 34
0,2728,0:54.779.148,116.200 us,3 B,,SP,55,Read Transaction,00 00 18*
0,2729,0:54.783.540,79.000 us,2 B,,SP,55,Write Transaction,00 00
0,2730,0:54.788.891,86.700 us,2 B,,SP,55,Read Transaction,00 08*
0,2731,0:54.789.254,79.000 us,2 B,,SP,55,Write Transaction,12 01
0,2732,0:54.794.605,660.600 us,25 B,,SP,55,Read Transaction,00 00 00 00 00 02 76 64 25 F2 64 00 00 00 00 00 00 00 00 00 00 00 01 03 00*
0,2733,0:54.803.121,676.800 us,26 B,,SP,55,Write Transaction,14 00 02 CA 7A 03 9A 35 06 CC CC 06 06 62 00 00 00 00 00 00 FF C2 00 8A FC 2F
0,2734,0:54.819.059,116.400 us,3 B,,SP,55,Read Transaction,00 00 18*
0,2735,0:54.823.460,79.100 us,2 B,,SP,55,Write Transaction,00 00
0,2736,0:54.828.817,86.800 us,2 B,,SP,55,Read Transaction,00 08*
0,2737,0:54.829.179,79.200 us,2 B,,SP,55,Write Transaction,12 01
0,2738,0:54.834.531,659.500 us,25 B,,SP,55,Read Transaction,00 00 00 00 00 02 76 64 00 00 00 00 00 00 00 00 00 00 00 00 00 00 01 03 00*
0,2739,0:54.843.048,676.900 us,26 B,,SP,55,Write Transaction,14 00 02 CE DB 03 A2 D7 06 D0 D0 06 08 69 00 00 00 00 00 00 FF BD 00 8B FC 36
0,2740,0:54.858.987,116.400 us,3 B,,SP,55,Read Transaction,00 00 18*
0,2741,0:54.863.379,79.100 us,2 B,,SP,55,Write Transaction,00 00
0,2742,0:54.868.730,86.700 us,2 B,,SP,55,Read Transaction,00 08*
0,2743,0:54.869.093,79.100 us,2 B,,SP,55,Write Transaction,12 01
0,2744,0:54.874.441,659.600 us,25 B,,SP,55,Read Transaction,00 00 00 00 00 02 76 64 00 00 00 00 00 00 00 00 00 00 00 00 00 00 01 03 00*
0,2745,0:54.883.009,676.600 us,26 B,,SP,55,Write Transaction,14 00 02 D3 65 03 AA AA 06 D5 3D 06 0A F5 00 00 00 00 00 00 FF BF 00 89 FC 33
0,2746,0:54.898.946,116.200 us,3 B,,SP,55,Read Transaction,00 00 18*
0,2747,0:54.903.337,79.000 us,2 B,,SP,55,Write Transaction,00 00
0,2748,0:54.908.686,86.600 us,2 B,,SP,55,Read Transaction,00 08*
0,2749,0:54.909.047,79.000 us,2 B,,SP,55,Write Transaction,12 01
0,2750,0:54.914.398,659.500 us,25 B,,SP,55,Read Transaction,00 00 00 00 00 02 76 64 00 00 00 00 00 00 00 00 00 00 00 00 00 00 01 03 00*
0,2751,0:54.922.989,676.700 us,26 B,,SP,55,Write Transaction,14 00 02 D7 C2 03 B1 4C 06 D9 32 06 0D 34 00 00 00 00 00 00 FF C3 00 89 FC 32
0,2752,0:54.938.932,116.200 us,3 B,,SP,55,Read Transaction,00 00 18*
0,2753,0:54.943.324,79.000 us,2 B,,SP,55,Write Transaction,00 00
0,2754,0:54.948.673,86.700 us,2 B,,SP,55,Read Transaction,00 08*
0,2755,0:54.949.036,79.100 us,2 B,,SP,55,Write Transaction,12 01
0,2756,0:54.954.386,659.600 us,25 B,,SP,55,Read Transaction,00 00 00 00 00 02 76 64 00 00 00 00 00 00 00 00 00 00 00 00 00 00 01 03 00*
0,2757,0:54.962.891,677.900 us,26 B,,SP,55,Write Transaction,14 00 02 DB 43 03 B6 ED 06 DB 59 06 0E 29 00 00 00 00 00 00 FF BB 00 85 FC 31
0,2758,0:54.978.832,116.300 us,3 B,,SP,55,Read Transaction,00 00 18*
0,2759,0:54.983.226,79.100 us,2 B,,SP,55,Write Transaction,00 00
0,2760,0:54.988.577,86.600 us,2 B,,SP,55,Read Transaction,00 08*
0,2761,0:54.988.940,79.100 us,2 B,,SP,55,Write Transaction,12 01
0,2762,0:54.994.288,659.600 us,25 B,,SP,55,Read Transaction,00 00 00 00 00 02 76 64 00 00 00 00 00 00 00 00 00 00 00 00 00 00 01 03 00*
0,2763,0:55.002.786,676.900 us,26 B,,SP,55,Write Transaction,14 00 02 DE 7E 03 BB 89 06 DE 3C 06 0F CB 00 00 00 00 00 00 FF BE 00 8A FC 2D
0,2764,0:55.018.724,116.300 us,3 B,,SP,55,Read Transaction,00 00 18*
0,2765,0:55.023.123,79.100 us,2 B,,SP,55,Write Transaction,00 00
0,2766,0:55.028.479,86.700 us,2 B,,SP,55,Read Transaction,00 08*
0,2767,0:55.028.841,79.100 us,2 B,,SP,55,Write Transaction,12 01
0,2768,0:55.034.193,659.500 us,25 B,,SP,55,Read Transaction,00 00 00 00 00 02 76 64 00 00 00 00 00 00 00 00 00 00 00 00 00 00 01 03 00*
0,2769,0:55.042.792,676.800 us,26 B,,SP,55,Write Transaction,14 00 02 E2 13 03 C1 2C 06 E1 77 06 11 A7 00 00 00 00 00 00 FF BF 00 8F FC 2E
0,2770,0:55.058.729,116.300 us,3 B,,SP,55,Read Transaction,00 00 18*
0,2771,0:55.063.121,79.100 us,2 B,,SP,55,Write Transaction,00 00
0,2772,0:55.068.470,86.600 us,2 B,,SP,55,Read Transaction,00 08*
0,2773,0:55.068.833,79.000 us,2 B,,SP,55,Write Transaction,12 01
0,2774,0:55.074.179,659.500 us,25 B,,SP,55,Read Transaction,00 00 00 00 00 02 76 64 00 00 00 00 00 00 00 00 00 00 00 00 00 00 01 03 00*
0,2775,0:55.082.651,676.800 us,26 B,,SP,55,Write Transaction,14 00 02 E5 A6 03 C6 83 06 E4 66 06 13 2B 00 00 00 00 00 00 FF C1 00 8D FC 30
0,2776,0:55.098.590,116.300 us,3 B,,SP,55,Read Transaction,00 00 18*
0,2777,0:55.102.983,79.100 us,2 B,,SP,55,Write Transaction,00 00
0,2778,0:55.108.334,86.800 us,2 B,,SP,55,Read Transaction,00 08*
0,2779,0:55.108.696,79.200 us,2 B,,SP,55,Write Transaction,12 01
0,2780,0:55.114.051,659.700 us,25 B,,SP,55,Read Transaction,00 00 00 00 00 02 76 64 00 00 00 00 00 00 00 00 00 00 00 00 00 00 01 03 00*
0,2781,0:55.122.671,676.900 us,26 B,,SP,55,Write Transaction,14 00 02 E8 C7 03 CB 36 06 E6 1D 06 13 EB 00 00 00 00 00 00 FF BA 00 8B FC 33
0,2782,0:55.138.613,116.200 us,3 B,,SP,55,Read Transaction,00 00 18*
0,2783,0:55.143.005,79.100 us,2 B,,SP,55,Write Transaction,00 00
0,2784,0:55.148.357,86.700 us,2 B,,SP,55,Read Transaction,00 08*
0,2785,0:55.148.719,79.100 us,2 B,,SP,55,Write Transaction,12 01
0,2786,0:55.154.068,659.600 us,25 B,,SP,55,Read Transaction,00 00 00 00 00 02 76 64 00 00 00 00 00 00 00 00 00 00 00 00 00 00 01 03 00*
0,2787,0:55.162.540,676.800 us,26 B,,SP,55,Write Transaction,14 00 02 EB 59 03 CF 28 06 E8 4A 06 15 0D 00 00 00 00 00 00 FF BF 00 87 FC 36
0,2788,0:55.178.479,116.000 us,3 B,,SP,55,Read Transaction,00 00 18*
0,2789,0:55.182.873,79.100 us,2 B,,SP,55,Write Transaction,00 00
0,2790,0:55.188.223,86.600 us,2 B,,SP,55,Read Transaction,00 08*
0,2791,0:55.188.584,79.000 us,2 B,,SP,55,Write Transaction,12 01
0,2792,0:55.193.935,660.600 us,25 B,,SP,55,Read Transaction,00 00 00 00 00 02 76 64 00 00 00 00 00 00 00 00 00 00 00 00 00 00 01 03 00*
0,2793,0:55.202.504,676.800 us,26 B,,SP,55,Write Transaction,14 00 02 EF 4F 03 D5 B4 06 EB 58 06 16 B1 00 00 00 00 00 00 FF BF 00 85 FC 39
0,2794,0:55.218.448,116.300 us,3 B,,SP,55,Read Transaction,00 00 18*
0,2795,0:55.222.841,79.100 us,2 B,,SP,55,Write Transaction,00 00
0,2796,0:55.228.192,86.600 us,2 B,,SP,55,Read Transaction,00 08*
0,2797,0:55.228.554,79.100 us,2 B,,SP,55,Write Transaction,12 01
0,2798,0:55.233.903,659.600 us,25 B,,SP,55,Read Transaction,00 00 00 00 00 02 76 64 00 00 00 00 00 00 00 00 00 00 00 00 00 00 01 03 00*
0,2799,0:55.242.447,676.800 us,26 B,,SP,55,Write Transaction,14 00 02 F2 79 03 DA 42 06 ED BF 06 17 E8 00 00 00 00 00 00 FF C2 00 89 FC 33
0,2800,0:55.258.388,116.300 us,3 B,,SP,55,Read Transaction,00 00 18*
0,2801,0:55.262.783,79.100 us,2 B,,SP,55,Write Transaction,00 00
0,2802,0:55.268.133,86.800 us,2 B,,SP,55,Read Transaction,00 08*
0,2803,0:55.268.497,79.200 us,2 B,,SP,55,Write Transaction,12 01
0,2804,0:55.273.848,659.600 us,25 B,,SP,55,Read Transaction,00 00 00 00 00 02 76 64 00 00 00 00 00 00 00 00 00 00 00 00 00 00 01 03 00*
0,2805,0:55.282.370,676.900 us,26 B,,SP,55,Write Transaction,14 00 02 F6 85 03 E0 C3 06 F0 E9 06 19 6D 00 00 00 00 00 00 FF BF 00 8C FC 30
0,2806,0:55.298.309,116.400 us,3 B,,SP,55,Read Transaction,00 00 18*
0,2807,0:55.302.708,79.200 us,2 B,,SP,55,Write Transaction,00 00
0,2808,0:55.308.064,86.700 us,2 B,,SP,55,Read Transaction,00 08*
0,2809,0:55.308.427,79.100 us,2 B,,SP,55,Write Transaction,12 01
0,2810,0:55.313.778,659.700 us,25 B,,SP,55,Read Transaction,00 00 00 00 00 02 76 64 00 00 00 00 00 00 00 00 00 00 00 00 00 00 01 03 00*
0,2811,0:55.322.331,677.000 us,26 B,,SP,55,Write Transaction,14 00 02 F6 B4 03 DD F4 06 EE 57 06 17 84 00 00 00 00 00 00 FF BD 00 85 FC 36
0,2812,0:55.338.274,116.200 us,3 B,,SP,55,Read Transaction,00 00 18*
0,2813,0:55.342.666,79.100 us,2 B,,SP,55,Write Transaction,00 00
0,2814,0:55.348.016,86.700 us,2 B,,SP,55,Read Transaction,00 08*
0,2815,0:55.348.378,79.000 us,2 B,,SP,55,Write Transaction,12 01
0,2816,0:55.353.727,659.600 us,25 B,,SP,55,Read Transaction,00 00 00 00 00 02 76 64 00 00 00 00 00 00 00 00 00 00 00 00 00 00 01 03 00*
0,2817,0:55.362.301,676.900 us,26 B,,SP,55,Write Transaction,14 00 02 EB 83 03 C9 7C 06 E3 A7 06 11 C6 00 00 00 00 00 00 FF BE 00 89 FC 38
0,2818,0:55.378.245,116.200 us,3 B,,SP,55,Read Transaction,00 00 18*
0,2819,0:55.382.639,79.100 us,2 B,,SP,55,Write Transaction,00 00
0,2820,0:55.387.987,86.600 us,2 B,,SP,55,Read Transaction,00 08*
0,2821,0:55.388.348,79.000 us,2 B,,SP,55,Write Transaction,12 01
0,2822,0:55.393.698,659.500 us,25 B,,SP,55,Read Transaction,00 00 00 00 00 02 76 64 00 00 00 00 00 00 00 00 00 00 00 00 00 00 01 03 00*
0,2823,0:55.402.218,676.900 us,26 B,,SP,55,Write Transaction,14 00 02 DA 8D 03 B1 E8 06 D9 C6 06 0C F6 00 00 00 00 00 00 FF BC 00 88 FC 30
0,2824,0:55.418.160,116.200 us,3 B,,SP,55,Read Transaction,00 00 18*
0,2825,0:55.422.552,79.200 us,2 B,,SP,55,Write Transaction,00 00
0,2826,0:55.427.907,86.700 us,2 B,,SP,55,Read Transaction,00 08*
0,2827,0:55.428.270,79.200 us,2 B,,SP,55,Write Transaction,12 01
0,2828,0:55.433.625,660.600 us,25 B,,SP,55,Read Transaction,00 00 00 00 00 02 76 64 00 00 00 00 00 00 00 00 00 00 00 00 00 00 01 03 00*
0,2829,0:55.442.112,676.800 us,26 B,,SP,55,Write Transaction,14 00 02 CF A3 03 A2 73 06 D5 DD 06 0B 8D 00 00 00 00 00 00 FF C0 00 8E FC 35
0,2830,0:55.458.051,116.300 us,3 B,,SP,55,Read Transaction,00 00 18*
0,2831,0:55.462.446,79.100 us,2 B,,SP,55,Write Transaction,00 00
0,2832,0:55.467.796,86.700 us,2 B,,SP,55,Read Transaction,00 08*
0,2833,0:55.468.157,79.000 us,2 B,,SP,55,Write Transaction,12 01
0,2834,0:55.473.508,659.600 us,25 B,,SP,55,Read Transaction,00 00 00 00 00 02 76 64 00 00 00 00 00 00 00 00 00 00 00 00 00 00 01 03 00*
0,2835,0:55.482.110,676.900 us,26 B,,SP,55,Write Transaction,14 00 02 C7 B8 03 95 F2 06 D2 3C 06 09 C9 00 00 00 00 00 00 FF C3 00 89 FC 33
0,2836,0:55.498.054,116.300 us,3 B,,SP,55,Read Transaction,00 00 18*
0,2837,0:55.502.446,79.100 us,2 B,,SP,55,Write Transaction,00 00
0,2838,0:55.507.797,86.700 us,2 B,,SP,55,Read Transaction,00 08*
0,2839,0:55.508.159,79.100 us,2 B,,SP,55,Write Transaction,12 01
0,2840,0:55.513.520,659.500 us,25 B,,SP,55,Read Transaction,00 00 00 00 00 02 76 64 00 00 00 00 00 00 00 00 00 00 00 00 00 00 01 03 00*
0,2841,0:55.521.969,676.800 us,26 B,,SP,55,Write Transaction,14 00 02 C1 AA 03 8C D6 06 CF ED 06 08 CB 00 00 00 00 00 00 FF C5 00 89 FC 30
0,2842,0:55.537.929,116.400 us,3 B,,SP,55,Read Transaction,00 00 18*
0,2843,0:55.542.326,79.200 us,2 B,,SP,55,Write Transaction,00 00
0,2844,0:55.547.682,86.700 us,2 B,,SP,55,Read Transaction,00 08*
0,2845,0:55.548.043,79.000 us,2 B,,SP,55,Write Transaction,12 01
0,2846,0:55.553.394,660.400 us,25 B,,SP,55,Read Transaction,00 00 00 00 00 02 76 64 00 00 00 00 00 00 00 00 00 00 00 00 00 00 01 03 00*
0,2847,0:55.561.956,676.900 us,26 B,,SP,55,Write Transaction,14 00 02 BE B9 03 88 DB 06 CF B2 06 08 EA 00 00 00 00 00 00 FF BB 00 8B FC 31
0,2848,0:55.577.907,116.200 us,3 B,,SP,55,Read Transaction,00 00 18*
0,2849,0:55.582.300,79.200 us,2 B,,SP,55,Write Transaction,00 00
0,2850,0:55.587.657,86.700 us,2 B,,SP,55,Read Transaction,00 08*
0,2851,0:55.588.020,79.000 us,2 B,,SP,55,Write Transaction,12 01
0,2852,0:55.593.370,659.600 us,25 B,,SP,55,Read Transaction,00 00 00 00 00 02 76 64 00 00 00 00 00 00 00 00 00 00 00 00 00 00 01 03 00*
0,2853,0:55.601.875,676.400 us,26 B,,SP,55,Write Transaction,14 00 02 C0 7F 03 8C C7 06 D2 22 06 0A 49 00 00 00 00 00 00 FF BE 00 8D FC 36
0,2854,0:55.617.815,116.300 us,3 B,,SP,55,Read Transaction,00 00 18*
0,2855,0:55.622.208,79.100 us,2 B,,SP,55,Write Transaction,00 00
0,2856,0:55.627.558,86.700 us,2 B,,SP,55,Read Transaction,00 08*
0,2857,0:55.627.921,79.100 us,2 B,,SP,55,Write Transaction,12 01
0,2858,0:55.633.268,659.600 us,25 B,,SP,55,Read Transaction,00 00 00 00 00 02 76 64 00 00 00 00 00 00 00 00 00 00 00 00 00 00 01 03 00*
0,2859,0:55.641.820,677.700 us,26 B,,SP,55,Write Transaction,14 00 02 C2 F0 03 92 C5 06 D3 F9 06 0B 15 00 00 00 00 00 00 FF C5 00 8D FC 2F
0,2860,0:55.657.762,116.200 us,3 B,,SP,55,Read Transaction,00 00 18*
0,2861,0:55.662.155,79.100 us,2 B,,SP,55,Write Transaction,00 00
0,2862,0:55.667.505,86.700 us,2 B,,SP,55,Read Transaction,00 08*
0,2863,0:55.667.866,79.100 us,2 B,,SP,55,Write Transaction,12 01
0,2864,0:55.673.217,659.600 us,25 B,,SP,55,Read Transaction,00 00 00 00 00 02 76 64 00 00 00 00 00 00 00 00 00 00 00 00 00 00 01 03 00*
0,2865,0:55.681.762,676.800 us,26 B,,SP,55,Write Transaction,14 00 02 C4 89 03 97 19 06 D5 3D 06 0B C2 00 00 00 00 00 00 FF BF 00 8B FC 38
0,2866,0:55.697.702,116.300 us,3 B,,SP,55,Read Transaction,00 00 18*
0,2867,0:55.702.094,79.100 us,2 B,,SP,55,Write Transaction,00 00
0,2868,0:55.707.445,86.600 us,2 B,,SP,55,Read Transaction,00 08*
0,2869,0:55.707.807,79.000 us,2 B,,SP,55,Write Transaction,12 01
0,2870,0:55.713.161,659.600 us,25 B,,SP,55,Read Transaction,00 00 00 00 00 02 76 64 00 00 00 00 00 00 00 00 00 00 00 00 00 00 01 03 00*
0,2871,0:55.721.692,676.900 us,26 B,,SP,55,Write Transaction,14 00 02 C6 1F 03 9A 9F 06 D6 F9 06 0C D9 00 00 00 00 00 00 FF FB 00 8A FC 2E
0,2872,0:55.737.630,116.200 us,3 B,,SP,55,Read Transaction,00 00 18*
0,2873,0:55.742.024,79.000 us,2 B,,SP,55,Write Transaction,00 00
0,2874,0:55.747.374,86.700 us,2 B,,SP,55,Read Transaction,00 08*
0,2875,0:55.747.736,79.100 us,2 B,,SP,55,Write Transaction,12 01
0,2876,0:55.753.087,659.400 us,25 B,,SP,55,Read Transaction,00 00 00 00 00 02 76 64 24 D9 64 00 00 00 00 00 00 00 00 00 00 00 01 03 00*
0,2877,0:55.761.617,677.200 us,26 B,,SP,55,Write Transaction,14 00 02 C8 75 03 9F 62 06 D9 2E 06 0E 02 00 00 00 00 00 00 FF C0 00 8B FC 39
0,2878,0:55.777.559,116.200 us,3 B,,SP,55,Read Transaction,00 00 18*
0,2879,0:55.781.952,79.100 us,2 B,,SP,55,Write Transaction,00 00
0,2880,0:55.787.303,86.700 us,2 B,,SP,55,Read Transaction,00 08*
0,2881,0:55.787.666,79.000 us,2 B,,SP,55,Write Transaction,12 01
0,2882,0:55.793.013,659.600 us,25 B,,SP,55,Read Transaction,00 00 00 00 00 02 76 64 00 00 00 00 00 00 00 00 00 00 00 00 00 00 01 03 00*
0,2883,0:55.801.571,676.900 us,26 B,,SP,55,Write Transaction,14 00 02 CC 04 03 A5 C4 06 DC 7A 06 0F E2 00 00 00 00 00 00 FF BE 00 8E FC 30
0,2884,0:55.817.512,116.200 us,3 B,,SP,55,Read Transaction,00 00 18*
0,2885,0:55.821.905,79.100 us,2 B,,SP,55,Write Transaction,00 00
0,2886,0:55.827.254,86.700 us,2 B,,SP,55,Read Transaction,00 08*
0,2887,0:55.827.615,79.100 us,2 B,,SP,55,Write Transaction,12 01
0,2888,0:55.832.966,659.600 us,25 B,,SP,55,Read Transaction,00 00 00 00 00 02 76 64 00 00 00 00 00 00 00 00 00 00 00 00 00 00 01 03 00*
0,2889,0:55.841.478,676.500 us,26 B,,SP,55,Write Transaction,14 00 02 CF D7 03 AB 52 06 DF AE 06 11 70 00 00 00 00 00 00 FF C3 00 90 FC 31
0,2890,0:55.857.425,116.300 us,3 B,,SP,55,Read Transaction,00 00 18*
0,2891,0:55.861.817,79.100 us,2 B,,SP,55,Write Transaction,00 00
0,2892,0:55.867.168,86.600 us,2 B,,SP,55,Read Transaction,00 08*
0,2893,0:55.867.531,79.100 us,2 B,,SP,55,Write Transaction,12 01
0,2894,0:55.872.881,659.600 us,25 B,,SP,55,Read Transaction,00 00 00 00 00 02 76 64 00 00 00 00 00 00 00 00 00 00 00 00 00 00 01 03 00*
0,2895,0:55.881.458,676.900 us,26 B,,SP,55,Write Transaction,14 00 02 D2 37 03 AF 5F 06 E0 8B 06 11 6D 00 00 00 00 00 00 FF BE 00 8F FC 32
0,2896,0:55.897.397,116.300 us,3 B,,SP,55,Read Transaction,00 00 18*
0,2897,0:55.901.791,79.000 us,2 B,,SP,55,Write Transaction,00 00
0,2898,0:55.907.144,86.700 us,2 B,,SP,55,Read Transaction,00 08*
0,2899,0:55.907.507,79.000 us,2 B,,SP,55,Write Transaction,12 01
0,2900,0:55.912.854,659.600 us,25 B,,SP,55,Read Transaction,00 00 00 00 00 02 76 64 00 00 00 00 00 00 00 00 00 00 00 00 00 00 01 03 00*
0,2901,0:55.921.369,676.900 us,26 B,,SP,55,Write Transaction,14 00 02 D5 07 03 B4 14 06 E2 74 06 12 6B 00 00 00 00 00 00 FF BE 00 85 FC 31
0,2902,0:55.937.312,116.200 us,3 B,,SP,55,Read Transaction,00 00 18*
0,2903,0:55.941.706,79.000 us,2 B,,SP,55,Write Transaction,00 00
0,2904,0:55.947.055,86.700 us,2 B,,SP,55,Read Transaction,00 08*
0,2905,0:55.947.418,79.100 us,2 B,,SP,55,Write Transaction,12 01
0,2906,0:55.952.769,659.600 us,25 B,,SP,55,Read Transaction,00 00 00 00 00 02 76 64 00 00 00 00 00 00 00 00 00 00 00 00 00 00 01 03 00*
0,2907,0:55.961.365,676.900 us,26 B,,SP,55,Write Transaction,14 00 02 D7 C4 03 B7 6C 06 E4 56 06 13 67 00 00 00 00 00 00 FF C0 00 87 FC 30
0,2908,0:55.977.332,116.500 us,3 B,,SP,55,Read Transaction,00 00 18*
0,2909,0:55.981.726,79.100 us,2 B,,SP,55,Write Transaction,00 00
0,2910,0:55.987.075,86.700 us,2 B,,SP,55,Read Transaction,00 08*
0,2911,0:55.987.438,79.100 us,2 B,,SP,55,Write Transaction,12 01
0,2912,0:55.992.786,659.300 us,25 B,,SP,55,Read Transaction,00 00 00 00 00 02 76 64 00 00 00 00 00 00 00 00 00 00 00 00 00 00 01 03 00*
0,2913,0:56.001.230,676.900 us,26 B,,SP,55,Write Transaction,14 00 02 DB 14 03 BC A1 06 E7 5D 06 15 22 00 00 00 00 00 00 FF C3 00 8A FC 32
0,2914,0:56.017.166,116.300 us,3 B,,SP,55,Read Transaction,00 00 18*
0,2915,0:56.021.560,79.000 us,2 B,,SP,55,Write Transaction,00 00
0,2916,0:56.026.909,86.600 us,2 B,,SP,55,Read Transaction,00 08*
0,2917,0:56.027.271,79.100 us,2 B,,SP,55,Write Transaction,12 01
0,2918,0:56.032.621,659.600 us,25 B,,SP,55,Read Transaction,00 00 00 00 00 02 76 64 00 00 00 00 00 00 00 00 00 00 00 00 00 00 01 03 00*
0,2919,0:56.041.763,676.900 us,26 B,,SP,55,Write Transaction,14 00 02 DE 92 03 C1 81 06 EA BB 06 17 24 00 00 00 00 00 00 FF C2 00 8E FC 32
0,2920,0:56.057.708,116.400 us,3 B,,SP,55,Read Transaction,00 00 18*
0,2921,0:56.062.101,79.100 us,2 B,,SP,55,Write Transaction,00 00
0,2922,0:56.067.452,86.700 us,2 B,,SP,55,Read Transaction,00 08*
0,2923,0:56.067.814,79.100 us,2 B,,SP,55,Write Transaction,12 01
0,2924,0:56.073.161,659.600 us,25 B,,SP,55,Read Transaction,00 00 00 00 00 02 76 64 00 00 00 00 00 00 00 00 00 00 00 00 00 00 01 03 00*
0,2925,0:56.081.102,677.900 us,26 B,,SP,55,Write Transaction,14 00 02 E1 C5 03 C6 9E 06 ED 1B 06 18 50 00 00 00 00 00 00 FF BE 00 87 FC 33
0,2926,0:56.097.045,116.300 us,3 B,,SP,55,Read Transaction,00 00 18*
0,2927,0:56.101.440,79.200 us,2 B,,SP,55,Write Transaction,00 00
0,2928,0:56.106.792,86.600 us,2 B,,SP,55,Read Transaction,00 08*
0,2929,0:56.107.154,79.100 us,2 B,,SP,55,Write Transaction,12 01
0,2930,0:56.112.504,659.700 us,25 B,,SP,55,Read Transaction,00 00 00 00 00 02 76 64 00 00 00 00 00 00 00 00 00 00 00 00 00 00 01 03 00*
0,2931,0:56.121.111,677.800 us,26 B,,SP,55,Write Transaction,14 00 02 E5 06 03 CB 5A 06 EE E7 06 19 3D 00 00 00 00 00 00 FF C0 00 8E FC 31
0,2932,0:56.137.051,116.300 us,3 B,,SP,55,Read Transaction,00 00 18*
0,2933,0:56.141.443,79.100 us,2 B,,SP,55,Write Transaction,00 00
0,2934,0:56.146.795,86.700 us,2 B,,SP,55,Read Transaction,00 08*
0,2935,0:56.147.157,79.000 us,2 B,,SP,55,Write Transaction,12 01
0,2936,0:56.152.507,659.600 us,25 B,,SP,55,Read Transaction,00 00 00 00 00 02 76 64 00 00 00 00 00 00 00 00 00 00 00 00 00 00 01 03 00*
0,2937,0:56.161.020,676.900 us,26 B,,SP,55,Write Transaction,14 00 02 E8 4A 03 D0 72 06 F1 87 06 1A C4 00 00 00 00 00 00 FF BB 00 88 FC 3E
0,2938,0:56.176.974,116.400 us,3 B,,SP,55,Read Transaction,00 00 18*
0,2939,0:56.181.368,79.000 us,2 B,,SP,55,Write Transaction,00 00
0,2940,0:56.186.718,86.700 us,2 B,,SP,55,Read Transaction,00 08*
0,2941,0:56.187.100,79.100 us,2 B,,SP,55,Write Transaction,12 01
0,2942,0:56.192.452,659.500 us,25 B,,SP,55,Read Transaction,00 00 00 00 00 02 76 64 00 00 00 00 00 00 00 00 00 00 00 00 00 00 01 03 00*
0,2943,0:56.201.017,676.900 us,26 B,,SP,55,Write Transaction,14 00 02 EB 8D 03 D5 47 06 F3 A7 06 1B B4 00 00 00 00 00 00 FF BF 00 88 FC 31
0,2944,0:56.216.955,116.300 us,3 B,,SP,55,Read Transaction,00 00 18*
0,2945,0:56.221.348,79.000 us,2 B,,SP,55,Write Transaction,00 00
0,2946,0:56.226.697,86.700 us,2 B,,SP,55,Read Transaction,00 08*
0,2947,0:56.227.060,79.000 us,2 B,,SP,55,Write Transaction,12 01
0,2948,0:56.232.411,659.600 us,25 B,,SP,55,Read Transaction,00 00 00 00 00 02 76 64 00 00 00 00 00 00 00 00 00 00 00 00 00 00 01 03 00*
0,2949,0:56.240.892,676.900 us,26 B,,SP,55,Write Transaction,14 00 02 EF 26 03 DA 8A 06 F6 7C 06 1D 5C 00 00 00 00 00 00 FF BF 00 8B FC 30
0,2950,0:56.256.838,116.400 us,3 B,,SP,55,Read Transaction,00 00 18*
0,2951,0:56.261.235,79.100 us,2 B,,SP,55,Write Transaction,00 00
0,2952,0:56.266.587,86.600 us,2 B,,SP,55,Read Transaction,00 08*
0,2953,0:56.266.949,79.100 us,2 B,,SP,55,Write Transaction,12 01
0,2954,0:56.272.297,659.600 us,25 B,,SP,55,Read Transaction,00 00 00 00 00 02 76 64 00 00 00 00 00 00 00 00 00 00 00 00 00 00 01 03 00*
0,2955,0:56.280.825,676.900 us,26 B,,SP,55,Write Transaction,14 00 02 F2 B9 03 DE DB 06 F8 C2 06 1E 62 00 00 00 00 00 00 FF C0 00 8A FC 34
0,2956,0:56.296.765,116.400 us,3 B,,SP,55,Read Transaction,00 00 18*
0,2957,0:56.301.164,79.100 us,2 B,,SP,55,Write Transaction,00 00
0,2958,0:56.306.513,86.700 us,2 B,,SP,55,Read Transaction,00 08*
0,2959,0:56.306.874,79.100 us,2 B,,SP,55,Write Transaction,12 01
0,2960,0:56.312.224,659.600 us,25 B,,SP,55,Read Transaction,00 00 00 00 00 02 76 64 00 00 00 00 00 00 00 00 00 00 00 00 00 00 01 03 00*
0,2961,0:56.320.806,676.800 us,26 B,,SP,55,Write Transaction,14 00 02 EF A0 03 D6 88 06 F2 05 06 19 FD 00 00 00 00 00 00 FF BE 00 87 FC 30
0,2962,0:56.336.749,116.300 us,3 B,,SP,55,Read Transaction,00 00 18*
0,2963,0:56.341.142,79.100 us,2 B,,SP,55,Write Transaction,00 00
0,2964,0:56.346.492,86.600 us,2 B,,SP,55,Read Transaction,00 08*
0,2965,0:56.346.854,79.100 us,2 B,,SP,55,Write Transaction,12 01
0,2966,0:56.352.202,659.500 us,25 B,,SP,55,Read Transaction,00 00 00 00 00 02 76 64 00 00 00 00 00 00 00 00 00 00 00 00 00 00 01 03 00*
0,2967,0:56.360.697,676.900 us,26 B,,SP,55,Write Transaction,14 00 02 E0 AE 03 BD BB 06 E7 96 06 14 E8 00 00 00 00 00 00 FF BC 00 87 FC 30
0,2968,0:56.376.641,116.300 us,3 B,,SP,55,Read Transaction,00 00 18*
0,2969,0:56.381.032,79.100 us,2 B,,SP,55,Write Transaction,00 00
0,2970,0:56.386.380,86.700 us,2 B,,SP,55,Read Transaction,00 08*
0,2971,0:56.386.741,79.000 us,2 B,,SP,55,Write Transaction,12 01
0,2972,0:56.392.090,659.500 us,25 B,,SP,55,Read Transaction,00 00 00 00 00 02 76 64 00 00 00 00 00 00 00 00 00 00 00 00 00 00 01 03 00*
0,2973,0:56.400.651,677.800 us,26 B,,SP,55,Write Transaction,14 00 02 CF CE 03 A4 A0 06 DF 55 06 10 FC 00 00 00 00 00 00 FF BD 00 87 FC 30
0,2974,0:56.416.602,116.300 us,3 B,,SP,55,Read Transaction,00 00 18*
0,2975,0:56.420.993,79.100 us,2 B,,SP,55,Write Transaction,00 00
0,2976,0:56.426.350,86.600 us,2 B,,SP,55,Read Transaction,00 08*
0,2977,0:56.426.713,79.000 us,2 B,,SP,55,Write Transaction,12 01
0,2978,0:56.432.062,659.500 us,25 B,,SP,55,Read Transaction,00 00 00 00 00 02 76 64 00 00 00 00 00 00 00 00 00 00 00 00 00 00 01 03 00*
0,2979,0:56.440.594,676.900 us,26 B,,SP,55,Write Transaction,14 00 02 C4 05 03 90 EA 06 D9 CF 06 0E 3C 00 00 00 00 00 00 FF BE 00 8B FC 2F
0,2980,0:56.456.558,116.300 us,3 B,,SP,55,Read Transaction,00 00 18*
0,2981,0:56.460.953,79.100 us,2 B,,SP,55,Write Transaction,00 00
0,2982,0:56.466.302,86.700 us,2 B,,SP,55,Read Transaction,00 08*
0,2983,0:56.466.663,79.000 us,2 B,,SP,55,Write Transaction,12 01
0,2984,0:56.472.015,659.400 us,25 B,,SP,55,Read Transaction,00 00 00 00 00 02 76 64 00 00 00 00 00 00 00 00 00 00 00 00 00 00 01 03 00*
0,2985,0:56.480.529,676.900 us,26 B,,SP,55,Write Transaction,14 00 02 BB 80 03 81 BF 06 D5 4C 06 0B E5 00 00 00 00 00 00 FF C0 00 84 FC 2F
0,2986,0:56.496.476,116.300 us,3 B,,SP,55,Read Transaction,00 00 18*
0,2987,0:56.500.869,79.100 us,2 B,,SP,55,Write Transaction,00 00
0,2988,0:56.506.221,86.600 us,2 B,,SP,55,Read Transaction,00 08*
0,2989,0:56.506.584,79.200 us,2 B,,SP,55,Write Transaction,12 01
0,2990,0:56.511.939,659.500 us,25 B,,SP,55,Read Transaction,00 00 00 00 00 02 76 64 00 00 00 00 00 00 00 00 00 00 00 00 00 00 01 03 00*
0,2991,0:56.520.505,676.500 us,26 B,,SP,55,Write Transaction,14 00 02 B5 AC 03 78 66 06 D2 3D 06 0A 40 00 00 00 00 00 00 FF BC 00 89 FC 37
0,2992,0:56.536.442,116.300 us,3 B,,SP,55,Read Transaction,00 00 18*
0,2993,0:56.540.835,79.100 us,2 B,,SP,55,Write Transaction,00 00
0,2994,0:56.546.185,86.800 us,2 B,,SP,55,Read Transaction,00 08*
0,2995,0:56.546.548,79.000 us,2 B,,SP,55,Write Transaction,12 01
0,2996,0:56.551.895,659.600 us,25 B,,SP,55,Read Transaction,00 00 00 00 00 02 76 64 00 00 00 00 00 00 00 00 00 00 00 00 00 00 01 03 00*
0,2997,0:56.560.360,676.500 us,26 B,,SP,55,Write Transaction,14 00 02 B3 E3 03 75 83 06 D2 74 06 0A A9 00 00 00 00 00 00 FF BF 00 8D FC 32
0,2998,0:56.576.298,116.200 us,3 B,,SP,55,Read Transaction,00 00 18*
0,2999,0:56.580.690,79.100 us,2 B,,SP,55,Write Transaction,00 00
0,3000,0:56.586.041,86.700 us,2 B,,SP,55,Read Transaction,00 08*
0,3001,0:56.586.403,79.100 us,2 B,,SP,55,Write Transaction,12 01
0,3002,0:56.591.753,659.600 us,25 B,,SP,55,Read Transaction,00 00 00 00 00 02 76 64 00 00 00 00 00 00 00 00 00 00 00 00 00 00 01 03 00*
0,3003,0:56.600.370,676.900 us,26 B,,SP,55,Write Transaction,14 00 02 B5 B8 03 7A 07 06 D3 F7 06 0B 63 00 00 00 00 00 00 FF BF 00 89 FC 30
0,3004,0:56.616.309,116.200 us,3 B,,SP,55,Read Transaction,00 00 18*
0,3005,0:56.620.699,79.000 us,2 B,,SP,55,Write Transaction,00 00
0,3006,0:56.626.053,86.700 us,2 B,,SP,55,Read Transaction,00 08*
0,3007,0:56.626.416,79.100 us,2 B,,SP,55,Write Transaction,12 01
0,3008,0:56.631.770,659.600 us,25 B,,SP,55,Read Transaction,00 00 00 00 00 02 76 64 00 00 00 00 00 00 00 00 00 00 00 00 00 00 01 03 00*
0,3009,0:56.640.254,677.100 us,26 B,,SP,55,Write Transaction,14 00 02 B7 2E 03 7F 4F 06 D4 CB 06 0B C2 00 00 00 00 00 00 FF BC 00 86 FC 31
0,3010,0:56.656.194,116.300 us,3 B,,SP,55,Read Transaction,00 00 18*
0,3011,0:56.660.588,79.200 us,2 B,,SP,55,Write Transaction,00 00
0,3012,0:56.665.943,86.700 us,2 B,,SP,55,Read Transaction,00 08*
0,3013,0:56.666.304,79.100 us,2 B,,SP,55,Write Transaction,12 01
0,3014,0:56.671.656,659.500 us,25 B,,SP,55,Read Transaction,00 00 00 00 00 02 76 64 00 00 00 00 00 00 00 00 00 00 00 00 00 00 01 03 00*
0,3015,0:56.680.217,676.900 us,26 B,,SP,55,Write Transaction,14 00 02 B8 9C 03 84 4F 06 D5 EC 06 0C 63 00 00 00 00 00 00 FF BB 00 8D FC 33
0,3016,0:56.696.158,116.200 us,3 B,,SP,55,Read Transaction,00 00 18*
0,3017,0:56.700.550,79.000 us,2 B,,SP,55,Write Transaction,00 00
0,3018,0:56.705.899,86.700 us,2 B,,SP,55,Read Transaction,00 08*
0,3019,0:56.706.262,79.100 us,2 B,,SP,55,Write Transaction,12 01
0,3020,0:56.711.610,659.600 us,25 B,,SP,55,Read Transaction,00 00 00 00 00 02 76 64 25 6C 64 00 00 00 00 00 00 00 00 00 00 00 01 03 00*
0,3021,0:56.720.968,676.800 us,26 B,,SP,55,Write Transaction,14 00 02 BB 7E 03 89 C2 06 D9 4F 06 0E B6 00 00 00 00 00 00 FF B8 00 8D FC 34
0,3022,0:56.736.912,116.300 us,3 B,,SP,55,Read Transaction,00 00 18*
0,3023,0:56.741.306,79.100 us,2 B,,SP,55,Write Transaction,00 00
0,3024,0:56.746.656,86.700 us,2 B,,SP,55,Read Transaction,00 08*
0,3025,0:56.747.016,79.100 us,2 B,,SP,55,Write Transaction,12 01
0,3026,0:56.752.372,659.600 us,25 B,,SP,55,Read Transaction,00 00 00 00 00 02 76 64 00 00 00 00 00 00 00 00 00 00 00 00 00 00 01 03 00*
0,3027,0:56.760.059,677.400 us,26 B,,SP,55,Write Transaction,14 00 02 BF 1D 03 90 48 06 DC 74 06 10 77 00 00 00 00 00 00 FF BC 00 90 FC 32
0,3028,0:56.776.008,116.300 us,3 B,,SP,55,Read Transaction,00 00 18*
0,3029,0:56.780.401,79.100 us,2 B,,SP,55,Write Transaction,00 00
0,3030,0:56.785.753,86.700 us,2 B,,SP,55,Read Transaction,00 08*
0,3031,0:56.786.115,79.000 us,2 B,,SP,55,Write Transaction,12 01
0,3032,0:56.791.466,660.500 us,25 B,,SP,55,Read Transaction,00 00 00 00 00 02 76 64 00 00 00 00 00 00 00 00 00 00 00 00 00 00 01 03 00*
0,3033,0:56.800.058,677.800 us,26 B,,SP,55,Write Transaction,14 00 02 C3 33 03 97 82 06 DF 7F 06 12 29 00 00 00 00 00 00 FF BA 00 8B FC 2D
0,3034,0:56.816.027,116.100 us,3 B,,SP,55,Read Transaction,00 00 18*
0,3035,0:56.820.420,79.100 us,2 B,,SP,55,Write Transaction,00 00
0,3036,0:56.825.768,86.700 us,2 B,,SP,55,Read Transaction,00 08*
0,3037,0:56.826.136,79.100 us,2 B,,SP,55,Write Transaction,12 01
0,3038,0:56.831.486,660.600 us,25 B,,SP,55,Read Transaction,00 00 00 00 00 02 76 64 00 00 00 00 00 00 00 00 00 00 00 00 00 00 01 03 00*
0,3039,0:56.839.952,676.900 us,26 B,,SP,55,Write Transaction,14 00 02 C8 04 03 9F 57 06 E3 93 06 14 76 00 00 00 00 00 00 FF C0 00 8D FC 33
0,3040,0:56.855.889,116.300 us,3 B,,SP,55,Read Transaction,00 00 18*
0,3041,0:56.860.287,79.200 us,2 B,,SP,55,Write Transaction,00 00
0,3042,0:56.865.639,86.700 us,2 B,,SP,55,Read Transaction,00 08*
0,3043,0:56.866.002,79.000 us,2 B,,SP,55,Write Transaction,12 01
0,3044,0:56.871.356,660.400 us,25 B,,SP,55,Read Transaction,00 00 00 00 00 02 76 64 00 00 00 00 00 00 00 00 00 00 00 00 00 00 01 03 00*
0,3045,0:56.879.968,676.900 us,26 B,,SP,55,Write Transaction,14 00 02 CB F1 03 A5 22 06 E6 6F 06 15 FA 00 00 00 00 00 00 FF BB 00 8C FC 2D
0,3046,0:56.895.942,116.500 us,3 B,,SP,55,Read Transaction,00 00 18*
0,3047,0:56.900.342,79.100 us,2 B,,SP,55,Write Transaction,00 00
0,3048,0:56.905.696,86.700 us,2 B,,SP,55,Read Transaction,00 08*
0,3049,0:56.906.059,79.100 us,2 B,,SP,55,Write Transaction,12 01
0,3050,0:56.911.413,659.600 us,25 B,,SP,55,Read Transaction,00 00 00 00 00 02 76 64 00 00 00 00 00 00 00 00 00 00 00 00 00 00 01 03 00*
0,3051,0:56.919.824,676.900 us,26 B,,SP,55,Write Transaction,14 00 02 CF 1F 03 A9 C8 06 E8 AC 06 17 16 00 00 00 00 00 00 FF BE 00 86 FC 30
0,3052,0:56.935.764,116.300 us,3 B,,SP,55,Read Transaction,00 00 18*
0,3053,0:56.940.161,79.200 us,2 B,,SP,55,Write Transaction,00 00
0,3054,0:56.945.514,86.800 us,2 B,,SP,55,Read Transaction,00 08*
0,3055,0:56.945.875,79.100 us,2 B,,SP,55,Write Transaction,12 01
0,3056,0:56.951.227,659.700 us,25 B,,SP,55,Read Transaction,00 00 00 00 00 02 76 64 00 00 00 00 00 00 00 00 00 00 00 00 00 00 01 03 00*
0,3057,0:56.959.818,676.900 us,26 B,,SP,55,Write Transaction,14 00 02 D2 18 03 AD 9F 06 EA 12 06 17 B8 00 00 00 00 00 00 FF BE 00 89 FC 35
0,3058,0:56.975.758,116.300 us,3 B,,SP,55,Read Transaction,00 00 18*
0,3059,0:56.980.151,79.000 us,2 B,,SP,55,Write Transaction,00 00
0,3060,0:56.985.501,86.700 us,2 B,,SP,55,Read Transaction,00 08*
0,3061,0:56.985.863,79.100 us,2 B,,SP,55,Write Transaction,12 01
0,3062,0:56.991.211,659.400 us,25 B,,SP,55,Read Transaction,00 00 00 00 00 02 76 64 00 00 00 00 00 00 00 00 00 00 00 00 00 00 01 03 00*
0,3063,0:56.999.696,676.900 us,26 B,,SP,55,Write Transaction,14 00 02 D4 98 03 B0 FA 06 EB C6 06 18 B9 00 00 00 00 00 00 FF BE 00 8F FC 30
0,3064,0:57.015.636,116.500 us,3 B,,SP,55,Read Transaction,00 00 18*
0,3065,0:57.020.036,79.100 us,2 B,,SP,55,Write Transaction,00 00
0,3066,0:57.025.385,86.700 us,2 B,,SP,55,Read Transaction,00 08*
0,3067,0:57.025.747,79.100 us,2 B,,SP,55,Write Transaction,12 01
0,3068,0:57.031.097,659.600 us,25 B,,SP,55,Read Transaction,00 00 00 00 00 02 76 64 00 00 00 00 00 00 00 00 00 00 00 00 00 00 01 03 00*
0,3069,0:57.039.692,676.900 us,26 B,,SP,55,Write Transaction,14 00 02 D7 F2 03 B5 A0 06 EE 59 06 1A 2B 00 00 00 00 00 00 FF C0 00 89 FC 32
0,3070,0:57.055.633,116.200 us,3 B,,SP,55,Read Transaction,00 00 18*
0,3071,0:57.060.025,79.100 us,2 B,,SP,55,Write Transaction,00 00
0,3072,0:57.065.381,86.600 us,2 B,,SP,55,Read Transaction,00 08*
0,3073,0:57.065.744,79.100 us,2 B,,SP,55,Write Transaction,12 01
0,3074,0:57.071.092,659.600 us,25 B,,SP,55,Read Transaction,00 00 00 00 00 02 76 64 00 00 00 00 00 00 00 00 00 00 00 00 00 00 01 03 00*
0,3075,0:57.079.580,676.900 us,26 B,,SP,55,Write Transaction,14 00 02 DA 98 03 B9 1B 06 EF 6C 06 1A 96 00 00 00 00 00 00 FF C0 00 8B FC 38
0,3076,0:57.095.519,116.300 us,3 B,,SP,55,Read Transaction,00 00 18*
0,3077,0:57.099.912,79.000 us,2 B,,SP,55,Write Transaction,00 00
0,3078,0:57.105.262,86.700 us,2 B,,SP,55,Read Transaction,00 08*
0,3079,0:57.105.622,79.100 us,2 B,,SP,55,Write Transaction,12 01
0,3080,0:57.110.995,659.600 us,25 B,,SP,55,Read Transaction,00 00 00 00 00 02 76 64 00 00 00 00 00 00 00 00 00 00 00 00 00 00 01 03 00*
0,3081,0:57.119.540,676.800 us,26 B,,SP,55,Write Transaction,14 00 02 DC DB 03 BC 8B 06 F0 54 06 1A FF 00 00 00 00 00 00 FF C1 00 88 FC 33
0,3082,0:57.135.486,116.500 us,3 B,,SP,55,Read Transaction,00 00 18*
0,3083,0:57.139.881,79.100 us,2 B,,SP,55,Write Transaction,00 00
0,3084,0:57.145.233,86.600 us,2 B,,SP,55,Read Transaction,00 08*
0,3085,0:57.145.596,79.100 us,2 B,,SP,55,Write Transaction,12 01
0,3086,0:57.150.945,659.700 us,25 B,,SP,55,Read Transaction,00 00 00 00 00 02 76 64 00 00 00 00 00 00 00 00 00 00 00 00 00 00 01 03 00*
0,3087,0:57.159.489,677.900 us,26 B,,SP,55,Write Transaction,14 00 02 DF 6E 03 BF FA 06 F2 43 06 1C 0F 00 00 00 00 00 00 FF C0 00 88 FC 3C
0,3088,0:57.175.431,116.300 us,3 B,,SP,55,Read Transaction,00 00 18*
0,3089,0:57.179.824,79.000 us,2 B,,SP,55,Write Transaction,00 00
0,3090,0:57.185.174,86.700 us,2 B,,SP,55,Read Transaction,00 08*
0,3091,0:57.185.537,79.100 us,2 B,,SP,55,Write Transaction,12 01
0,3092,0:57.190.885,659.600 us,25 B,,SP,55,Read Transaction,00 00 00 00 00 02 76 64 00 00 00 00 00 00 00 00 00 00 00 00 00 00 01 03 00*
0,3093,0:57.199.433,676.900 us,26 B,,SP,55,Write Transaction,14 00 02 E2 5C 03 C4 72 06 F4 06 06 1C F5 00 00 00 00 00 00 FF C3 00 8B FC 34
0,3094,0:57.215.371,116.300 us,3 B,,SP,55,Read Transaction,00 00 18*
0,3095,0:57.219.768,79.200 us,2 B,,SP,55,Write Transaction,00 00
0,3096,0:57.225.119,86.700 us,2 B,,SP,55,Read Transaction,00 08*
0,3097,0:57.225.480,79.100 us,2 B,,SP,55,Write Transaction,12 01
0,3098,0:57.230.828,659.600 us,25 B,,SP,55,Read Transaction,00 00 00 00 00 02 6C 64 00 00 00 00 00 00 00 00 00 00 00 00 00 00 01 03 00*
0,3099,0:57.239.390,676.900 us,26 B,,SP,55,Write Transaction,14 00 02 E6 1C 03 CB 04 06 F7 03 06 1E 88 00 00 00 00 00 00 FF B7 00 89 FC 30
0,3100,0:57.255.332,116.300 us,3 B,,SP,55,Read Transaction,00 00 18*
0,3101,0:57.259.724,79.100 us,2 B,,SP,55,Write Transaction,00 00
0,3102,0:57.265.075,86.700 us,2 B,,SP,55,Read Transaction,00 08*
0,3103,0:57.265.438,79.100 us,2 B,,SP,55,Write Transaction,12 01
0,3104,0:57.270.786,659.600 us,25 B,,SP,55,Read Transaction,00 00 00 00 00 02 6C 64 00 00 00 00 00 00 00 00 00 00 00 00 00 00 01 03 00*
0,3105,0:57.279.305,676.900 us,26 B,,SP,55,Write Transaction,14 00 02 E8 9A 03 CE 79 06 F6 D8 06 1D BC 00 00 00 00 00 00 FF C2 00 8C FC 33
0,3106,0:57.295.243,116.200 us,3 B,,SP,55,Read Transaction,00 00 18*
0,3107,0:57.299.637,79.000 us,2 B,,SP,55,Write Transaction,00 00
0,3108,0:57.304.992,86.800 us,2 B,,SP,55,Read Transaction,00 08*
0,3109,0:57.305.354,79.100 us,2 B,,SP,55,Write Transaction,12 01
0,3110,0:57.310.709,660.500 us,25 B,,SP,55,Read Transaction,00 00 00 00 00 02 6C 64 00 00 00 00 00 00 00 00 00 00 00 00 00 00 01 03 00*
0,3111,0:57.319.252,676.700 us,26 B,,SP,55,Write Transaction,14 00 02 E1 AD 03 BF AA 06 EE D3 06 19 5E 00 00 00 00 00 00 FF B9 00 8D FC 38
0,3112,0:57.335.191,116.200 us,3 B,,SP,55,Read Transaction,00 00 18*
0,3113,0:57.339.583,79.100 us,2 B,,SP,55,Write Transaction,00 00
0,3114,0:57.344.932,86.700 us,2 B,,SP,55,Read Transaction,00 08*
0,3115,0:57.345.295,79.100 us,2 B,,SP,55,Write Transaction,12 01
0,3116,0:57.350.642,659.500 us,25 B,,SP,55,Read Transaction,00 00 00 00 00 02 6C 64 00 00 00 00 00 00 00 00 00 00 00 00 00 00 01 03 00*
0,3117,0:57.359.185,676.900 us,26 B,,SP,55,Write Transaction,14 00 02 D1 83 03 A5 D7 06 E5 9D 06 15 09 00 00 00 00 00 00 FF C2 00 8B FC 2D
0,3118,0:57.375.126,116.300 us,3 B,,SP,55,Read Transaction,00 00 18*
0,3119,0:57.379.520,79.100 us,2 B,,SP,55,Write Transaction,00 00
0,3120,0:57.384.868,86.700 us,2 B,,SP,55,Read Transaction,00 08*
0,3121,0:57.385.229,79.200 us,2 B,,SP,55,Write Transaction,12 01
0,3122,0:57.390.580,659.500 us,25 B,,SP,55,Read Transaction,00 00 00 00 00 02 6C 64 00 00 00 00 00 00 00 00 00 00 00 00 00 00 01 03 00*
0,3123,0:57.400.403,676.900 us,26 B,,SP,55,Write Transaction,14 00 02 C2 F7 03 8E 41 06 DD AB 06 11 06 00 00 00 00 00 00 FF C0 00 8A FC 37
0,3124,0:57.416.343,116.300 us,3 B,,SP,55,Read Transaction,00 00 18*
0,3125,0:57.420.733,79.100 us,2 B,,SP,55,Write Transaction,00 00
0,3126,0:57.426.086,86.700 us,2 B,,SP,55,Read Transaction,00 08*
0,3127,0:57.426.448,79.100 us,2 B,,SP,55,Write Transaction,12 01
0,3128,0:57.431.798,659.600 us,25 B,,SP,55,Read Transaction,00 00 00 00 00 02 6C 64 00 00 00 00 00 00 00 00 00 00 00 00 00 00 01 03 00*
0,3129,0:57.439.081,676.800 us,26 B,,SP,55,Write Transaction,14 00 02 BA 5F 03 7E 29 06 D9 D8 06 0F 83 00 00 00 00 00 00 FF BE 00 8E FC 30
0,3130,0:57.455.023,116.400 us,3 B,,SP,55,Read Transaction,00 00 18*
0,3131,0:57.459.418,79.100 us,2 B,,SP,55,Write Transaction,00 00
0,3132,0:57.464.786,86.700 us,2 B,,SP,55,Read Transaction,00 08*
0,3133,0:57.465.150,79.100 us,2 B,,SP,55,Write Transaction,12 01
0,3134,0:57.470.498,659.600 us,25 B,,SP,55,Read Transaction,00 00 00 00 00 02 6C 64 00 00 00 00 00 00 00 00 00 00 00 00 00 00 01 03 00*
0,3135,0:57.478.988,676.800 us,26 B,,SP,55,Write Transaction,14 00 02 B4 6D 03 71 D6 06 D6 28 06 0D 88 00 00 00 00 00 00 FF BE 00 88 FC 34
0,3136,0:57.494.926,116.100 us,3 B,,SP,55,Read Transaction,00 00 18*
0,3137,0:57.499.315,79.000 us,2 B,,SP,55,Write Transaction,00 00
0,3138,0:57.504.666,86.600 us,2 B,,SP,55,Read Transaction,00 08*
0,3139,0:57.505.028,79.000 us,2 B,,SP,55,Write Transaction,12 01
0,3140,0:57.510.379,659.700 us,25 B,,SP,55,Read Transaction,00 00 00 00 00 02 6C 64 00 00 00 00 00 00 00 00 00 00 00 00 00 00 01 03 00*
0,3141,0:57.518.980,677.100 us,26 B,,SP,55,Write Transaction,14 00 02 AF 5C 03 68 69 06 D1 99 06 0A AE 00 00 00 00 00 00 FF BE 00 8D FC 30
0,3142,0:57.534.918,116.300 us,3 B,,SP,55,Read Transaction,00 00 18*
0,3143,0:57.539.311,79.100 us,2 B,,SP,55,Write Transaction,00 00
0,3144,0:57.544.661,86.700 us,2 B,,SP,55,Read Transaction,00 08*
0,3145,0:57.545.023,79.100 us,2 B,,SP,55,Write Transaction,12 01
0,3146,0:57.550.371,659.500 us,25 B,,SP,55,Read Transaction,00 00 00 00 00 02 6C 64 00 00 00 00 00 00 00 00 00 00 00 00 00 00 01 03 00*
0,3147,0:57.558.862,676.800 us,26 B,,SP,55,Write Transaction,14 00 02 AF C9 03 6A 70 06 D1 69 06 0A 66 00 00 00 00 00 00 FF B9 00 8D FC 30
0,3148,0:57.574.802,116.300 us,3 B,,SP,55,Read Transaction,00 00 18*
0,3149,0:57.579.195,79.100 us,2 B,,SP,55,Write Transaction,00 00
0,3150,0:57.584.544,86.700 us,2 B,,SP,55,Read Transaction,00 08*
0,3151,0:57.584.905,79.000 us,2 B,,SP,55,Write Transaction,12 01
0,3152,0:57.590.255,660.600 us,25 B,,SP,55,Read Transaction,00 00 00 00 00 02 6C 64 00 00 00 00 00 00 00 00 00 00 00 00 00 00 01 03 00*
0,3153,0:57.598.873,676.900 us,26 B,,SP,55,Write Transaction,14 00 02 B1 5B 03 6E 87 06 D2 94 06 0B 2C 00 00 00 00 00 00 FF BF 00 88 FC 3B
0,3154,0:57.614.816,116.300 us,3 B,,SP,55,Read Transaction,00 00 18*
0,3155,0:57.619.210,79.100 us,2 B,,SP,55,Write Transaction,00 00
0,3156,0:57.624.560,86.700 us,2 B,,SP,55,Read Transaction,00 08*
0,3157,0:57.624.922,79.000 us,2 B,,SP,55,Write Transaction,12 01
0,3158,0:57.630.270,659.600 us,25 B,,SP,55,Read Transaction,00 00 00 00 00 02 6C 64 00 00 00 00 00 00 00 00 00 00 00 00 00 00 01 03 00*
0,3159,0:57.638.735,676.900 us,26 B,,SP,55,Write Transaction,14 00 02 B1 6F 03 6F DB 06 D2 C1 06 0B 66 00 00 00 00 00 00 FF BF 00 87 FC 32
0,3160,0:57.654.674,116.200 us,3 B,,SP,55,Read Transaction,00 00 18*
0,3161,0:57.659.067,79.100 us,2 B,,SP,55,Write Transaction,00 00
0,3162,0:57.664.417,86.700 us,2 B,,SP,55,Read Transaction,00 08*
0,3163,0:57.664.778,79.000 us,2 B,,SP,55,Write Transaction,12 01
0,3164,0:57.670.129,659.500 us,25 B,,SP,55,Read Transaction,00 00 00 00 00 02 6C 64 26 4C 64 00 00 00 00 00 00 00 00 00 00 00 01 03 00*
0,3165,0:57.678.728,677.800 us,26 B,,SP,55,Write Transaction,14 00 02 B1 DA 03 71 C5 06 D3 8D 06 0C 05 00 00 00 00 00 00 FF BF 00 8D FC 36
0,3166,0:57.694.679,116.400 us,3 B,,SP,55,Read Transaction,00 00 18*
0,3167,0:57.699.077,79.200 us,2 B,,SP,55,Write Transaction,00 00
0,3168,0:57.704.431,86.700 us,2 B,,SP,55,Read Transaction,00 08*
0,3169,0:57.704.793,79.000 us,2 B,,SP,55,Write Transaction,12 01
0,3170,0:57.710.144,659.700 us,25 B,,SP,55,Read Transaction,00 00 00 00 00 02 6C 64 00 00 00 00 00 00 00 00 00 00 00 00 00 00 01 03 00*
0,3171,0:57.718.642,676.900 us,26 B,,SP,55,Write Transaction,14 00 02 B3 A9 03 75 7F 06 D6 24 06 0D EE 00 00 00 00 00 00 FF BD 00 83 FC 39
0,3172,0:57.734.581,116.100 us,3 B,,SP,55,Read Transaction,00 00 18*
0,3173,0:57.738.975,79.100 us,2 B,,SP,55,Write Transaction,00 00
0,3174,0:57.744.325,86.700 us,2 B,,SP,55,Read Transaction,00 08*
0,3175,0:57.744.686,79.100 us,2 B,,SP,55,Write Transaction,12 01
0,3176,0:57.750.037,659.500 us,25 B,,SP,55,Read Transaction,00 00 00 00 00 02 6C 64 00 00 00 00 00 00 00 00 00 00 00 00 00 00 01 03 00*
0,3177,0:57.758.589,676.900 us,26 B,,SP,55,Write Transaction,14 00 02 B6 57 03 7B 4D 06 D8 6A 06 0F 36 00 00 00 00 00 00 FF BD 00 87 FC 31
0,3178,0:57.774.533,116.200 us,3 B,,SP,55,Read Transaction,00 00 18*
0,3179,0:57.778.926,79.000 us,2 B,,SP,55,Write Transaction,00 00
0,3180,0:57.784.276,86.600 us,2 B,,SP,55,Read Transaction,00 08*
0,3181,0:57.784.638,79.100 us,2 B,,SP,55,Write Transaction,12 01
0,3182,0:57.789.993,659.600 us,25 B,,SP,55,Read Transaction,00 00 00 00 00 02 6C 64 00 00 00 00 00 00 00 00 00 00 00 00 00 00 01 03 00*
0,3183,0:57.798.525,676.900 us,26 B,,SP,55,Write Transaction,14 00 02 BA 25 03 82 81 06 DB D1 06 11 48 00 00 00 00 00 00 FF B9 00 85 FC 37
0,3184,0:57.814.462,116.200 us,3 B,,SP,55,Read Transaction,00 00 18*
0,3185,0:57.818.857,79.100 us,2 B,,SP,55,Write Transaction,00 00
0,3186,0:57.824.206,86.700 us,2 B,,SP,55,Read Transaction,00 08*
0,3187,0:57.824.568,79.100 us,2 B,,SP,55,Write Transaction,12 01
0,3188,0:57.829.916,659.500 us,25 B,,SP,55,Read Transaction,00 00 00 00 00 02 6C 64 00 00 00 00 00 00 00 00 00 00 00 00 00 00 01 03 00*
0,3189,0:57.838.448,677.000 us,26 B,,SP,55,Write Transaction,14 00 02 BE 4F 03 89 C5 06 DF 5E 06 13 3B 00 00 00 00 00 00 FF BD 00 8A FC 32
0,3190,0:57.854.387,116.300 us,3 B,,SP,55,Read Transaction,00 00 18*
0,3191,0:57.858.834,79.200 us,2 B,,SP,55,Write Transaction,00 00
0,3192,0:57.864.186,86.700 us,2 B,,SP,55,Read Transaction,00 08*
0,3193,0:57.864.547,79.100 us,2 B,,SP,55,Write Transaction,12 01
0,3194,0:57.869.897,659.500 us,25 B,,SP,55,Read Transaction,00 00 00 00 00 02 6C 64 00 00 00 00 00 00 00 00 00 00 00 00 00 00 01 03 00*
0,3195,0:57.878.395,676.900 us,26 B,,SP,55,Write Transaction,14 00 02 C2 93 03 91 42 06 E2 00 06 14 8F 00 00 00 00 00 00 FF BD 00 88 FC 33
0,3196,0:57.894.334,116.300 us,3 B,,SP,55,Read Transaction,00 00 18*
0,3197,0:57.898.726,79.000 us,2 B,,SP,55,Write Transaction,00 00
0,3198,0:57.904.081,86.700 us,2 B,,SP,55,Read Transaction,00 08*
0,3199,0:57.904.444,79.100 us,2 B,,SP,55,Write Transaction,12 01
0,3200,0:57.909.793,659.600 us,25 B,,SP,55,Read Transaction,00 00 00 00 00 02 6C 64 00 00 00 00 00 00 00 00 00 00 00 00 00 00 01 03 00*
0,3201,0:57.918.326,676.600 us,26 B,,SP,55,Write Transaction,14 00 02 C6 73 03 97 11 06 E5 2C 06 16 7B 00 00 00 00 00 00 FF BE 00 87 FC 3A
0,3202,0:57.934.265,116.200 us,3 B,,SP,55,Read Transaction,00 00 18*
0,3203,0:57.938.659,79.100 us,2 B,,SP,55,Write Transaction,00 00
0,3204,0:57.944.011,86.700 us,2 B,,SP,55,Read Transaction,00 08*
0,3205,0:57.944.373,79.100 us,2 B,,SP,55,Write Transaction,12 01
0,3206,0:57.949.723,659.600 us,25 B,,SP,55,Read Transaction,00 00 00 00 00 02 6C 64 00 00 00 00 00 00 00 00 00 00 00 00 00 00 01 03 00*
0,3207,0:57.958.322,676.900 us,26 B,,SP,55,Write Transaction,14 00 02 CA 23 03 9C 57 06 E8 2D 06 18 41 00 00 00 00 00 00 FF BB 00 88 FC 38
0,3208,0:57.974.264,116.200 us,3 B,,SP,55,Read Transaction,00 00 18*
0,3209,0:57.978.658,79.100 us,2 B,,SP,55,Write Transaction,00 00
0,3210,0:57.984.015,86.700 us,2 B,,SP,55,Read Transaction,00 08*
0,3211,0:57.984.377,79.100 us,2 B,,SP,55,Write Transaction,12 01
0,3212,0:57.989.725,659.600 us,25 B,,SP,55,Read Transaction,00 00 00 00 00 02 6C 64 00 00 00 00 00 00 00 00 00 00 00 00 00 00 01 03 00*
0,3213,0:57.998.174,676.800 us,26 B,,SP,55,Write Transaction,14 00 02 CE 1E 03 A1 A7 06 EB F9 06 1A AB 00 00 00 00 00 00 FF BD 00 84 FC 34
0,3214,0:58.014.114,116.200 us,3 B,,SP,55,Read Transaction,00 00 18*
0,3215,0:58.018.508,79.000 us,2 B,,SP,55,Write Transaction,00 00
0,3216,0:58.023.857,86.700 us,2 B,,SP,55,Read Transaction,00 08*
0,3217,0:58.024.219,79.000 us,2 B,,SP,55,Write Transaction,12 01
0,3218,0:58.029.571,660.400 us,25 B,,SP,55,Read Transaction,00 00 00 00 00 02 6C 64 00 00 00 00 00 00 00 00 00 00 00 00 00 00 01 03 00*
0,3219,0:58.038.150,676.700 us,26 B,,SP,55,Write Transaction,14 00 02 D1 A6 03 A6 84 06 EE 9F 06 1C 06 00 00 00 00 00 00 FF BC 00 88 FC 31
0,3220,0:58.054.087,116.300 us,3 B,,SP,55,Read Transaction,00 00 18*
0,3221,0:58.058.479,79.000 us,2 B,,SP,55,Write Transaction,00 00
0,3222,0:58.063.830,86.700 us,2 B,,SP,55,Read Transaction,00 08*
0,3223,0:58.064.192,79.100 us,2 B,,SP,55,Write Transaction,12 01
0,3224,0:58.069.542,659.100 us,25 B,,SP,55,Read Transaction,00 00 00 00 00 02 6C 64 00 00 00 00 00 00 00 00 00 00 00 00 00 00 01 03 00*
0,3225,0:58.078.092,676.800 us,26 B,,SP,55,Write Transaction,14 00 02 D4 A2 03 AA 3A 06 F0 52 06 1C EB 00 00 00 00 00 00 FF C0 00 89 FC 2F
0,3226,0:58.094.034,116.300 us,3 B,,SP,55,Read Transaction,00 00 18*
0,3227,0:58.098.428,79.100 us,2 B,,SP,55,Write Transaction,00 00
0,3228,0:58.103.787,86.700 us,2 B,,SP,55,Read Transaction,00 08*
0,3229,0:58.104.149,79.100 us,2 B,,SP,55,Write Transaction,12 01
0,3230,0:58.109.502,659.600 us,25 B,,SP,55,Read Transaction,00 00 00 00 00 02 6C 64 00 00 00 00 00 00 00 00 00 00 00 00 00 00 01 03 00*
0,3231,0:58.118.034,676.800 us,26 B,,SP,55,Write Transaction,14 00 02 D7 E2 03 AF 40 06 F2 5F 06 1D FD 00 00 00 00 00 00 FF C0 00 86 FC 2C
0,3232,0:58.133.971,116.100 us,3 B,,SP,55,Read Transaction,00 00 18*
0,3233,0:58.138.367,79.000 us,2 B,,SP,55,Write Transaction,00 00
0,3234,0:58.143.721,86.700 us,2 B,,SP,55,Read Transaction,00 08*
0,3235,0:58.144.083,79.000 us,2 B,,SP,55,Write Transaction,12 01
0,3236,0:58.149.433,659.600 us,25 B,,SP,55,Read Transaction,00 00 00 00 00 02 6C 64 00 00 00 00 00 00 00 00 00 00 00 00 00 00 01 03 00*
0,3237,0:58.157.975,676.800 us,26 B,,SP,55,Write Transaction,14 00 02 DB 9B 03 B4 AA 06 F5 DB 06 20 3A 00 00 00 00 00 00 FF BF 00 84 FC 34
0,3238,0:58.173.915,116.300 us,3 B,,SP,55,Read Transaction,00 00 18*
0,3239,0:58.178.311,79.100 us,2 B,,SP,55,Write Transaction,00 00
0,3240,0:58.183.665,86.700 us,2 B,,SP,55,Read Transaction,00 08*
0,3241,0:58.184.027,79.100 us,2 B,,SP,55,Write Transaction,12 01
0,3242,0:58.189.376,659.600 us,25 B,,SP,55,Read Transaction,00 00 00 00 00 02 6C 64 00 00 00 00 00 00 00 00 00 00 00 00 00 00 01 03 00*
0,3243,0:58.198.439,676.900 us,26 B,,SP,55,Write Transaction,14 00 02 DF FB 03 BB C2 06 F8 F7 06 21 E0 00 00 00 00 00 00 FF BD 00 89 FC 32
0,3244,0:58.214.392,116.300 us,3 B,,SP,55,Read Transaction,00 00 18*
0,3245,0:58.218.787,79.000 us,2 B,,SP,55,Write Transaction,00 00
0,3246,0:58.224.141,86.800 us,2 B,,SP,55,Read Transaction,00 08*
0,3247,0:58.224.503,79.200 us,2 B,,SP,55,Write Transaction,12 01
0,3248,0:58.229.861,660.500 us,25 B,,SP,55,Read Transaction,00 00 00 00 00 02 6C 64 00 00 00 00 00 00 63 00 00 E4 00 00 00 00 01 03 00*
0,3249,0:58.237.864,676.500 us,26 B,,SP,55,Write Transaction,14 00 02 E1 C7 03 BD 5B 06 F7 D0 06 20 A0 00 00 00 00 00 00 FF C0 00 84 FC 30
0,3250,0:58.253.812,116.200 us,3 B,,SP,55,Read Transaction,00 00 18*
0,3251,0:58.258.210,79.200 us,2 B,,SP,55,Write Transaction,00 00
0,3252,0:58.263.565,86.700 us,2 B,,SP,55,Read Transaction,00 08*
0,3253,0:58.263.928,79.100 us,2 B,,SP,55,Write Transaction,12 01
0,3254,0:58.269.276,659.500 us,25 B,,SP,55,Read Transaction,00 00 00 00 00 02 6C 64 00 00 00 00 02 6F 63 03 CD 00 00 00 00 00 01 03 00*
0,3255,0:58.277.800,676.900 us,26 B,,SP,55,Write Transaction,14 00 02 D9 89 03 AC A7 06 EF 46 06 1C 07 00 00 00 00 00 00 FF BE 00 8A FC 35
0,3256,0:58.293.737,116.200 us,3 B,,SP,55,Read Transaction,00 00 18*
0,3257,0:58.298.130,79.000 us,2 B,,SP,55,Write Transaction,00 00
0,3258,0:58.303.479,86.700 us,2 B,,SP,55,Read Transaction,00 08*
0,3259,0:58.303.841,79.000 us,2 B,,SP,55,Write Transaction,12 01
0,3260,0:58.309.191,659.500 us,25 B,,SP,55,Read Transaction,00 00 00 00 00 02 6C 64 00 00 00 00 02 6F 63 03 CD 00 00 00 00 00 01 03 00*
0,3261,0:58.317.744,676.800 us,26 B,,SP,55,Write Transaction,14 00 02 CA 1A 03 92 DD 06 E5 AF 06 17 6D 00 00 00 00 00 00 FF BE 00 8C FC 36
0,3262,0:58.333.683,116.300 us,3 B,,SP,55,Read Transaction,00 00 18*
0,3263,0:58.338.076,79.000 us,2 B,,SP,55,Write Transaction,00 00
0,3264,0:58.343.427,86.800 us,2 B,,SP,55,Read Transaction,00 08*
0,3265,0:58.343.790,79.200 us,2 B,,SP,55,Write Transaction,12 01
0,3266,0:58.349.147,659.600 us,25 B,,SP,55,Read Transaction,00 00 00 00 00 02 6C 64 00 00 00 00 02 6F 63 03 CD 00 00 00 00 00 01 03 00*
0,3267,0:58.357.724,676.900 us,26 B,,SP,55,Write Transaction,14 00 02 BE FB 03 7F 95 06 DF 2D 06 14 4D 00 00 00 00 00 00 FF BF 00 84 FC 30
0,3268,0:58.373.664,116.300 us,3 B,,SP,55,Read Transaction,00 00 18*
0,3269,0:58.378.059,79.100 us,2 B,,SP,55,Write Transaction,00 00
0,3270,0:58.383.414,86.700 us,2 B,,SP,55,Read Transaction,00 08*
0,3271,0:58.383.777,79.100 us,2 B,,SP,55,Write Transaction,12 01
0,3272,0:58.389.127,659.400 us,25 B,,SP,55,Read Transaction,00 00 00 00 00 02 6C 64 00 00 00 00 02 6F 63 03 CD 00 00 00 00 00 01 03 00*
0,3273,0:58.397.572,676.800 us,26 B,,SP,55,Write Transaction,14 00 02 B9 24 03 74 50 06 DC 46 06 13 35 00 00 00 00 00 00 FF BF 00 8C FC 30
0,3274,0:58.413.510,116.300 us,3 B,,SP,55,Read Transaction,00 00 18*
0,3275,0:58.417.902,79.100 us,2 B,,SP,55,Write Transaction,00 00
0,3276,0:58.423.252,86.800 us,2 B,,SP,55,Read Transaction,00 08*
0,3277,0:58.423.615,79.200 us,2 B,,SP,55,Write Transaction,12 01
0,3278,0:58.428.968,659.600 us,25 B,,SP,55,Read Transaction,00 00 00 00 00 02 6C 64 00 00 00 00 02 6F 63 03 CD 00 00 00 00 00 01 03 00*
0,3279,0:58.437.627,676.600 us,26 B,,SP,55,Write Transaction,14 00 02 B5 71 03 6C CF 06 D9 FC 06 12 33 00 00 00 00 00 00 FF BD 00 88 FC 37
0,3280,0:58.453.577,116.200 us,3 B,,SP,55,Read Transaction,00 00 18*
0,3281,0:58.457.977,79.200 us,2 B,,SP,55,Write Transaction,00 00
0,3282,0:58.463.329,86.700 us,2 B,,SP,55,Read Transaction,00 08*
0,3283,0:58.463.691,79.100 us,2 B,,SP,55,Write Transaction,12 01
0,3284,0:58.469.038,659.500 us,25 B,,SP,55,Read Transaction,00 00 00 00 00 02 6C 64 00 00 00 00 02 6F 63 03 CD 00 00 00 00 00 01 03 00*
0,3285,0:58.477.473,677.800 us,26 B,,SP,55,Write Transaction,14 00 02 B4 56 03 6B 2E 06 D9 3F 06 11 EF 00 00 00 00 00 00 FF BA 00 88 FC 35
0,3286,0:58.493.420,116.300 us,3 B,,SP,55,Read Transaction,00 00 18*
0,3287,0:58.497.812,79.100 us,2 B,,SP,55,Write Transaction,00 00
0,3288,0:58.503.161,86.700 us,2 B,,SP,55,Read Transaction,00 08*
0,3289,0:58.503.522,79.100 us,2 B,,SP,55,Write Transaction,12 01
0,3290,0:58.508.872,659.500 us,25 B,,SP,55,Read Transaction,00 00 00 00 00 02 6C 64 00 00 00 00 02 6F 63 03 CD 00 00 00 00 00 01 03 00*
0,3291,0:58.517.458,676.900 us,26 B,,SP,55,Write Transaction,14 00 02 B7 7B 03 71 94 06 DB 9A 06 13 51 00 00 00 00 00 00 FF BD 00 84 FC 2F
0,3292,0:58.533.411,116.200 us,3 B,,SP,55,Read Transaction,00 00 18*
0,3293,0:58.537.802,79.100 us,2 B,,SP,55,Write Transaction,00 00
0,3294,0:58.543.152,86.700 us,2 B,,SP,55,Read Transaction,00 08*
0,3295,0:58.543.514,79.100 us,2 B,,SP,55,Write Transaction,12 01
0,3296,0:58.548.863,659.600 us,25 B,,SP,55,Read Transaction,00 00 00 00 00 02 6C 64 00 00 00 00 02 6F 63 03 CD 00 00 00 00 00 01 03 00*
0,3297,0:58.557.349,677.600 us,26 B,,SP,55,Write Transaction,14 00 02 BA 43 03 78 0B 06 DD C1 06 14 E0 00 00 00 00 00 00 FF BF 00 89 FC 33
0,3298,0:58.573.292,116.300 us,3 B,,SP,55,Read Transaction,00 00 18*
0,3299,0:58.577.685,79.100 us,2 B,,SP,55,Write Transaction,00 00
0,3300,0:58.583.035,86.700 us,2 B,,SP,55,Read Transaction,00 08*
0,3301,0:58.583.396,79.100 us,2 B,,SP,55,Write Transaction,12 01
0,3302,0:58.588.747,659.600 us,25 B,,SP,55,Read Transaction,00 00 00 00 00 02 6C 64 00 00 00 00 02 6F 63 03 CD 00 00 00 00 00 01 03 00*
0,3303,0:58.597.354,676.800 us,26 B,,SP,55,Write Transaction,14 00 02 BC DB 03 7E 0F 06 DF E9 06 16 35 00 00 00 00 00 00 FF C0 00 86 FC 36
0,3304,0:58.613.293,116.300 us,3 B,,SP,55,Read Transaction,00 00 18*
0,3305,0:58.617.684,79.100 us,2 B,,SP,55,Write Transaction,00 00
0,3306,0:58.623.035,86.600 us,2 B,,SP,55,Read Transaction,00 08*
0,3307,0:58.623.397,79.100 us,2 B,,SP,55,Write Transaction,12 01
0,3308,0:58.628.750,660.600 us,25 B,,SP,55,Read Transaction,00 00 00 00 00 02 6C 64 00 00 00 00 02 6F 63 03 CD 00 00 00 00 00 01 03 00*
0,3309,0:58.637.224,676.900 us,26 B,,SP,55,Write Transaction,14 00 02 BF 6F 03 84 73 06 E0 F7 06 16 8A 00 00 00 00 00 00 FF C2 00 82 FC 32
0,3310,0:58.653.164,116.300 us,3 B,,SP,55,Read Transaction,00 00 18*
0,3311,0:58.657.559,79.100 us,2 B,,SP,55,Write Transaction,00 00
0,3312,0:58.662.910,86.700 us,2 B,,SP,55,Read Transaction,00 08*
0,3313,0:58.663.271,79.000 us,2 B,,SP,55,Write Transaction,12 01
0,3314,0:58.668.622,659.600 us,25 B,,SP,55,Read Transaction,00 00 00 00 00 02 6C 64 26 D8 64 00 02 6F 63 03 CD 00 00 00 00 00 01 03 00*
0,3315,0:58.677.257,676.900 us,26 B,,SP,55,Write Transaction,14 00 02 C3 58 03 8B D7 06 E4 11 06 18 82 00 00 00 00 00 00 FF BB 00 87 FC 30
0,3316,0:58.693.202,116.400 us,3 B,,SP,55,Read Transaction,00 00 18*
0,3317,0:58.697.596,79.100 us,2 B,,SP,55,Write Transaction,00 00
0,3318,0:58.702.947,86.800 us,2 B,,SP,55,Read Transaction,00 08*
0,3319,0:58.703.310,79.200 us,2 B,,SP,55,Write Transaction,12 01
0,3320,0:58.708.662,659.600 us,25 B,,SP,55,Read Transaction,00 00 00 00 00 02 6C 64 00 00 00 00 02 6F 63 03 CD 00 00 00 00 00 01 03 00*
0,3321,0:58.717.137,676.900 us,26 B,,SP,55,Write Transaction,14 00 02 C8 79 03 94 B7 06 E8 4B 06 1A ED 00 00 00 00 00 00 FF B6 00 88 FC 3D
0,3322,0:58.733.078,116.300 us,3 B,,SP,55,Read Transaction,00 00 18*
0,3323,0:58.737.472,79.100 us,2 B,,SP,55,Write Transaction,00 00
0,3324,0:58.742.823,86.600 us,2 B,,SP,55,Read Transaction,00 08*
0,3325,0:58.743.186,79.000 us,2 B,,SP,55,Write Transaction,12 01
0,3326,0:58.748.535,659.500 us,25 B,,SP,55,Read Transaction,00 00 00 00 00 02 6C 64 00 00 00 00 02 6F 63 03 CD 00 00 00 00 00 01 03 00*
0,3327,0:58.757.087,676.800 us,26 B,,SP,55,Write Transaction,14 00 02 CD 3E 03 9C DC 06 EC 1D 06 1D 1E 00 00 00 00 00 00 FF BF 00 8A FC 31
0,3328,0:58.773.028,116.400 us,3 B,,SP,55,Read Transaction,00 00 18*
0,3329,0:58.777.443,79.100 us,2 B,,SP,55,Write Transaction,00 00
0,3330,0:58.782.794,86.600 us,2 B,,SP,55,Read Transaction,00 08*
0,3331,0:58.783.156,79.100 us,2 B,,SP,55,Write Transaction,12 01
0,3332,0:58.788.507,659.600 us,25 B,,SP,55,Read Transaction,00 00 00 00 00 02 6C 64 00 00 00 00 02 6F 63 03 CD 00 00 00 00 00 01 03 00*
0,3333,0:58.797.072,677.800 us,26 B,,SP,55,Write Transaction,14 00 02 D2 69 03 A5 12 06 F0 9B 06 1F BE 00 00 00 00 00 00 FF BF 00 83 FC 2C
0,3334,0:58.813.025,116.300 us,3 B,,SP,55,Read Transaction,00 00 18*
0,3335,0:58.817.422,79.100 us,2 B,,SP,55,Write Transaction,00 00
0,3336,0:58.822.772,86.700 us,2 B,,SP,55,Read Transaction,00 08*
0,3337,0:58.823.135,79.000 us,2 B,,SP,55,Write Transaction,12 01
0,3338,0:58.828.483,659.600 us,25 B,,SP,55,Read Transaction,00 00 00 00 00 02 6C 64 00 00 00 00 02 6F 63 03 CD 00 00 00 00 00 01 03 00*
0,3339,0:58.836.963,676.800 us,26 B,,SP,55,Write Transaction,14 00 02 D7 0F 03 AC 7D 06 F4 05 06 21 96 00 00 00 00 00 00 FF C1 00 86 FC 35
0,3340,0:58.852.902,116.300 us,3 B,,SP,55,Read Transaction,00 00 18*
0,3341,0:58.857.296,79.100 us,2 B,,SP,55,Write Transaction,00 00
0,3342,0:58.862.646,86.700 us,2 B,,SP,55,Read Transaction,00 08*
0,3343,0:58.863.008,79.100 us,2 B,,SP,55,Write Transaction,12 01
0,3344,0:58.868.357,659.500 us,25 B,,SP,55,Read Transaction,00 00 00 00 00 02 6C 64 00 00 00 00 02 6F 63 03 CD 00 00 00 00 00 01 03 00*
0,3345,0:58.876.907,676.800 us,26 B,,SP,55,Write Transaction,14 00 02 DB C9 03 B3 A5 06 F7 92 06 23 B8 00 00 00 00 00 00 FF C2 00 86 FC 30
0,3346,0:58.892.848,116.300 us,3 B,,SP,55,Read Transaction,00 00 18*
0,3347,0:58.897.241,79.000 us,2 B,,SP,55,Write Transaction,00 00
0,3348,0:58.902.591,86.700 us,2 B,,SP,55,Read Transaction,00 08*
0,3349,0:58.902.954,79.100 us,2 B,,SP,55,Write Transaction,12 01
0,3350,0:58.908.301,659.500 us,25 B,,SP,55,Read Transaction,00 00 00 00 00 02 6C 64 00 00 00 00 02 6F 63 03 CD 00 00 00 00 00 01 03 00*
0,3351,0:58.916.835,676.800 us,26 B,,SP,55,Write Transaction,14 00 02 E0 1B 03 BA 4F 06 FA FF 06 25 9D 00 00 00 00 00 00 FF C3 00 8A FC 35
0,3352,0:58.932.778,116.300 us,3 B,,SP,55,Read Transaction,00 00 18*
0,3353,0:58.937.171,79.000 us,2 B,,SP,55,Write Transaction,00 00
0,3354,0:58.942.518,86.700 us,2 B,,SP,55,Read Transaction,00 08*
0,3355,0:58.942.879,79.100 us,2 B,,SP,55,Write Transaction,12 01
0,3356,0:58.948.228,659.300 us,25 B,,SP,55,Read Transaction,00 00 00 00 00 02 6C 64 00 00 00 00 02 6F 63 03 CD 00 00 00 00 00 01 03 00*
0,3357,0:58.956.753,676.800 us,26 B,,SP,55,Write Transaction,14 00 02 E4 A8 03 C2 76 06 FE 37 06 27 2F 00 00 00 00 00 00 FF BD 00 8B FC 37
0,3358,0:58.972.700,116.300 us,3 B,,SP,55,Read Transaction,00 00 18*
0,3359,0:58.977.092,79.100 us,2 B,,SP,55,Write Transaction,00 00
0,3360,0:58.982.440,86.600 us,2 B,,SP,55,Read Transaction,00 08*
0,3361,0:58.982.803,79.000 us,2 B,,SP,55,Write Transaction,12 01
0,3362,0:58.988.152,659.500 us,25 B,,SP,55,Read Transaction,00 00 00 00 00 02 6C 64 00 00 00 00 02 6F 63 03 CD 00 00 00 00 00 01 03 00*
0,3363,0:58.996.768,676.800 us,26 B,,SP,55,Write Transaction,14 00 02 E9 05 03 C9 03 07 01 60 06 28 E3 00 00 00 00 00 00 FF C2 00 88 FC 36
0,3364,0:59.012.710,116.400 us,3 B,,SP,55,Read Transaction,00 00 18*
0,3365,0:59.017.110,79.100 us,2 B,,SP,55,Write Transaction,00 00
0,3366,0:59.022.473,86.700 us,2 B,,SP,55,Read Transaction,00 08*
0,3367,0:59.022.837,79.100 us,2 B,,SP,55,Write Transaction,12 01
0,3368,0:59.028.185,659.500 us,25 B,,SP,55,Read Transaction,00 00 00 00 00 02 6C 64 00 00 00 00 02 6F 63 03 CD 00 00 00 00 00 01 03 00*
0,3369,0:59.036.640,676.700 us,26 B,,SP,55,Write Transaction,14 00 02 EB B6 03 CC 12 07 02 42 06 29 08 00 00 00 00 00 00 FF C1 00 89 FC 2F
0,3370,0:59.052.582,116.300 us,3 B,,SP,55,Read Transaction,00 00 18*
0,3371,0:59.056.978,79.200 us,2 B,,SP,55,Write Transaction,00 00
0,3372,0:59.062.336,86.800 us,2 B,,SP,55,Read Transaction,00 08*
0,3373,0:59.062.699,79.100 us,2 B,,SP,55,Write Transaction,12 01
0,3374,0:59.068.051,659.500 us,25 B,,SP,55,Read Transaction,00 00 00 00 00 02 6C 64 00 00 00 00 02 6F 63 03 CD 00 00 00 00 00 01 03 00*
0,3375,0:59.076.639,677.800 us,26 B,,SP,55,Write Transaction,14 00 02 EE 44 03 CE AF 07 03 4B 06 29 85 00 00 00 00 00 00 FF BC 00 89 FC 34
0,3376,0:59.092.579,116.300 us,3 B,,SP,55,Read Transaction,00 00 18*
0,3377,0:59.096.972,79.000 us,2 B,,SP,55,Write Transaction,00 00
0,3378,0:59.102.320,86.700 us,2 B,,SP,55,Read Transaction,00 08*
0,3379,0:59.102.683,79.000 us,2 B,,SP,55,Write Transaction,12 01
0,3380,0:59.108.031,659.600 us,25 B,,SP,55,Read Transaction,00 00 00 00 00 02 6C 64 00 00 00 00 02 6F 63 03 CD 00 00 00 00 00 01 03 00*
0,3381,0:59.116.516,676.800 us,26 B,,SP,55,Write Transaction,14 00 02 F0 DE 03 D2 77 07 04 C3 06 2A 36 00 00 00 00 00 00 FF BF 00 87 FC 33
0,3382,0:59.132.457,116.300 us,3 B,,SP,55,Read Transaction,00 00 18*
0,3383,0:59.136.852,79.100 us,2 B,,SP,55,Write Transaction,00 00
0,3384,0:59.142.200,86.700 us,2 B,,SP,55,Read Transaction,00 08*
0,3385,0:59.142.562,79.100 us,2 B,,SP,55,Write Transaction,12 01
0,3386,0:59.147.915,660.400 us,25 B,,SP,55,Read Transaction,00 00 00 00 00 02 6C 64 00 00 00 00 02 6F 63 03 CD 00 00 00 00 00 01 03 00*
0,3387,0:59.156.549,676.800 us,26 B,,SP,55,Write Transaction,14 00 02 F3 C1 03 D6 37 07 06 F0 06 2B 63 00 00 00 00 00 00 FF C1 00 8C FC 30
0,3388,0:59.172.490,116.300 us,3 B,,SP,55,Read Transaction,00 00 18*
0,3389,0:59.176.882,79.100 us,2 B,,SP,55,Write Transaction,00 00
0,3390,0:59.182.233,86.700 us,2 B,,SP,55,Read Transaction,00 08*
0,3391,0:59.182.595,79.100 us,2 B,,SP,55,Write Transaction,12 01
0,3392,0:59.187.943,659.600 us,25 B,,SP,55,Read Transaction,00 00 00 00 00 02 6C 64 00 00 00 00 02 6F 63 03 CD 00 00 00 00 00 01 03 00*
0,3393,0:59.196.407,677.700 us,26 B,,SP,55,Write Transaction,14 00 02 F3 D2 03 D4 18 07 04 0F 06 29 15 00 00 00 00 00 00 FF C2 00 86 FC 30
0,3394,0:59.212.355,116.300 us,3 B,,SP,55,Read Transaction,00 00 18*
0,3395,0:59.216.748,79.100 us,2 B,,SP,55,Write Transaction,00 00
0,3396,0:59.222.098,86.700 us,2 B,,SP,55,Read Transaction,00 08*
0,3397,0:59.222.459,79.100 us,2 B,,SP,55,Write Transaction,12 01
0,3398,0:59.227.813,659.400 us,25 B,,SP,55,Read Transaction,00 00 00 00 00 02 6C 64 00 00 00 00 02 6F 63 03 CD E4 00 00 00 00 01 03 00*
0,3399,0:59.236.355,677.000 us,26 B,,SP,55,Write Transaction,14 00 02 E9 EB 03 C0 E1 06 F9 B4 06 23 93 00 00 00 00 00 00 FF BF 00 8C FC 39
0,3400,0:59.252.297,116.400 us,3 B,,SP,55,Read Transaction,00 00 18*
0,3401,0:59.256.692,79.100 us,2 B,,SP,55,Write Transaction,00 00
0,3402,0:59.262.041,86.600 us,2 B,,SP,55,Read Transaction,00 08*
0,3403,0:59.262.403,79.000 us,2 B,,SP,55,Write Transaction,12 01
0,3404,0:59.267.767,659.400 us,25 B,,SP,55,Read Transaction,00 00 00 00 00 02 6C 64 00 00 00 00 02 6F 63 03 CD 00 00 00 00 00 01 03 00*
0,3405,0:59.276.349,676.700 us,26 B,,SP,55,Write Transaction,14 00 02 DA C6 03 A8 77 06 EF C6 06 1E F1 00 00 00 00 00 00 FF C1 00 8F FC 33
0,3406,0:59.292.286,116.200 us,3 B,,SP,55,Read Transaction,00 00 18*
0,3407,0:59.296.679,79.100 us,2 B,,SP,55,Write Transaction,00 00
0,3408,0:59.302.028,86.600 us,2 B,,SP,55,Read Transaction,00 08*
0,3409,0:59.302.389,79.100 us,2 B,,SP,55,Write Transaction,12 01
0,3410,0:59.307.740,659.500 us,25 B,,SP,55,Read Transaction,00 00 00 00 00 02 6C 64 00 00 00 00 02 6F 63 03 CD 00 00 00 00 00 01 03 00*
0,3411,0:59.316.225,676.700 us,26 B,,SP,55,Write Transaction,14 00 02 CF 51 03 96 D0 06 E8 A9 06 1B 83 00 00 00 00 00 00 FF BF 00 8C FC 37
0,3412,0:59.332.163,116.200 us,3 B,,SP,55,Read Transaction,00 00 18*
0,3413,0:59.336.554,79.000 us,2 B,,SP,55,Write Transaction,00 00
0,3414,0:59.341.908,86.800 us,2 B,,SP,55,Read Transaction,00 08*
0,3415,0:59.342.272,79.200 us,2 B,,SP,55,Write Transaction,12 01
0,3416,0:59.347.628,659.500 us,25 B,,SP,55,Read Transaction,00 00 00 00 00 02 6C 64 00 00 00 00 02 6F 63 03 CD 00 00 00 00 00 01 03 00*
0,3417,0:59.356.228,676.600 us,26 B,,SP,55,Write Transaction,14 00 02 C8 00 03 8B 02 06 E3 D1 06 19 29 00 00 00 00 00 00 FF BF 00 8A FC 30
0,3418,0:59.372.164,118.300 us,3 B,,SP,55,Read Transaction,00 00 18*
0,3419,0:59.376.561,79.100 us,2 B,,SP,55,Write Transaction,00 00
0,3420,0:59.381.912,86.700 us,2 B,,SP,55,Read Transaction,00 08*
0,3421,0:59.382.274,79.000 us,2 B,,SP,55,Write Transaction,12 01
0,3422,0:59.387.621,659.500 us,25 B,,SP,55,Read Transaction,00 00 00 00 00 02 6C 64 00 00 00 00 02 6F 63 03 CD 00 00 00 00 00 01 03 00*
0,3423,0:59.396.098,676.900 us,26 B,,SP,55,Write Transaction,14 00 02 C3 51 03 82 C9 06 E1 05 06 18 23 00 00 00 00 00 00 FF C0 00 8F FC 2F
0,3424,0:59.412.039,116.400 us,3 B,,SP,55,Read Transaction,00 00 18*
0,3425,0:59.416.434,79.000 us,2 B,,SP,55,Write Transaction,00 00
0,3426,0:59.421.783,86.700 us,2 B,,SP,55,Read Transaction,00 08*
0,3427,0:59.422.144,79.100 us,2 B,,SP,55,Write Transaction,12 01
0,3428,0:59.427.494,659.500 us,25 B,,SP,55,Read Transaction,00 00 00 00 00 02 6C 64 00 00 00 00 02 6F 63 03 CD 00 00 00 00 00 01 03 00*
0,3429,0:59.436.108,676.800 us,26 B,,SP,55,Write Transaction,14 00 02 BF EB 03 7D 6E 06 DD 95 06 16 13 00 00 00 00 00 00 FF C5 00 8A FC 33
0,3430,0:59.452.048,116.400 us,3 B,,SP,55,Read Transaction,00 00 18*
0,3431,0:59.456.441,79.000 us,2 B,,SP,55,Write Transaction,00 00
0,3432,0:59.461.792,86.700 us,2 B,,SP,55,Read Transaction,00 08*
0,3433,0:59.462.154,79.100 us,2 B,,SP,55,Write Transaction,12 01
0,3434,0:59.467.503,659.500 us,25 B,,SP,55,Read Transaction,00 00 00 00 00 02 6C 64 00 00 00 00 02 6F 63 03 CD 00 00 00 00 00 01 03 00*
0,3435,0:59.475.996,676.800 us,26 B,,SP,55,Write Transaction,14 00 02 C0 CC 03 80 D3 06 DD 12 06 15 9B 00 00 00 00 00 00 FF C0 00 8A FC 32
0,3436,0:59.491.936,116.300 us,3 B,,SP,55,Read Transaction,00 00 18*
0,3437,0:59.496.328,79.000 us,2 B,,SP,55,Write Transaction,00 00
0,3438,0:59.501.677,86.600 us,2 B,,SP,55,Read Transaction,00 08*
0,3439,0:59.502.038,79.000 us,2 B,,SP,55,Write Transaction,12 01
0,3440,0:59.507.388,659.500 us,25 B,,SP,55,Read Transaction,00 00 00 00 00 02 6C 64 00 00 00 00 02 6F 63 03 CD 00 00 00 00 00 01 03 00*
0,3441,0:59.516.023,676.900 us,26 B,,SP,55,Write Transaction,14 00 02 C2 D6 03 85 0E 06 DE 12 06 15 F4 00 00 00 00 00 00 FF BF 00 87 FC 32
0,3442,0:59.531.962,116.300 us,3 B,,SP,55,Read Transaction,00 00 18*
0,3443,0:59.536.354,79.000 us,2 B,,SP,55,Write Transaction,00 00
0,3444,0:59.541.705,86.700 us,2 B,,SP,55,Read Transaction,00 08*
0,3445,0:59.542.068,79.100 us,2 B,,SP,55,Write Transaction,12 01
0,3446,0:59.547.416,659.900 us,25 B,,SP,55,Read Transaction,00 00 00 00 00 02 6C 64 00 00 00 00 02 6F 63 03 CD 00 00 00 00 00 01 03 00*
0,3447,0:59.555.860,676.900 us,26 B,,SP,55,Write Transaction,14 00 02 C3 9B 03 87 83 06 DE 4C 06 16 35 00 00 00 00 00 00 FF C0 00 8B FC 35
0,3448,0:59.571.810,116.200 us,3 B,,SP,55,Read Transaction,00 00 18*
0,3449,0:59.576.204,79.100 us,2 B,,SP,55,Write Transaction,00 00
0,3450,0:59.581.553,86.700 us,2 B,,SP,55,Read Transaction,00 08*
0,3451,0:59.581.914,79.000 us,2 B,,SP,55,Write Transaction,12 01
0,3452,0:59.587.262,659.500 us,25 B,,SP,55,Read Transaction,00 00 00 00 00 02 6C 64 00 00 00 00 02 6F 63 03 CD 00 00 00 00 00 01 03 00*
0,3453,0:59.595.829,676.400 us,26 B,,SP,55,Write Transaction,14 00 02 C4 FC 03 8A A3 06 DF E7 06 17 39 00 00 00 00 00 00 FF BF 00 88 FC 2D
0,3454,0:59.611.767,116.200 us,3 B,,SP,55,Read Transaction,00 00 18*
0,3455,0:59.616.159,79.100 us,2 B,,SP,55,Write Transaction,00 00
0,3456,0:59.621.509,86.700 us,2 B,,SP,55,Read Transaction,00 08*
0,3457,0:59.621.872,79.100 us,2 B,,SP,55,Write Transaction,12 01
0,3458,0:59.627.224,660.200 us,25 B,,SP,55,Read Transaction,00 00 00 00 00 02 6C 64 00 00 00 00 02 6F 63 03 CD 00 00 00 00 00 01 03 00*
0,3459,0:59.635.778,676.800 us,26 B,,SP,55,Write Transaction,14 00 02 C6 BF 03 8E 0D 06 E1 94 06 18 2F 00 00 00 00 00 00 FF BF 00 87 FC 39
0,3460,0:59.651.717,116.300 us,3 B,,SP,55,Read Transaction,00 00 18*
0,3461,0:59.656.109,79.100 us,2 B,,SP,55,Write Transaction,00 00
0,3462,0:59.661.459,86.600 us,2 B,,SP,55,Read Transaction,00 08*
0,3463,0:59.661.823,79.000 us,2 B,,SP,55,Write Transaction,12 01
0,3464,0:59.667.170,659.400 us,25 B,,SP,55,Read Transaction,00 00 00 00 00 02 6C 64 26 76 64 00 02 6F 63 03 CD 00 00 00 00 00 01 03 00*
0,3465,0:59.675.720,676.800 us,26 B,,SP,55,Write Transaction,14 00 02 C9 D0 03 93 A6 06 E4 CB 06 1A 3D 00 00 00 00 00 00 FF C5 00 8A FC 30
0,3466,0:59.691.660,116.300 us,3 B,,SP,55,Read Transaction,00 00 18*
0,3467,0:59.696.072,79.100 us,2 B,,SP,55,Write Transaction,00 00
0,3468,0:59.701.423,86.600 us,2 B,,SP,55,Read Transaction,00 08*
0,3469,0:59.701.784,79.100 us,2 B,,SP,55,Write Transaction,12 01
0,3470,0:59.707.140,659.800 us,25 B,,SP,55,Read Transaction,00 00 00 00 00 02 6C 64 00 00 00 00 02 6F 63 03 CD 00 00 00 00 00 01 03 00*
0,3471,0:59.715.670,676.700 us,26 B,,SP,55,Write Transaction,14 00 02 CD 5D 03 99 D6 06 E7 65 06 1B 8B 00 00 00 00 00 00 FF C0 00 88 FC 37
0,3472,0:59.731.607,116.200 us,3 B,,SP,55,Read Transaction,00 00 18*
0,3473,0:59.735.999,79.100 us,2 B,,SP,55,Write Transaction,00 00
0,3474,0:59.741.350,86.700 us,2 B,,SP,55,Read Transaction,00 08*
0,3475,0:59.741.714,79.000 us,2 B,,SP,55,Write Transaction,12 01
0,3476,0:59.747.062,659.600 us,25 B,,SP,55,Read Transaction,00 00 00 00 00 02 6C 64 00 00 00 00 02 6F 63 03 CD 00 00 00 00 00 01 03 00*
0,3477,0:59.755.605,677.300 us,26 B,,SP,55,Write Transaction,14 00 02 D1 02 03 A0 AA 06 EA 9B 06 1D 53 00 00 00 00 00 00 FF C0 00 86 FC 34
0,3478,0:59.771.551,116.300 us,3 B,,SP,55,Read Transaction,00 00 18*
0,3479,0:59.775.945,79.100 us,2 B,,SP,55,Write Transaction,00 00
0,3480,0:59.781.294,86.700 us,2 B,,SP,55,Read Transaction,00 08*
0,3481,0:59.781.655,79.100 us,2 B,,SP,55,Write Transaction,12 01
0,3482,0:59.787.005,659.400 us,25 B,,SP,55,Read Transaction,00 00 00 00 00 02 6C 64 00 00 00 00 02 6F 63 03 CD 00 00 00 00 00 01 03 00*
0,3483,0:59.795.534,676.900 us,26 B,,SP,55,Write Transaction,14 00 02 D5 17 03 A7 5E 06 ED 1C 06 1E 45 00 00 00 00 00 00 FF BC 00 8A FC 38
0,3484,0:59.811.474,116.300 us,3 B,,SP,55,Read Transaction,00 00 18*
0,3485,0:59.815.867,79.100 us,2 B,,SP,55,Write Transaction,00 00
0,3486,0:59.821.217,86.700 us,2 B,,SP,55,Read Transaction,00 08*
0,3487,0:59.821.580,79.100 us,2 B,,SP,55,Write Transaction,12 01
0,3488,0:59.826.934,660.500 us,25 B,,SP,55,Read Transaction,00 00 00 00 00 02 6C 64 00 00 00 00 02 6F 63 03 CD 00 00 00 00 00 01 03 00*
0,3489,0:59.835.491,677.800 us,26 B,,SP,55,Write Transaction,14 00 02 D7 FE 03 AB 8D 06 EE B7 06 1F 1A 00 00 00 00 00 00 FF C1 00 88 FC 35
0,3490,0:59.851.439,116.300 us,3 B,,SP,55,Read Transaction,00 00 18*
0,3491,0:59.855.834,79.100 us,2 B,,SP,55,Write Transaction,00 00
0,3492,0:59.861.182,86.700 us,2 B,,SP,55,Read Transaction,00 08*
0,3493,0:59.861.543,79.100 us,2 B,,SP,55,Write Transaction,12 01
0,3494,0:59.866.893,659.600 us,25 B,,SP,55,Read Transaction,00 00 00 00 00 02 6C 64 00 00 00 00 02 6F 63 03 CD 00 00 00 00 00 01 03 00*
0,3495,0:59.875.421,676.800 us,26 B,,SP,55,Write Transaction,14 00 02 DB 43 03 B0 75 06 F1 C8 06 20 E8 00 00 00 00 00 00 FF BE 00 8A FC 34
0,3496,0:59.891.362,116.300 us,3 B,,SP,55,Read Transaction,00 00 18*
0,3497,0:59.895.754,79.000 us,2 B,,SP,55,Write Transaction,00 00
0,3498,0:59.901.104,86.600 us,2 B,,SP,55,Read Transaction,00 08*
0,3499,0:59.901.467,79.100 us,2 B,,SP,55,Write Transaction,12 01
0,3500,0:59.906.816,659.500 us,25 B,,SP,55,Read Transaction,00 00 00 00 00 02 6C 64 00 00 00 00 02 6F 63 03 CD 00 00 00 00 00 01 03 00*
0,3501,0:59.915.384,676.700 us,26 B,,SP,55,Write Transaction,14 00 02 DE 76 03 B5 8A 06 F4 20 06 22 3D 00 00 00 00 00 00 FF BD 00 85 FC 34
0,3502,0:59.931.325,116.300 us,3 B,,SP,55,Read Transaction,00 00 18*
0,3503,0:59.935.719,79.000 us,2 B,,SP,55,Write Transaction,00 00
0,3504,0:59.941.067,86.700 us,2 B,,SP,55,Read Transaction,00 08*
0,3505,0:59.941.429,79.100 us,2 B,,SP,55,Write Transaction,12 01
0,3506,0:59.946.786,660.400 us,25 B,,SP,55,Read Transaction,00 00 00 00 00 02 6C 64 00 00 00 00 02 6F 63 03 CD 00 00 00 00 00 01 03 00*
0,3507,0:59.955.289,677.900 us,26 B,,SP,55,Write Transaction,14 00 02 E1 CB 03 BA BB 06 F6 5D 06 23 68 00 00 00 00 00 00 FF C8 00 8C FC 30
0,3508,0:59.971.232,116.100 us,3 B,,SP,55,Read Transaction,00 00 18*
0,3509,0:59.975.624,79.100 us,2 B,,SP,55,Write Transaction,00 00
0,3510,0:59.980.978,86.700 us,2 B,,SP,55,Read Transaction,00 08*
0,3511,0:59.981.341,79.100 us,2 B,,SP,55,Write Transaction,12 01
0,3512,0:59.986.690,659.600 us,25 B,,SP,55,Read Transaction,00 00 00 00 00 02 6C 64 00 00 00 00 02 6F 63 03 CD 00 00 00 00 00 01 03 00*
0,3513,0:59.995.279,676.900 us,26 B,,SP,55,Write Transaction,14 00 02 E4 7F 03 BF 14 06 F8 08 06 24 47 00 00 00 00 00 00 FF BC 00 82 FC 3B
0,3514,1:00.011.217,116.200 us,3 B,,SP,55,Read Transaction,00 00 18*
0,3515,1:00.015.612,79.000 us,2 B,,SP,55,Write Transaction,00 00
0,3516,1:00.020.963,86.700 us,2 B,,SP,55,Read Transaction,00 08*
0,3517,1:00.021.326,79.000 us,2 B,,SP,55,Write Transaction,12 01
0,3518,1:00.026.673,659.500 us,25 B,,SP,55,Read Transaction,00 00 00 00 00 02 6C 64 00 00 00 00 02 6F 63 03 CD 00 00 00 00 00 01 03 00*
0,3519,1:00.035.157,676.800 us,26 B,,SP,55,Write Transaction,14 00 02 E8 32 03 C5 06 06 FB 25 06 26 19 00 00 00 00 00 00 FF BF 00 87 FC 39
0,3520,1:00.051.097,116.300 us,3 B,,SP,55,Read Transaction,00 00 18*
0,3521,1:00.055.492,79.100 us,2 B,,SP,55,Write Transaction,00 00
0,3522,1:00.060.841,86.700 us,2 B,,SP,55,Read Transaction,00 08*
0,3523,1:00.061.202,79.100 us,2 B,,SP,55,Write Transaction,12 01
0,3524,1:00.066.552,659.500 us,25 B,,SP,55,Read Transaction,00 00 00 00 00 02 6C 64 00 00 00 00 02 6F 63 03 CD 00 00 00 00 00 01 03 00*
0,3525,1:00.075.157,677.900 us,26 B,,SP,55,Write Transaction,14 00 02 EB 71 03 C9 BA 06 FD 7E 06 27 51 00 00 00 00 00 00 FF BF 00 89 FC 2E
0,3526,1:00.091.098,116.300 us,3 B,,SP,55,Read Transaction,00 00 18*
0,3527,1:00.095.490,79.100 us,2 B,,SP,55,Write Transaction,00 00
0,3528,1:00.100.841,86.700 us,2 B,,SP,55,Read Transaction,00 08*
0,3529,1:00.101.203,79.100 us,2 B,,SP,55,Write Transaction,12 01
0,3530,1:00.106.552,659.500 us,25 B,,SP,55,Read Transaction,00 00 00 00 00 02 6C 64 00 00 00 00 02 6F 63 03 CD 00 00 00 00 00 01 03 00*
0,3531,1:00.115.051,676.900 us,26 B,,SP,55,Write Transaction,14 00 02 EE F0 03 CF 81 07 00 13 06 28 70 00 00 00 00 00 00 FF BB 00 88 FC 30
0,3532,1:00.130.993,116.300 us,3 B,,SP,55,Read Transaction,00 00 18*
0,3533,1:00.135.388,79.000 us,2 B,,SP,55,Write Transaction,00 00
0,3534,1:00.140.744,86.800 us,2 B,,SP,55,Read Transaction,00 08*
0,3535,1:00.141.106,79.100 us,2 B,,SP,55,Write Transaction,12 01
0,3536,1:00.146.457,659.500 us,25 B,,SP,55,Read Transaction,00 00 00 00 00 02 6C 64 00 00 00 00 02 6F 63 03 CD 00 00 00 00 00 01 03 00*
0,3537,1:00.155.080,676.800 us,26 B,,SP,55,Write Transaction,14 00 02 EF 62 03 CD F5 06 FD BF 06 26 C4 00 00 00 00 00 00 FF BF 00 8A FC 36
0,3538,1:00.171.018,116.300 us,3 B,,SP,55,Read Transaction,00 00 18*
0,3539,1:00.175.410,79.000 us,2 B,,SP,55,Write Transaction,00 00
0,3540,1:00.180.760,86.700 us,2 B,,SP,55,Read Transaction,00 08*
0,3541,1:00.181.123,79.100 us,2 B,,SP,55,Write Transaction,12 01
0,3542,1:00.186.472,659.500 us,25 B,,SP,55,Read Transaction,00 00 00 00 00 02 6C 64 00 00 00 00 02 6F 63 03 CD 00 00 00 00 00 01 03 00*
0,3543,1:00.194.919,676.800 us,26 B,,SP,55,Write Transaction,14 00 02 E5 37 03 BA BE 06 F4 07 06 21 DA 00 00 00 00 00 00 FF BC 00 88 FC 38
0,3544,1:00.210.870,116.400 us,3 B,,SP,55,Read Transaction,00 00 18*
0,3545,1:00.215.269,79.200 us,2 B,,SP,55,Write Transaction,00 00
0,3546,1:00.220.620,86.700 us,2 B,,SP,55,Read Transaction,00 08*
0,3547,1:00.220.981,79.100 us,2 B,,SP,55,Write Transaction,12 01
0,3548,1:00.226.330,660.500 us,25 B,,SP,55,Read Transaction,00 00 00 00 00 02 6C 64 00 00 00 00 02 6F 64 03 CD E4 00 00 00 00 01 03 00*
0,3549,1:00.234.924,676.700 us,26 B,,SP,55,Write Transaction,14 00 02 D5 43 03 A3 87 06 EA 36 06 1D 36 00 00 00 00 00 00 FF B5 00 8B FC 2F
0,3550,1:00.250.864,116.300 us,3 B,,SP,55,Read Transaction,00 00 18*
0,3551,1:00.255.256,79.100 us,2 B,,SP,55,Write Transaction,00 00
0,3552,1:00.260.606,86.700 us,2 B,,SP,55,Read Transaction,00 08*
0,3553,1:00.260.968,79.000 us,2 B,,SP,55,Write Transaction,12 01
0,3554,1:00.266.319,659.600 us,25 B,,SP,55,Read Transaction,00 00 00 00 00 02 6C 64 00 00 00 00 02 6F 64 03 CD 00 00 00 00 00 01 03 00*
0,3555,1:00.274.840,676.900 us,26 B,,SP,55,Write Transaction,14 00 02 C9 7C 03 91 AD 06 E3 C2 06 1A 3B 00 00 00 00 00 00 FF BD 00 8C FC 38
0,3556,1:00.290.781,116.300 us,3 B,,SP,55,Read Transaction,00 00 18*
0,3557,1:00.295.176,79.100 us,2 B,,SP,55,Write Transaction,00 00
0,3558,1:00.300.527,86.700 us,2 B,,SP,55,Read Transaction,00 08*
0,3559,1:00.300.888,79.100 us,2 B,,SP,55,Write Transaction,12 01
0,3560,1:00.306.236,659.600 us,25 B,,SP,55,Read Transaction,00 00 00 00 00 02 6C 64 00 00 00 00 02 6F 64 03 CD 00 00 00 00 00 01 03 00*
0,3561,1:00.314.780,677.500 us,26 B,,SP,55,Write Transaction,14 00 02 C2 C0 03 86 4C 06 E0 62 06 18 C9 00 00 00 00 00 00 FF C2 00 84 FC 30
0,3562,1:00.330.731,116.300 us,3 B,,SP,55,Read Transaction,00 00 18*
0,3563,1:00.335.150,79.000 us,2 B,,SP,55,Write Transaction,00 00
0,3564,1:00.340.502,86.700 us,2 B,,SP,55,Read Transaction,00 08*
0,3565,1:00.340.864,79.100 us,2 B,,SP,55,Write Transaction,12 01
0,3566,1:00.346.217,660.500 us,25 B,,SP,55,Read Transaction,00 00 00 00 00 02 6C 64 00 00 00 00 02 6F 64 03 CD 00 00 00 00 00 01 03 00*
0,3567,1:00.354.726,676.800 us,26 B,,SP,55,Write Transaction,14 00 02 BD E6 03 7D 7B 06 DD 85 06 17 50 00 00 00 00 00 00 FF B9 00 87 FC 35
0,3568,1:00.370.664,116.300 us,3 B,,SP,55,Read Transaction,00 00 18*
0,3569,1:00.375.055,79.000 us,2 B,,SP,55,Write Transaction,00 00
0,3570,1:00.380.409,86.800 us,2 B,,SP,55,Read Transaction,00 08*
0,3571,1:00.380.772,79.100 us,2 B,,SP,55,Write Transaction,12 01
0,3572,1:00.386.120,659.500 us,25 B,,SP,55,Read Transaction,00 00 00 00 00 02 6C 64 00 00 00 00 02 6F 64 03 CD 00 00 00 00 00 01 03 00*
0,3573,1:00.394.672,676.600 us,26 B,,SP,55,Write Transaction,14 00 02 BB 97 03 79 B0 06 DC B3 06 17 1F 00 00 00 00 00 00 FF C1 00 86 FC 31
0,3574,1:00.410.610,116.200 us,3 B,,SP,55,Read Transaction,00 00 18*
0,3575,1:00.415.002,79.000 us,2 B,,SP,55,Write Transaction,00 00
0,3576,1:00.420.350,86.700 us,2 B,,SP,55,Read Transaction,00 08*
0,3577,1:00.420.711,79.000 us,2 B,,SP,55,Write Transaction,12 01
0,3578,1:00.426.061,659.600 us,25 B,,SP,55,Read Transaction,00 00 00 00 00 02 6C 64 00 00 00 00 02 6F 64 03 CD 00 00 00 00 00 01 03 00*
0,3579,1:00.434.623,676.800 us,26 B,,SP,55,Write Transaction,14 00 02 BD 9F 03 7D 77 06 DF 75 06 18 D4 00 00 00 00 00 00 FF BF 00 8A FC 31
0,3580,1:00.450.562,116.300 us,3 B,,SP,55,Read Transaction,00 00 18*
0,3581,1:00.454.959,79.200 us,2 B,,SP,55,Write Transaction,00 00
0,3582,1:00.460.312,86.700 us,2 B,,SP,55,Read Transaction,00 08*
0,3583,1:00.460.675,79.100 us,2 B,,SP,55,Write Transaction,12 01
0,3584,1:00.466.023,659.500 us,25 B,,SP,55,Read Transaction,00 00 00 00 00 02 6C 64 00 00 00 00 02 6F 64 03 CD 00 00 00 00 00 01 03 00*
0,3585,1:00.474.549,676.800 us,26 B,,SP,55,Write Transaction,14 00 02 C0 C7 03 84 71 06 E2 81 06 1A 98 00 00 00 00 00 00 FF C0 00 89 FC 38
0,3586,1:00.490.490,116.300 us,3 B,,SP,55,Read Transaction,00 00 18*
0,3587,1:00.494.884,79.000 us,2 B,,SP,55,Write Transaction,00 00
0,3588,1:00.500.231,86.600 us,2 B,,SP,55,Read Transaction,00 08*
0,3589,1:00.500.593,79.000 us,2 B,,SP,55,Write Transaction,12 01
0,3590,1:00.505.943,659.100 us,25 B,,SP,55,Read Transaction,00 00 00 00 00 02 6C 64 00 00 00 00 02 6F 64 03 CD 00 00 00 00 00 01 03 00*
0,3591,1:00.514.461,676.800 us,26 B,,SP,55,Write Transaction,14 00 02 C2 9D 03 88 F9 06 E3 6D 06 1A E2 00 00 00 00 00 00 FF BE 00 87 FC 39
0,3592,1:00.530.406,116.200 us,3 B,,SP,55,Read Transaction,00 00 18*
0,3593,1:00.534.801,79.200 us,2 B,,SP,55,Write Transaction,00 00
0,3594,1:00.540.152,86.700 us,2 B,,SP,55,Read Transaction,00 08*
0,3595,1:00.540.515,79.000 us,2 B,,SP,55,Write Transaction,12 01
0,3596,1:00.545.862,659.400 us,25 B,,SP,55,Read Transaction,00 00 00 00 00 02 6C 64 00 00 00 00 02 6F 64 03 CD 00 00 00 00 00 01 03 00*
0,3597,1:00.554.424,676.400 us,26 B,,SP,55,Write Transaction,14 00 02 C3 F1 03 8C 7A 06 E4 61 06 1B 8F 00 00 00 00 00 00 FF C0 00 87 FC 31
0,3598,1:00.570.364,116.200 us,3 B,,SP,55,Read Transaction,00 00 18*
0,3599,1:00.574.757,79.100 us,2 B,,SP,55,Write Transaction,00 00
0,3600,1:00.580.111,86.700 us,2 B,,SP,55,Read Transaction,00 08*
0,3601,1:00.580.473,79.100 us,2 B,,SP,55,Write Transaction,12 01
0,3602,1:00.585.821,659.500 us,25 B,,SP,55,Read Transaction,00 00 00 00 00 02 6C 64 24 EC 64 00 02 6F 64 03 CD 00 00 00 00 00 01 03 00*
0,3603,1:00.594.372,676.800 us,26 B,,SP,55,Write Transaction,14 00 02 C6 C1 03 91 4E 06 E7 4A 06 1D 75 00 00 00 00 00 00 FF C0 00 86 FC 38
0,3604,1:00.610.310,116.300 us,3 B,,SP,55,Read Transaction,00 00 18*
0,3605,1:00.614.701,79.000 us,2 B,,SP,55,Write Transaction,00 00
0,3606,1:00.620.051,86.700 us,2 B,,SP,55,Read Transaction,00 08*
0,3607,1:00.620.414,79.000 us,2 B,,SP,55,Write Transaction,12 01
0,3608,1:00.625.764,659.500 us,25 B,,SP,55,Read Transaction,00 00 00 00 00 02 6C 64 00 00 00 00 02 6F 64 03 CD 00 00 00 00 00 01 03 00*
0,3609,1:00.634.306,676.700 us,26 B,,SP,55,Write Transaction,14 00 02 C9 FE 03 97 B0 06 E9 B7 06 1E 8B 00 00 00 00 00 00 FF BD 00 8C FC 35
0,3610,1:00.650.250,116.200 us,3 B,,SP,55,Read Transaction,00 00 18*
0,3611,1:00.654.643,79.100 us,2 B,,SP,55,Write Transaction,00 00
0,3612,1:00.659.995,86.700 us,2 B,,SP,55,Read Transaction,00 08*
0,3613,1:00.660.357,79.100 us,2 B,,SP,55,Write Transaction,12 01
0,3614,1:00.665.705,659.500 us,25 B,,SP,55,Read Transaction,00 00 00 00 00 02 6C 64 00 00 00 00 02 6F 64 03 CD 00 00 00 00 00 01 03 00*
0,3615,1:00.674.245,676.300 us,26 B,,SP,55,Write Transaction,14 00 02 CE 7B 03 9F A2 06 ED 31 06 20 6A 00 00 00 00 00 00 FF BD 00 8A FC 30
0,3616,1:00.690.182,116.200 us,3 B,,SP,55,Read Transaction,00 00 18*
0,3617,1:00.694.574,79.100 us,2 B,,SP,55,Write Transaction,00 00
0,3618,1:00.699.923,86.600 us,2 B,,SP,55,Read Transaction,00 08*
0,3619,1:00.700.284,79.100 us,2 B,,SP,55,Write Transaction,12 01
0,3620,1:00.705.634,659.500 us,25 B,,SP,55,Read Transaction,00 00 00 00 00 02 6C 64 00 00 00 00 02 6F 64 03 CD 00 00 00 00 00 01 03 00*
0,3621,1:00.714.234,676.900 us,26 B,,SP,55,Write Transaction,14 00 02 D2 B4 03 A6 0B 06 F0 20 06 21 E4 00 00 00 00 00 00 FF BE 00 83 FC 39
0,3622,1:00.730.183,116.200 us,3 B,,SP,55,Read Transaction,00 00 18*
0,3623,1:00.734.574,79.100 us,2 B,,SP,55,Write Transaction,00 00
0,3624,1:00.739.923,86.700 us,2 B,,SP,55,Read Transaction,00 08*
0,3625,1:00.740.285,79.100 us,2 B,,SP,55,Write Transaction,12 01
0,3626,1:00.745.634,659.500 us,25 B,,SP,55,Read Transaction,00 00 00 00 00 02 6C 64 00 00 00 00 02 6F 64 03 CD 00 00 00 00 00 01 03 00*
0,3627,1:00.754.139,676.800 us,26 B,,SP,55,Write Transaction,14 00 02 D6 71 03 AC 50 06 F2 B7 06 23 59 00 00 00 00 00 00 FF BB 00 8C FC 37
0,3628,1:00.770.075,116.200 us,3 B,,SP,55,Read Transaction,00 00 18*
0,3629,1:00.774.470,79.200 us,2 B,,SP,55,Write Transaction,00 00
0,3630,1:00.779.820,86.700 us,2 B,,SP,55,Read Transaction,00 08*
0,3631,1:00.780.181,79.100 us,2 B,,SP,55,Write Transaction,12 01
0,3632,1:00.785.532,659.500 us,25 B,,SP,55,Read Transaction,00 00 00 00 00 02 6C 64 00 00 00 00 02 6F 64 03 CD 00 00 00 00 00 01 03 00*
0,3633,1:00.794.060,676.800 us,26 B,,SP,55,Write Transaction,14 00 02 DA 27 03 B2 63 06 F5 33 06 24 9E 00 00 00 00 00 00 FF BC 00 89 FC 31
0,3634,1:00.809.998,116.200 us,3 B,,SP,55,Read Transaction,00 00 18*
0,3635,1:00.814.388,79.100 us,2 B,,SP,55,Write Transaction,00 00
0,3636,1:00.819.738,86.700 us,2 B,,SP,55,Read Transaction,00 08*
0,3637,1:00.820.100,79.100 us,2 B,,SP,55,Write Transaction,12 01
0,3638,1:00.825.473,659.500 us,25 B,,SP,55,Read Transaction,00 00 00 00 00 02 6C 64 00 00 00 00 02 6F 64 03 CD 00 00 00 00 00 01 03 00*
0,3639,1:00.834.045,676.900 us,26 B,,SP,55,Write Transaction,14 00 02 DD F8 03 B8 5D 06 F8 24 06 26 41 00 00 00 00 00 00 FF BC 00 89 FC 35
0,3640,1:00.849.984,116.300 us,3 B,,SP,55,Read Transaction,00 00 18*
0,3641,1:00.854.379,79.100 us,2 B,,SP,55,Write Transaction,00 00
0,3642,1:00.859.732,86.600 us,2 B,,SP,55,Read Transaction,00 08*
0,3643,1:00.860.092,79.000 us,2 B,,SP,55,Write Transaction,12 01
0,3644,1:00.865.449,660.500 us,25 B,,SP,55,Read Transaction,00 00 00 00 00 02 6C 64 00 00 00 00 02 6F 64 03 CD 00 00 00 00 00 01 03 00*
0,3645,1:00.873.918,676.800 us,26 B,,SP,55,Write Transaction,14 00 02 E2 4B 03 BE EB 06 FB BC 06 28 5B 00 00 00 00 00 00 FF BF 00 88 FC 2E
0,3646,1:00.889.856,116.200 us,3 B,,SP,55,Read Transaction,00 00 18*
0,3647,1:00.894.247,79.000 us,2 B,,SP,55,Write Transaction,00 00
0,3648,1:00.899.597,86.700 us,2 B,,SP,55,Read Transaction,00 08*
0,3649,1:00.899.960,79.000 us,2 B,,SP,55,Write Transaction,12 01
0,3650,1:00.905.309,659.500 us,25 B,,SP,55,Read Transaction,00 00 00 00 00 02 6C 64 00 00 00 00 02 6F 64 03 CD 00 00 00 00 00 01 03 00*
0,3651,1:00.913.922,676.800 us,26 B,,SP,55,Write Transaction,14 00 02 E6 0E 03 C4 D4 06 FE 2B 06 29 7E 00 00 00 00 00 00 FF BF 00 87 FC 37
0,3652,1:00.929.868,117.000 us,3 B,,SP,55,Read Transaction,00 00 18*
0,3653,1:00.934.262,79.100 us,2 B,,SP,55,Write Transaction,00 00
0,3654,1:00.939.612,86.700 us,2 B,,SP,55,Read Transaction,00 08*
0,3655,1:00.939.974,79.100 us,2 B,,SP,55,Write Transaction,12 01
0,3656,1:00.945.322,659.600 us,25 B,,SP,55,Read Transaction,00 00 00 00 00 02 6C 64 00 00 00 00 02 6F 64 03 CD 00 00 00 00 00 01 03 00*
0,3657,1:00.953.798,676.900 us,26 B,,SP,55,Write Transaction,14 00 02 E9 6F 03 C9 D2 07 00 1F 06 2A 83 00 00 00 00 00 00 FF C3 00 8A FC 33
0,3658,1:00.969.735,116.200 us,3 B,,SP,55,Read Transaction,00 00 18*
0,3659,1:00.974.127,79.100 us,2 B,,SP,55,Write Transaction,00 00
0,3660,1:00.979.483,86.800 us,2 B,,SP,55,Read Transaction,00 08*
0,3661,1:00.979.845,79.200 us,2 B,,SP,55,Write Transaction,12 01
0,3662,1:00.985.199,659.600 us,25 B,,SP,55,Read Transaction,00 00 00 00 00 02 6C 64 00 00 00 00 02 6F 64 03 CD 00 00 00 00 00 01 03 00*
0,3663,1:00.993.775,676.800 us,26 B,,SP,55,Write Transaction,14 00 02 EC B8 03 CE 2A 07 02 AC 06 2B F8 00 00 00 00 00 00 FF C6 00 8A FC 34
0,3664,1:01.009.713,116.200 us,3 B,,SP,55,Read Transaction,00 00 18*
0,3665,1:01.014.103,79.000 us,2 B,,SP,55,Write Transaction,00 00
0,3666,1:01.019.453,86.700 us,2 B,,SP,55,Read Transaction,00 08*
0,3667,1:01.019.815,79.000 us,2 B,,SP,55,Write Transaction,12 01
0,3668,1:01.025.162,659.300 us,25 B,,SP,55,Read Transaction,00 00 00 00 00 02 6C 64 00 00 00 00 02 6F 64 03 CD 00 00 00 00 00 01 03 00*
0,3669,1:01.033.690,676.900 us,26 B,,SP,55,Write Transaction,14 00 02 F0 82 03 D3 8A 07 05 A4 06 2D 8F 00 00 00 00 00 00 FF C0 00 86 FC 34
0,3670,1:01.049.627,116.300 us,3 B,,SP,55,Read Transaction,00 00 18*
0,3671,1:01.054.022,79.100 us,2 B,,SP,55,Write Transaction,00 00
0,3672,1:01.059.370,86.600 us,2 B,,SP,55,Read Transaction,00 08*
0,3673,1:01.059.732,79.000 us,2 B,,SP,55,Write Transaction,12 01
0,3674,1:01.065.082,659.500 us,25 B,,SP,55,Read Transaction,00 00 00 00 00 02 6C 64 00 00 00 00 02 6F 64 03 CD 00 00 00 00 00 01 03 00*
0,3675,1:01.073.735,676.800 us,26 B,,SP,55,Write Transaction,14 00 02 F4 73 03 D9 89 07 08 83 06 2E FD 00 00 00 00 00 00 FF C1 00 8B FC 2D
0,3676,1:01.089.672,116.200 us,3 B,,SP,55,Read Transaction,00 00 18*
0,3677,1:01.094.064,79.100 us,2 B,,SP,55,Write Transaction,00 00
0,3678,1:01.099.414,86.700 us,2 B,,SP,55,Read Transaction,00 08*
0,3679,1:01.099.776,79.000 us,2 B,,SP,55,Write Transaction,12 01
0,3680,1:01.105.123,659.500 us,25 B,,SP,55,Read Transaction,00 00 00 00 00 02 6C 64 00 00 00 00 02 6F 64 03 CD 00 00 00 00 00 01 03 00*
0,3681,1:01.113.573,676.800 us,26 B,,SP,55,Write Transaction,14 00 02 F7 0B 03 DC AE 07 08 E8 06 2E AF 00 00 00 00 00 00 FF C6 00 84 FC 36
0,3682,1:01.129.511,116.200 us,3 B,,SP,55,Read Transaction,00 00 18*
0,3683,1:01.133.905,79.000 us,2 B,,SP,55,Write Transaction,00 00
0,3684,1:01.139.256,86.700 us,2 B,,SP,55,Read Transaction,00 08*
0,3685,1:01.139.617,79.100 us,2 B,,SP,55,Write Transaction,12 01
0,3686,1:01.144.970,659.600 us,25 B,,SP,55,Read Transaction,00 00 00 00 00 02 6C 64 00 00 00 00 02 6F 64 03 CD 00 00 00 00 00 01 03 00*
0,3687,1:01.153.576,676.900 us,26 B,,SP,55,Write Transaction,14 00 02 F2 44 03 D0 A7 07 01 AD 06 2A 87 00 00 00 00 00 00 FF C3 00 8B FC 35
0,3688,1:01.169.518,116.300 us,3 B,,SP,55,Read Transaction,00 00 18*
0,3689,1:01.173.910,79.000 us,2 B,,SP,55,Write Transaction,00 00
0,3690,1:01.179.267,86.800 us,2 B,,SP,55,Read Transaction,00 08*
0,3691,1:01.179.630,79.200 us,2 B,,SP,55,Write Transaction,12 01
0,3692,1:01.184.982,659.500 us,25 B,,SP,55,Read Transaction,00 00 00 00 00 02 6C 64 00 00 00 00 02 6F 64 03 CD 00 00 00 00 00 01 03 00*
0,3693,1:01.193.484,676.900 us,26 B,,SP,55,Write Transaction,14 00 02 E3 17 03 B9 70 06 F6 56 06 24 EB 00 00 00 00 00 00 FF C1 00 85 FC 34
0,3694,1:01.209.423,116.200 us,3 B,,SP,55,Read Transaction,00 00 18*
0,3695,1:01.213.816,79.100 us,2 B,,SP,55,Write Transaction,00 00
0,3696,1:01.219.166,86.600 us,2 B,,SP,55,Read Transaction,00 08*
0,3697,1:01.219.529,79.100 us,2 B,,SP,55,Write Transaction,12 01
0,3698,1:01.224.879,660.500 us,25 B,,SP,55,Read Transaction,00 00 00 00 00 02 6C 64 00 00 00 00 02 6F 63 03 CD E4 00 00 00 00 01 03 00*
0,3699,1:01.233.429,677.800 us,26 B,,SP,55,Write Transaction,14 00 02 D5 0C 03 A5 CD 06 EF 5D 06 21 FF 00 00 00 00 00 00 FF C1 00 88 FC 37
0,3700,1:01.249.377,116.400 us,3 B,,SP,55,Read Transaction,00 00 18*
0,3701,1:01.253.780,79.200 us,2 B,,SP,55,Write Transaction,00 00
0,3702,1:01.259.134,86.700 us,2 B,,SP,55,Read Transaction,00 08*
0,3703,1:01.259.496,79.100 us,2 B,,SP,55,Write Transaction,12 01
0,3704,1:01.264.845,660.000 us,25 B,,SP,55,Read Transaction,00 00 00 00 00 02 6C 64 00 00 00 00 02 6F 63 03 CD 00 00 00 00 00 01 03 00*
0,3705,1:01.273.389,676.800 us,26 B,,SP,55,Write Transaction,14 00 02 CC E4 03 98 F6 06 EB D0 06 20 86 00 00 00 00 00 00 FF C2 00 8B FC 33
0,3706,1:01.289.327,116.300 us,3 B,,SP,55,Read Transaction,00 00 18*
0,3707,1:01.293.719,79.100 us,2 B,,SP,55,Write Transaction,00 00
0,3708,1:01.299.070,86.800 us,2 B,,SP,55,Read Transaction,00 08*
0,3709,1:01.299.432,79.100 us,2 B,,SP,55,Write Transaction,12 01
0,3710,1:01.304.780,659.500 us,25 B,,SP,55,Read Transaction,00 00 00 00 00 02 6C 64 00 00 00 00 02 6F 63 03 CD 00 00 00 00 00 01 03 00*
0,3711,1:01.313.313,676.800 us,26 B,,SP,55,Write Transaction,14 00 02 C7 82 03 8F 4B 06 E8 F6 06 1F 12 00 00 00 00 00 00 FF C2 00 8D FC 35
0,3712,1:01.329.257,116.300 us,3 B,,SP,55,Read Transaction,00 00 18*
0,3713,1:01.333.650,79.000 us,2 B,,SP,55,Write Transaction,00 00
0,3714,1:01.339.000,86.700 us,2 B,,SP,55,Read Transaction,00 08*
0,3715,1:01.339.361,79.000 us,2 B,,SP,55,Write Transaction,12 01
0,3716,1:01.344.718,660.400 us,25 B,,SP,55,Read Transaction,00 00 00 00 00 02 6C 64 00 00 00 00 02 6F 63 03 CD 00 00 00 00 00 01 03 00*
0,3717,1:01.353.242,676.700 us,26 B,,SP,55,Write Transaction,14 00 02 C4 A0 03 89 14 06 E8 48 06 1F 16 00 00 00 00 00 00 FF BF 00 89 FC 35
0,3718,1:01.369.193,116.400 us,3 B,,SP,55,Read Transaction,00 00 18*
0,3719,1:01.373.586,79.100 us,2 B,,SP,55,Write Transaction,00 00
0,3720,1:01.378.935,86.700 us,2 B,,SP,55,Read Transaction,00 08*
0,3721,1:01.379.298,79.100 us,2 B,,SP,55,Write Transaction,12 01
0,3722,1:01.384.649,660.400 us,25 B,,SP,55,Read Transaction,00 00 00 00 00 02 6C 64 00 00 00 00 02 6F 63 03 CD 00 00 00 00 00 01 03 00*
0,3723,1:01.393.191,677.000 us,26 B,,SP,55,Write Transaction,14 00 02 C5 E9 03 8A B2 06 E9 F0 06 1F E5 00 00 00 00 00 00 FF C0 00 8B FC 35
0,3724,1:01.409.140,116.300 us,3 B,,SP,55,Read Transaction,00 00 18*
0,3725,1:01.413.534,79.100 us,2 B,,SP,55,Write Transaction,00 00
0,3726,1:01.418.882,86.700 us,2 B,,SP,55,Read Transaction,00 08*
0,3727,1:01.419.244,79.000 us,2 B,,SP,55,Write Transaction,12 01
0,3728,1:01.424.608,659.500 us,25 B,,SP,55,Read Transaction,00 00 00 00 00 02 6C 64 00 00 00 00 02 6F 63 03 CD 00 00 00 00 00 01 03 00*
0,3729,1:01.433.159,676.800 us,26 B,,SP,55,Write Transaction,14 00 02 C8 A2 03 8E A9 06 EC 12 06 21 15 00 00 00 00 00 00 FF BF 00 86 FC 2F
0,3730,1:01.449.099,116.300 us,3 B,,SP,55,Read Transaction,00 00 18*
0,3731,1:01.453.494,79.200 us,2 B,,SP,55,Write Transaction,00 00
0,3732,1:01.458.851,86.700 us,2 B,,SP,55,Read Transaction,00 08*
0,3733,1:01.459.214,79.100 us,2 B,,SP,55,Write Transaction,12 01
0,3734,1:01.464.564,659.600 us,25 B,,SP,55,Read Transaction,00 00 00 00 00 02 6C 64 00 00 00 00 02 6F 63 03 CD 00 00 00 00 00 01 03 00*
0,3735,1:01.473.090,676.900 us,26 B,,SP,55,Write Transaction,14 00 02 CA 56 03 92 1E 06 ED 0E 06 21 65 00 00 00 00 00 00 FF C3 00 88 FC 37
0,3736,1:01.489.034,116.300 us,3 B,,SP,55,Read Transaction,00 00 18*
0,3737,1:01.493.427,79.000 us,2 B,,SP,55,Write Transaction,00 00
0,3738,1:01.498.774,86.700 us,2 B,,SP,55,Read Transaction,00 08*
0,3739,1:01.499.136,79.100 us,2 B,,SP,55,Write Transaction,12 01
0,3740,1:01.504.489,660.400 us,25 B,,SP,55,Read Transaction,00 00 00 00 00 02 6C 64 00 00 00 00 02 6F 63 03 CD 00 00 00 00 00 01 03 00*
0,3741,1:01.512.994,676.900 us,26 B,,SP,55,Write Transaction,14 00 02 CB 74 03 95 16 06 ED 8E 06 21 A9 00 00 00 00 00 00 FF BE 00 8C FC 31
0,3742,1:01.528.935,116.300 us,3 B,,SP,55,Read Transaction,00 00 18*
0,3743,1:01.533.327,79.100 us,2 B,,SP,55,Write Transaction,00 00
0,3744,1:01.538.678,86.600 us,2 B,,SP,55,Read Transaction,00 08*
0,3745,1:01.539.040,79.000 us,2 B,,SP,55,Write Transaction,12 01
0,3746,1:01.544.390,659.500 us,25 B,,SP,55,Read Transaction,00 00 00 00 00 02 6C 64 25 04 64 00 02 6F 63 03 CD 00 00 00 00 00 01 03 00*
0,3747,1:01.552.988,676.800 us,26 B,,SP,55,Write Transaction,14 00 02 CE 53 03 9A 40 06 F0 58 06 23 58 00 00 00 00 00 00 FF BC 00 86 FC 33
0,3748,1:01.568.927,116.300 us,3 B,,SP,55,Read Transaction,00 00 18*
0,3749,1:01.573.323,79.100 us,2 B,,SP,55,Write Transaction,00 00
0,3750,1:01.578.672,86.600 us,2 B,,SP,55,Read Transaction,00 08*
0,3751,1:01.579.035,79.100 us,2 B,,SP,55,Write Transaction,12 01
0,3752,1:01.584.383,659.500 us,25 B,,SP,55,Read Transaction,00 00 00 00 00 02 6C 64 00 00 00 00 02 6F 63 03 CD 00 00 00 00 00 01 03 00*
0,3753,1:01.592.870,676.900 us,26 B,,SP,55,Write Transaction,14 00 02 D2 16 03 A0 1F 06 F3 8A 06 25 45 00 00 00 00 00 00 FF BE 00 87 FC 34
0,3754,1:01.608.810,116.200 us,3 B,,SP,55,Read Transaction,00 00 18*
0,3755,1:01.613.204,79.100 us,2 B,,SP,55,Write Transaction,00 00
0,3756,1:01.618.552,86.700 us,2 B,,SP,55,Read Transaction,00 08*
0,3757,1:01.618.914,79.000 us,2 B,,SP,55,Write Transaction,12 01
0,3758,1:01.624.266,660.500 us,25 B,,SP,55,Read Transaction,00 00 00 00 00 02 6C 64 00 00 00 00 02 6F 63 03 CD 00 00 00 00 00 01 03 00*
0,3759,1:01.632.865,676.900 us,26 B,,SP,55,Write Transaction,14 00 02 D5 74 03 A5 D9 06 F5 D9 06 26 70 00 00 00 00 00 00 FF BF 00 89 FC 32
0,3760,1:01.648.804,116.200 us,3 B,,SP,55,Read Transaction,00 00 18*
0,3761,1:01.653.196,79.100 us,2 B,,SP,55,Write Transaction,00 00
0,3762,1:01.658.547,86.700 us,2 B,,SP,55,Read Transaction,00 08*
0,3763,1:01.658.909,79.100 us,2 B,,SP,55,Write Transaction,12 01
0,3764,1:01.664.256,659.000 us,25 B,,SP,55,Read Transaction,00 00 00 00 00 02 6C 64 00 00 00 00 02 6F 63 03 CD 00 00 00 00 00 01 03 00*
0,3765,1:01.672.747,676.800 us,26 B,,SP,55,Write Transaction,14 00 02 D8 E7 03 AB 21 06 F8 88 06 28 03 00 00 00 00 00 00 FF BF 00 89 FC 38
0,3766,1:01.688.691,116.300 us,3 B,,SP,55,Read Transaction,00 00 18*
0,3767,1:01.693.087,79.000 us,2 B,,SP,55,Write Transaction,00 00
0,3768,1:01.698.437,86.700 us,2 B,,SP,55,Read Transaction,00 08*
0,3769,1:01.698.799,79.000 us,2 B,,SP,55,Write Transaction,12 01
0,3770,1:01.704.149,659.600 us,25 B,,SP,55,Read Transaction,00 00 00 00 00 02 6C 64 00 00 00 00 02 6F 63 03 CD 00 00 00 00 00 01 03 00*
0,3771,1:01.712.762,676.900 us,26 B,,SP,55,Write Transaction,14 00 02 DC 03 03 AF D1 06 FA 89 06 29 17 00 00 00 00 00 00 FF C4 00 8A FC 37
0,3772,1:01.728.702,116.100 us,3 B,,SP,55,Read Transaction,00 00 18*
0,3773,1:01.733.095,79.100 us,2 B,,SP,55,Write Transaction,00 00
0,3774,1:01.738.452,86.800 us,2 B,,SP,55,Read Transaction,00 08*
0,3775,1:01.738.815,79.200 us,2 B,,SP,55,Write Transaction,12 01
0,3776,1:01.744.168,659.600 us,25 B,,SP,55,Read Transaction,00 00 00 00 00 02 6C 64 00 00 00 00 02 6F 63 03 CD 00 00 00 00 00 01 03 00*
0,3777,1:01.752.629,676.900 us,26 B,,SP,55,Write Transaction,14 00 02 DE 4E 03 B2 F7 06 FC 0F 06 29 F4 00 00 00 00 00 00 FF BC 00 89 FC 34
0,3778,1:01.768.570,116.200 us,3 B,,SP,55,Read Transaction,00 00 18*
0,3779,1:01.772.964,79.000 us,2 B,,SP,55,Write Transaction,00 00
0,3780,1:01.778.313,86.600 us,2 B,,SP,55,Read Transaction,00 08*
0,3781,1:01.778.675,79.100 us,2 B,,SP,55,Write Transaction,12 01
0,3782,1:01.784.027,660.600 us,25 B,,SP,55,Read Transaction,00 00 00 00 00 02 6C 64 00 00 00 00 02 6F 63 03 CD 00 00 00 00 00 01 03 00*
0,3783,1:01.792.596,676.400 us,26 B,,SP,55,Write Transaction,14 00 02 E1 23 03 B7 2D 06 FD FD 06 2A E5 00 00 00 00 00 00 FF BE 00 8A FC 30
0,3784,1:01.808.552,116.200 us,3 B,,SP,55,Read Transaction,00 00 18*
0,3785,1:01.812.944,79.200 us,2 B,,SP,55,Write Transaction,00 00
0,3786,1:01.818.302,86.800 us,2 B,,SP,55,Read Transaction,00 08*
0,3787,1:01.818.665,79.100 us,2 B,,SP,55,Write Transaction,12 01
0,3788,1:01.824.018,659.500 us,25 B,,SP,55,Read Transaction,00 00 00 00 00 02 6C 64 00 00 00 00 02 6F 63 03 CD 00 00 00 00 00 01 03 00*
0,3789,1:01.832.733,676.900 us,26 B,,SP,55,Write Transaction,14 00 02 E3 DD 03 BB 5D 06 FF 78 06 2B A8 00 00 00 00 00 00 FF BF 00 89 FC 31
0,3790,1:01.848.680,116.300 us,3 B,,SP,55,Read Transaction,00 00 18*
0,3791,1:01.853.076,79.000 us,2 B,,SP,55,Write Transaction,00 00
0,3792,1:01.858.426,86.700 us,2 B,,SP,55,Read Transaction,00 08*
0,3793,1:01.858.788,79.100 us,2 B,,SP,55,Write Transaction,12 01
0,3794,1:01.864.137,659.600 us,25 B,,SP,55,Read Transaction,00 00 00 00 00 02 6C 64 00 00 00 00 02 6F 63 03 CD 00 00 00 00 00 01 03 00*
0,3795,1:01.872.463,676.900 us,26 B,,SP,55,Write Transaction,14 00 02 E6 A9 03 BF 5D 07 01 49 06 2C 7C 00 00 00 00 00 00 FF C1 00 8C FC 34
0,3796,1:01.888.402,116.200 us,3 B,,SP,55,Read Transaction,00 00 18*
0,3797,1:01.892.855,79.100 us,2 B,,SP,55,Write Transaction,00 00
0,3798,1:01.898.212,86.800 us,2 B,,SP,55,Read Transaction,00 08*
0,3799,1:01.898.574,79.200 us,2 B,,SP,55,Write Transaction,12 01
0,3800,1:01.903.928,659.600 us,25 B,,SP,55,Read Transaction,00 00 00 00 00 02 6C 64 00 00 00 00 02 6F 63 03 CD 00 00 00 00 00 01 03 00*
0,3801,1:01.912.451,676.900 us,26 B,,SP,55,Write Transaction,14 00 02 E8 D6 03 C2 E2 07 01 C9 06 2C 57 00 00 00 00 00 00 FF C4 00 86 FC 36
0,3802,1:01.928.391,116.200 us,3 B,,SP,55,Read Transaction,00 00 18*
0,3803,1:01.932.783,79.000 us,2 B,,SP,55,Write Transaction,00 00
0,3804,1:01.938.134,86.700 us,2 B,,SP,55,Read Transaction,00 08*
0,3805,1:01.938.496,79.100 us,2 B,,SP,55,Write Transaction,12 01
0,3806,1:01.943.846,659.700 us,25 B,,SP,55,Read Transaction,00 00 00 00 00 02 6C 64 00 00 00 00 02 6F 63 03 CD 00 00 00 00 00 01 03 00*
0,3807,1:01.952.341,676.900 us,26 B,,SP,55,Write Transaction,14 00 02 EB 4F 03 C6 2C 07 03 AD 06 2D 6E 00 00 00 00 00 00 FF C0 00 87 FC 3E
0,3808,1:01.968.292,116.300 us,3 B,,SP,55,Read Transaction,00 00 18*
0,3809,1:01.972.686,79.000 us,2 B,,SP,55,Write Transaction,00 00
0,3810,1:01.978.043,86.800 us,2 B,,SP,55,Read Transaction,00 08*
0,3811,1:01.978.404,79.200 us,2 B,,SP,55,Write Transaction,12 01
0,3812,1:01.983.764,660.600 us,25 B,,SP,55,Read Transaction,00 00 00 00 00 02 6C 64 00 00 00 00 02 6F 63 03 CD 00 00 00 00 00 01 03 00*
0,3813,1:01.992.336,676.900 us,26 B,,SP,55,Write Transaction,14 00 02 ED 89 03 C9 23 07 04 9E 06 2D BB 00 00 00 00 00 00 FF C2 00 8D FC 34
0,3814,1:02.008.277,116.300 us,3 B,,SP,55,Read Transaction,00 00 18*
0,3815,1:02.012.670,79.100 us,2 B,,SP,55,Write Transaction,00 00
0,3816,1:02.018.023,86.700 us,2 B,,SP,55,Read Transaction,00 08*
0,3817,1:02.018.387,79.100 us,2 B,,SP,55,Write Transaction,12 01
0,3818,1:02.023.735,659.600 us,25 B,,SP,55,Read Transaction,00 00 00 00 00 02 6C 64 00 00 00 00 02 6F 63 03 CD 00 00 00 00 00 01 03 00*
0,3819,1:02.032.241,676.700 us,26 B,,SP,55,Write Transaction,14 00 02 F0 3A 03 CD 65 07 06 A5 06 2E D7 00 00 00 00 00 00 FF C7 00 85 FC 38
0,3820,1:02.048.181,116.300 us,3 B,,SP,55,Read Transaction,00 00 18*
0,3821,1:02.052.576,79.200 us,2 B,,SP,55,Write Transaction,00 00
0,3822,1:02.057.930,86.700 us,2 B,,SP,55,Read Transaction,00 08*
0,3823,1:02.058.292,79.100 us,2 B,,SP,55,Write Transaction,12 01
0,3824,1:02.063.645,659.500 us,25 B,,SP,55,Read Transaction,00 00 00 00 00 02 6C 64 00 00 00 00 02 6F 63 03 CD 00 00 00 00 00 01 03 00*
0,3825,1:02.072.200,676.900 us,26 B,,SP,55,Write Transaction,14 00 02 F3 AB 03 D2 30 07 09 12 06 2F F5 00 00 00 00 00 00 FF C3 00 82 FC 34
0,3826,1:02.088.140,116.300 us,3 B,,SP,55,Read Transaction,00 00 18*
0,3827,1:02.092.537,79.100 us,2 B,,SP,55,Write Transaction,00 00
0,3828,1:02.097.892,86.700 us,2 B,,SP,55,Read Transaction,00 08*
0,3829,1:02.098.254,79.100 us,2 B,,SP,55,Write Transaction,12 01
0,3830,1:02.103.604,659.600 us,25 B,,SP,55,Read Transaction,00 00 00 00 00 02 6C 64 00 00 00 00 02 6F 63 03 CD 00 00 00 00 00 01 03 00*
0,3831,1:02.112.127,676.900 us,26 B,,SP,55,Write Transaction,14 00 02 F1 B9 03 CB E0 07 04 AE 06 2D 4A 00 00 00 00 00 00 FF BB 00 85 FC 3A
0,3832,1:02.128.075,116.300 us,3 B,,SP,55,Read Transaction,00 00 18*
0,3833,1:02.132.471,79.200 us,2 B,,SP,55,Write Transaction,00 00
0,3834,1:02.137.886,86.700 us,2 B,,SP,55,Read Transaction,00 08*
0,3835,1:02.138.250,79.100 us,2 B,,SP,55,Write Transaction,12 01
0,3836,1:02.143.599,659.600 us,25 B,,SP,55,Read Transaction,00 00 00 00 00 02 6C 64 00 00 00 00 02 6F 63 03 CD 00 00 00 00 00 01 03 00*
0,3837,1:02.152.095,677.000 us,26 B,,SP,55,Write Transaction,14 00 02 E4 31 03 B5 33 06 F9 AE 06 27 B2 00 00 00 00 00 00 FF BE 00 89 FC 2E
0,3838,1:02.168.034,116.300 us,3 B,,SP,55,Read Transaction,00 00 18*
0,3839,1:02.172.430,79.100 us,2 B,,SP,55,Write Transaction,00 00
0,3840,1:02.177.782,86.700 us,2 B,,SP,55,Read Transaction,00 08*
0,3841,1:02.178.145,79.000 us,2 B,,SP,55,Write Transaction,12 01
0,3842,1:02.183.495,659.100 us,25 B,,SP,55,Read Transaction,00 00 00 00 00 02 6C 64 00 00 00 00 02 6F 63 03 CD 00 00 00 00 00 01 03 00*
0,3843,1:02.192.043,676.900 us,26 B,,SP,55,Write Transaction,14 00 02 D3 38 03 9B D8 06 EF 25 06 22 8F 00 00 00 00 00 00 FF BF 00 86 FC 38
0,3844,1:02.207.984,116.300 us,3 B,,SP,55,Read Transaction,00 00 18*
0,3845,1:02.212.379,79.000 us,2 B,,SP,55,Write Transaction,00 00
0,3846,1:02.217.730,86.700 us,2 B,,SP,55,Read Transaction,00 08*
0,3847,1:02.218.092,79.100 us,2 B,,SP,55,Write Transaction,12 01
0,3848,1:02.223.442,660.600 us,25 B,,SP,55,Read Transaction,00 00 00 00 00 02 6C 64 00 00 00 00 02 6F 63 03 CD E4 00 00 00 00 01 03 00*
0,3849,1:02.231.976,676.900 us,26 B,,SP,55,Write Transaction,14 00 02 C8 F9 03 8A 7E 06 E9 DC 06 20 37 00 00 00 00 00 00 FF BE 00 89 FC 32
0,3850,1:02.247.918,116.300 us,3 B,,SP,55,Read Transaction,00 00 18*
0,3851,1:02.252.312,79.100 us,2 B,,SP,55,Write Transaction,00 00
0,3852,1:02.257.661,86.700 us,2 B,,SP,55,Read Transaction,00 08*
0,3853,1:02.258.022,79.000 us,2 B,,SP,55,Write Transaction,12 01
0,3854,1:02.263.373,659.600 us,25 B,,SP,55,Read Transaction,00 00 00 00 00 02 6C 64 00 00 00 00 02 6F 63 03 CD 00 00 00 00 00 01 03 00*
0,3855,1:02.271.962,677.800 us,26 B,,SP,55,Write Transaction,14 00 02 C3 B0 03 7F 3F 06 E7 9F 06 1F 38 00 00 00 00 00 00 FF C1 00 8D FC 32
0,3856,1:02.287.911,116.300 us,3 B,,SP,55,Read Transaction,00 00 18*
0,3857,1:02.292.303,79.100 us,2 B,,SP,55,Write Transaction,00 00
0,3858,1:02.297.652,86.600 us,2 B,,SP,55,Read Transaction,00 08*
0,3859,1:02.298.015,79.100 us,2 B,,SP,55,Write Transaction,12 01
0,3860,1:02.303.363,659.600 us,25 B,,SP,55,Read Transaction,00 00 00 00 00 02 6C 64 00 00 00 00 02 6F 63 03 CD 00 00 00 00 00 01 03 00*
0,3861,1:02.311.856,676.900 us,26 B,,SP,55,Write Transaction,14 00 02 C0 94 03 77 F5 06 E6 1E 06 1E CD 00 00 00 00 00 00 FF BD 00 8A FC 39
0,3862,1:02.327.806,116.100 us,3 B,,SP,55,Read Transaction,00 00 18*
0,3863,1:02.332.200,79.100 us,2 B,,SP,55,Write Transaction,00 00
0,3864,1:02.337.550,86.700 us,2 B,,SP,55,Read Transaction,00 08*
0,3865,1:02.337.911,79.100 us,2 B,,SP,55,Write Transaction,12 01
0,3866,1:02.343.261,659.600 us,25 B,,SP,55,Read Transaction,00 00 00 00 00 02 6C 64 00 00 00 00 02 6F 63 03 CD 00 00 00 00 00 01 03 00*
0,3867,1:02.351.791,677.200 us,26 B,,SP,55,Write Transaction,14 00 02 C1 1E 03 79 13 06 E7 EB 06 1F C9 00 00 00 00 00 00 FF BF 00 88 FC 37
0,3868,1:02.367.742,116.300 us,3 B,,SP,55,Read Transaction,00 00 18*
0,3869,1:02.372.135,79.000 us,2 B,,SP,55,Write Transaction,00 00
0,3870,1:02.377.485,86.800 us,2 B,,SP,55,Read Transaction,00 08*
0,3871,1:02.377.848,79.100 us,2 B,,SP,55,Write Transaction,12 01
0,3872,1:02.383.198,659.200 us,25 B,,SP,55,Read Transaction,00 00 00 00 00 02 6C 64 00 00 00 00 02 6F 63 03 CD 00 00 00 00 00 01 03 00*
0,3873,1:02.391.765,676.900 us,26 B,,SP,55,Write Transaction,14 00 02 C3 64 03 7E 54 06 E8 35 06 1F 6F 00 00 00 00 00 00 FF BF 00 85 FC 35
0,3874,1:02.407.705,116.200 us,3 B,,SP,55,Read Transaction,00 00 18*
0,3875,1:02.412.098,79.000 us,2 B,,SP,55,Write Transaction,00 00
0,3876,1:02.417.448,86.700 us,2 B,,SP,55,Read Transaction,00 08*
0,3877,1:02.417.809,79.100 us,2 B,,SP,55,Write Transaction,12 01
0,3878,1:02.423.160,659.600 us,25 B,,SP,55,Read Transaction,00 00 00 00 00 02 6C 64 00 00 00 00 02 6F 63 03 CD 00 00 00 00 00 01 03 00*
0,3879,1:02.431.645,676.800 us,26 B,,SP,55,Write Transaction,14 00 02 C4 4C 03 81 23 06 E9 6E 06 20 7A 00 00 00 00 00 00 FF BE 00 89 FC 32
0,3880,1:02.447.588,116.300 us,3 B,,SP,55,Read Transaction,00 00 18*
0,3881,1:02.451.982,79.000 us,2 B,,SP,55,Write Transaction,00 00
0,3882,1:02.457.332,86.600 us,2 B,,SP,55,Read Transaction,00 08*
0,3883,1:02.457.695,79.100 us,2 B,,SP,55,Write Transaction,12 01
0,3884,1:02.463.046,659.600 us,25 B,,SP,55,Read Transaction,00 00 00 00 00 02 6C 64 00 00 00 00 02 6F 63 03 CD 00 00 00 00 00 01 03 00*
0,3885,1:02.471.671,677.000 us,26 B,,SP,55,Write Transaction,14 00 02 C5 59 03 84 32 06 EA 97 06 21 2E 00 00 00 00 00 00 FF C0 00 85 FC 32
0,3886,1:02.487.610,116.300 us,3 B,,SP,55,Read Transaction,00 00 18*
0,3887,1:02.492.007,79.100 us,2 B,,SP,55,Write Transaction,00 00
0,3888,1:02.497.366,86.800 us,2 B,,SP,55,Read Transaction,00 08*
0,3889,1:02.497.728,79.200 us,2 B,,SP,55,Write Transaction,12 01
0,3890,1:02.503.085,660.500 us,25 B,,SP,55,Read Transaction,00 00 00 00 00 02 6C 64 25 E7 64 00 02 6F 63 03 CD 00 00 00 00 00 01 03 00*
0,3891,1:02.512.057,677.000 us,26 B,,SP,55,Write Transaction,14 00 02 C6 E8 03 88 43 06 EB F1 06 21 FE 00 00 00 00 00 00 FF C2 00 88 FC 32
0,3892,1:02.527.998,116.400 us,3 B,,SP,55,Read Transaction,00 00 18*
0,3893,1:02.532.396,79.100 us,2 B,,SP,55,Write Transaction,00 00
0,3894,1:02.537.750,86.700 us,2 B,,SP,55,Read Transaction,00 08*
0,3895,1:02.538.112,79.100 us,2 B,,SP,55,Write Transaction,12 01
0,3896,1:02.543.461,659.600 us,25 B,,SP,55,Read Transaction,00 00 00 00 00 02 6C 64 00 00 00 00 02 6F 63 03 CD 00 00 00 00 00 01 03 00*
0,3897,1:02.551.542,676.900 us,26 B,,SP,55,Write Transaction,14 00 02 CA 93 03 8E CB 06 EF 1A 06 23 CE 00 00 00 00 00 00 FF BC 00 89 FC 30
0,3898,1:02.567.488,116.300 us,3 B,,SP,55,Read Transaction,00 00 18*
0,3899,1:02.571.882,79.000 us,2 B,,SP,55,Write Transaction,00 00
0,3900,1:02.577.231,86.700 us,2 B,,SP,55,Read Transaction,00 08*
0,3901,1:02.577.594,79.000 us,2 B,,SP,55,Write Transaction,12 01
0,3902,1:02.582.942,659.500 us,25 B,,SP,55,Read Transaction,00 00 00 00 00 02 6C 64 00 00 00 00 02 6F 63 03 CD 00 00 00 00 00 01 03 00*
0,3903,1:02.591.419,676.900 us,26 B,,SP,55,Write Transaction,14 00 02 CE 50 03 94 8C 06 F1 E5 06 25 60 00 00 00 00 00 00 FF BD 00 86 FC 39
0,3904,1:02.607.356,116.300 us,3 B,,SP,55,Read Transaction,00 00 18*
0,3905,1:02.611.749,79.100 us,2 B,,SP,55,Write Transaction,00 00
0,3906,1:02.617.098,86.700 us,2 B,,SP,55,Read Transaction,00 08*
0,3907,1:02.617.459,79.100 us,2 B,,SP,55,Write Transaction,12 01
0,3908,1:02.622.809,659.500 us,25 B,,SP,55,Read Transaction,00 00 00 00 00 02 6C 64 00 00 00 00 02 6F 63 03 CD 00 00 00 00 00 01 03 00*
0,3909,1:02.631.446,676.900 us,26 B,,SP,55,Write Transaction,14 00 02 D2 05 03 9A 0D 06 F5 35 06 27 5E 00 00 00 00 00 00 FF C4 00 8A FC 30
0,3910,1:02.647.384,116.300 us,3 B,,SP,55,Read Transaction,00 00 18*
0,3911,1:02.651.780,79.100 us,2 B,,SP,55,Write Transaction,00 00
0,3912,1:02.657.130,86.600 us,2 B,,SP,55,Read Transaction,00 08*
0,3913,1:02.657.493,79.000 us,2 B,,SP,55,Write Transaction,12 01
0,3914,1:02.662.840,659.600 us,25 B,,SP,55,Read Transaction,00 00 00 00 00 02 6C 64 00 00 00 00 02 6F 63 03 CD 00 00 00 00 00 01 03 00*
0,3915,1:02.671.320,676.900 us,26 B,,SP,55,Write Transaction,14 00 02 D5 97 03 9E DF 06 F8 12 06 29 03 00 00 00 00 00 00 FF C0 00 87 FC 37
0,3916,1:02.687.263,116.200 us,3 B,,SP,55,Read Transaction,00 00 18*
0,3917,1:02.691.658,79.100 us,2 B,,SP,55,Write Transaction,00 00
0,3918,1:02.697.008,86.700 us,2 B,,SP,55,Read Transaction,00 08*
0,3919,1:02.697.369,79.100 us,2 B,,SP,55,Write Transaction,12 01
0,3920,1:02.702.721,659.600 us,25 B,,SP,55,Read Transaction,00 00 00 00 00 02 6C 64 00 00 00 00 02 6F 63 03 CD 00 00 00 00 00 01 03 00*
0,3921,1:02.711.280,678.000 us,26 B,,SP,55,Write Transaction,14 00 02 D8 55 03 A1 E1 06 F9 F9 06 2A 02 00 00 00 00 00 00 FF C2 00 86 FC 33
0,3922,1:02.727.226,116.300 us,3 B,,SP,55,Read Transaction,00 00 18*
0,3923,1:02.731.616,79.100 us,2 B,,SP,55,Write Transaction,00 00
0,3924,1:02.736.967,86.700 us,2 B,,SP,55,Read Transaction,00 08*
0,3925,1:02.737.329,79.100 us,2 B,,SP,55,Write Transaction,12 01
0,3926,1:02.742.687,660.600 us,25 B,,SP,55,Read Transaction,00 00 00 00 00 02 6C 64 00 00 00 00 02 6F 63 03 CD 00 00 00 00 00 01 03 00*
0,3927,1:02.751.222,677.900 us,26 B,,SP,55,Write Transaction,14 00 02 DB 07 03 A6 22 06 FB 8F 06 2A AE 00 00 00 00 00 00 FF BD 00 85 FC 37
0,3928,1:02.767.178,116.500 us,3 B,,SP,55,Read Transaction,00 00 18*
0,3929,1:02.771.574,79.100 us,2 B,,SP,55,Write Transaction,00 00
0,3930,1:02.776.981,86.700 us,2 B,,SP,55,Read Transaction,00 08*
0,3931,1:02.777.343,79.100 us,2 B,,SP,55,Write Transaction,12 01
0,3932,1:02.782.693,659.700 us,25 B,,SP,55,Read Transaction,00 00 00 00 00 02 6C 64 00 00 00 00 02 6F 63 03 CD 00 00 00 00 00 01 03 00*
0,3933,1:02.791.162,676.800 us,26 B,,SP,55,Write Transaction,14 00 02 DE 1C 03 AA F5 06 FD 3B 06 2B 80 00 00 00 00 00 00 FF BB 00 86 FC 35
0,3934,1:02.807.110,116.300 us,3 B,,SP,55,Read Transaction,00 00 18*
0,3935,1:02.811.503,79.200 us,2 B,,SP,55,Write Transaction,00 00
0,3936,1:02.816.859,86.700 us,2 B,,SP,55,Read Transaction,00 08*
0,3937,1:02.817.221,79.100 us,2 B,,SP,55,Write Transaction,12 01
0,3938,1:02.822.572,659.600 us,25 B,,SP,55,Read Transaction,00 00 00 00 00 02 6C 64 00 00 00 00 02 6F 63 03 CD 00 00 00 00 00 01 03 00*
0,3939,1:02.831.125,676.800 us,26 B,,SP,55,Write Transaction,14 00 02 E0 D0 03 AE 04 06 FF 41 06 2C BB 00 00 00 00 00 00 FF BF 00 88 FC 31
0,3940,1:02.847.073,116.300 us,3 B,,SP,55,Read Transaction,00 00 18*
0,3941,1:02.851.464,79.100 us,2 B,,SP,55,Write Transaction,00 00
0,3942,1:02.856.815,86.700 us,2 B,,SP,55,Read Transaction,00 08*
0,3943,1:02.857.178,79.100 us,2 B,,SP,55,Write Transaction,12 01
0,3944,1:02.862.526,659.700 us,25 B,,SP,55,Read Transaction,00 00 00 00 00 02 6C 64 00 00 00 00 02 6F 63 03 CD 00 00 00 00 00 01 03 00*
0,3945,1:02.871.052,676.800 us,26 B,,SP,55,Write Transaction,14 00 02 E3 BE 03 B2 7D 07 01 4B 06 2D E0 00 00 00 00 00 00 FF BD 00 8C FC 31
0,3946,1:02.886.990,116.200 us,3 B,,SP,55,Read Transaction,00 00 18*
0,3947,1:02.891.383,79.100 us,2 B,,SP,55,Write Transaction,00 00
0,3948,1:02.896.732,86.700 us,2 B,,SP,55,Read Transaction,00 08*
0,3949,1:02.897.094,79.000 us,2 B,,SP,55,Write Transaction,12 01
0,3950,1:02.902.445,660.100 us,25 B,,SP,55,Read Transaction,00 00 00 00 00 02 6C 64 00 00 00 00 02 6F 63 03 CD 00 00 00 00 00 01 03 00*
0,3951,1:02.911.002,676.800 us,26 B,,SP,55,Write Transaction,14 00 02 E7 09 03 B9 2C 07 03 3C 06 2E C9 00 00 00 00 00 00 FF BD 00 8B FC 37
0,3952,1:02.926.947,116.300 us,3 B,,SP,55,Read Transaction,00 00 18*
0,3953,1:02.931.339,79.100 us,2 B,,SP,55,Write Transaction,00 00
0,3954,1:02.936.690,86.700 us,2 B,,SP,55,Read Transaction,00 08*
0,3955,1:02.937.053,79.000 us,2 B,,SP,55,Write Transaction,12 01
0,3956,1:02.942.401,659.600 us,25 B,,SP,55,Read Transaction,00 00 00 00 00 02 6C 64 00 00 00 00 02 6F 63 03 CD 00 00 00 00 00 01 03 00*
0,3957,1:02.950.953,676.800 us,26 B,,SP,55,Write Transaction,14 00 02 EA 7B 03 BF 5F 07 05 93 06 30 19 00 00 00 00 00 00 FF C1 00 89 FC 30
0,3958,1:02.966.907,116.300 us,3 B,,SP,55,Read Transaction,00 00 18*
0,3959,1:02.971.300,79.100 us,2 B,,SP,55,Write Transaction,00 00
0,3960,1:02.976.649,86.700 us,2 B,,SP,55,Read Transaction,00 08*
0,3961,1:02.977.010,79.100 us,2 B,,SP,55,Write Transaction,12 01
0,3962,1:02.982.363,659.600 us,25 B,,SP,55,Read Transaction,00 00 00 00 00 02 6C 64 00 00 00 00 02 6F 63 03 CD 00 00 00 00 00 01 03 00*
0,3963,1:02.990.867,677.500 us,26 B,,SP,55,Write Transaction,14 00 02 EE A6 03 C6 7D 07 08 5A 06 31 7C 00 00 00 00 00 00 FF BE 00 87 FC 34
0,3964,1:03.006.808,116.300 us,3 B,,SP,55,Read Transaction,00 00 18*
0,3965,1:03.011.200,79.100 us,2 B,,SP,55,Write Transaction,00 00
0,3966,1:03.016.551,86.700 us,2 B,,SP,55,Read Transaction,00 08*
0,3967,1:03.016.914,79.100 us,2 B,,SP,55,Write Transaction,12 01
0,3968,1:03.022.269,659.500 us,25 B,,SP,55,Read Transaction,00 00 00 00 00 02 6C 64 00 00 00 00 02 6F 63 03 CD 00 00 00 00 00 01 03 00*
0,3969,1:03.030.882,676.800 us,26 B,,SP,55,Write Transaction,14 00 02 F1 44 03 C9 B5 07 08 1F 06 30 90 00 00 00 00 00 00 FF C2 00 85 FC 35
0,3970,1:03.046.853,116.200 us,3 B,,SP,55,Read Transaction,00 00 18*
0,3971,1:03.051.246,79.100 us,2 B,,SP,55,Write Transaction,00 00
0,3972,1:03.056.597,90.900 us,2 B,,SP,55,Read Transaction,00 08*
0,3973,1:03.056.964,79.200 us,2 B,,SP,55,Write Transaction,12 01
0,3974,1:03.062.315,659.500 us,25 B,,SP,55,Read Transaction,00 00 00 00 00 02 6C 64 00 00 00 00 02 6F 63 03 CD 00 00 00 00 00 01 03 00*
0,3975,1:03.070.765,676.900 us,26 B,,SP,55,Write Transaction,14 00 02 E9 F5 03 B9 72 06 FD 97 06 2A 48 00 00 00 00 00 00 FF BE 00 8A FC 31
0,3976,1:03.086.719,116.300 us,3 B,,SP,55,Read Transaction,00 00 18*
0,3977,1:03.091.111,79.100 us,2 B,,SP,55,Write Transaction,00 00
0,3978,1:03.096.462,86.600 us,2 B,,SP,55,Read Transaction,00 08*
0,3979,1:03.096.825,79.000 us,2 B,,SP,55,Write Transaction,12 01
0,3980,1:03.102.176,659.700 us,25 B,,SP,55,Read Transaction,00 00 00 00 00 02 6C 64 00 00 00 00 02 6F 63 03 CD 00 00 00 00 00 01 03 00*
0,3981,1:03.110.751,677.900 us,26 B,,SP,55,Write Transaction,14 00 02 D7 F9 03 9C 1E 06 F1 BC 06 24 F7 00 00 00 00 00 00 FF C2 00 8B FC 33
0,3982,1:03.126.767,116.200 us,3 B,,SP,55,Read Transaction,00 00 18*
0,3983,1:03.131.160,79.100 us,2 B,,SP,55,Write Transaction,00 00
0,3984,1:03.136.511,86.700 us,2 B,,SP,55,Read Transaction,00 08*
0,3985,1:03.136.873,79.000 us,2 B,,SP,55,Write Transaction,12 01
0,3986,1:03.142.221,660.300 us,25 B,,SP,55,Read Transaction,00 00 00 00 00 02 6C 64 00 00 00 00 02 6F 63 03 CD 00 00 00 00 00 01 03 00*
0,3987,1:03.150.667,677.000 us,26 B,,SP,55,Write Transaction,14 00 02 C9 22 03 83 69 06 E9 78 06 21 45 00 00 00 00 00 00 FF BC 00 88 FC 32
0,3988,1:03.166.606,116.300 us,3 B,,SP,55,Read Transaction,00 00 18*
0,3989,1:03.171.001,79.100 us,2 B,,SP,55,Write Transaction,00 00
0,3990,1:03.176.350,86.700 us,2 B,,SP,55,Read Transaction,00 08*
0,3991,1:03.176.712,79.100 us,2 B,,SP,55,Write Transaction,12 01
0,3992,1:03.182.068,660.600 us,25 B,,SP,55,Read Transaction,00 00 00 00 00 02 6C 64 00 00 00 00 02 6F 63 03 CD 00 00 00 00 00 01 03 00*
0,3993,1:03.191.529,677.800 us,26 B,,SP,55,Write Transaction,14 00 02 C0 A2 03 6F D6 06 E4 61 06 1F 05 00 00 00 00 00 00 FF C3 00 86 FC 2F
0,3994,1:03.207.477,116.300 us,3 B,,SP,55,Read Transaction,00 00 18*
0,3995,1:03.211.870,79.100 us,2 B,,SP,55,Write Transaction,00 00
0,3996,1:03.217.221,86.600 us,2 B,,SP,55,Read Transaction,00 08*
0,3997,1:03.217.584,79.000 us,2 B,,SP,55,Write Transaction,12 01
0,3998,1:03.222.933,659.700 us,25 B,,SP,55,Read Transaction,00 00 00 00 00 02 6C 64 00 00 00 00 02 6F 63 03 CD E4 00 00 00 00 01 03 00*
0,3999,1:03.230.532,677.900 us,26 B,,SP,55,Write Transaction,14 00 02 BB FD 03 65 6E 06 E1 43 06 1D 88 00 00 00 00 00 00 FF BE 00 84 FC 30
0,4000,1:03.246.485,116.200 us,3 B,,SP,55,Read Transaction,00 00 18*
0,4001,1:03.250.880,79.100 us,2 B,,SP,55,Write Transaction,00 00
0,4002,1:03.256.230,86.600 us,2 B,,SP,55,Read Transaction,00 08*
0,4003,1:03.256.591,79.000 us,2 B,,SP,55,Write Transaction,12 01
0,4004,1:03.261.941,659.600 us,25 B,,SP,55,Read Transaction,00 00 00 00 00 02 6C 64 00 00 00 00 02 6F 63 03 CD 00 00 00 00 00 01 03 00*
0,4005,1:03.270.512,677.900 us,26 B,,SP,55,Write Transaction,14 00 02 B9 CE 03 63 7B 06 E0 43 06 1D 53 00 00 00 00 00 00 FF BD 00 84 FC 39
0,4006,1:03.286.470,116.200 us,3 B,,SP,55,Read Transaction,00 00 18*
0,4007,1:03.290.861,79.100 us,2 B,,SP,55,Write Transaction,00 00
0,4008,1:03.296.211,86.700 us,2 B,,SP,55,Read Transaction,00 08*
0,4009,1:03.296.574,79.100 us,2 B,,SP,55,Write Transaction,12 01
0,4010,1:03.301.925,659.600 us,25 B,,SP,55,Read Transaction,00 00 00 00 00 02 6C 64 00 00 00 00 02 6F 63 03 CD 00 00 00 00 00 01 03 00*
0,4011,1:03.310.439,677.500 us,26 B,,SP,55,Write Transaction,14 00 02 BC 05 03 69 6F 06 E3 53 06 1F 26 00 00 00 00 00 00 FF C1 00 89 FC 2E
0,4012,1:03.326.384,116.300 us,3 B,,SP,55,Read Transaction,00 00 18*
0,4013,1:03.330.778,79.100 us,2 B,,SP,55,Write Transaction,00 00
0,4014,1:03.336.131,86.800 us,2 B,,SP,55,Read Transaction,00 08*
0,4015,1:03.336.492,79.100 us,2 B,,SP,55,Write Transaction,12 01
0,4016,1:03.341.845,659.600 us,25 B,,SP,55,Read Transaction,00 00 00 00 00 02 6C 64 00 00 00 00 02 6F 63 03 CD 00 00 00 00 00 01 03 00*
0,4017,1:03.350.356,676.800 us,26 B,,SP,55,Write Transaction,14 00 02 BF 65 03 70 29 06 E5 52 06 1F E5 00 00 00 00 00 00 FF BD 00 88 FC 31
0,4018,1:03.366.295,116.300 us,3 B,,SP,55,Read Transaction,00 00 18*
0,4019,1:03.370.687,79.000 us,2 B,,SP,55,Write Transaction,00 00
0,4020,1:03.376.037,86.700 us,2 B,,SP,55,Read Transaction,00 08*
0,4021,1:03.376.399,79.100 us,2 B,,SP,55,Write Transaction,12 01
0,4022,1:03.381.750,659.600 us,25 B,,SP,55,Read Transaction,00 00 00 00 00 02 6C 64 00 00 00 00 02 6F 63 03 CD 00 00 00 00 00 01 03 00*
0,4023,1:03.390.353,676.800 us,26 B,,SP,55,Write Transaction,14 00 02 C0 F8 03 72 EA 06 E6 B2 06 20 DB 00 00 00 00 00 00 FF BF 00 86 FC 38
0,4024,1:03.406.318,116.200 us,3 B,,SP,55,Read Transaction,00 00 18*
0,4025,1:03.410.712,79.100 us,2 B,,SP,55,Write Transaction,00 00
0,4026,1:03.416.062,86.700 us,2 B,,SP,55,Read Transaction,00 08*
0,4027,1:03.416.425,79.100 us,2 B,,SP,55,Write Transaction,12 01
0,4028,1:03.421.774,660.500 us,25 B,,SP,55,Read Transaction,00 00 00 00 00 02 6C 64 00 00 00 00 02 6F 63 03 CD 00 00 00 00 00 01 03 00*
0,4029,1:03.430.285,676.800 us,26 B,,SP,55,Write Transaction,14 00 02 C1 6E 03 72 D9 06 E7 06 06 21 14 00 00 00 00 00 00 FF BE 00 8B FC 35
0,4030,1:03.446.227,116.500 us,3 B,,SP,55,Read Transaction,00 00 18*
0,4031,1:03.450.621,79.100 us,2 B,,SP,55,Write Transaction,00 00
0,4032,1:03.455.973,86.700 us,2 B,,SP,55,Read Transaction,00 08*
0,4033,1:03.456.334,79.000 us,2 B,,SP,55,Write Transaction,12 01
0,4034,1:03.461.684,659.600 us,25 B,,SP,55,Read Transaction,00 00 00 00 00 02 6C 64 00 00 00 00 02 6F 63 03 CD 00 00 00 00 00 01 03 00*
0,4035,1:03.470.259,677.200 us,26 B,,SP,55,Write Transaction,14 00 02 C3 64 03 77 65 06 E8 52 06 21 C9 00 00 00 00 00 00 FF BD 00 87 FC 30
0,4036,1:03.486.202,116.200 us,3 B,,SP,55,Read Transaction,00 00 18*
0,4037,1:03.490.598,79.200 us,2 B,,SP,55,Write Transaction,00 00
0,4038,1:03.495.949,86.700 us,2 B,,SP,55,Read Transaction,00 08*
0,4039,1:03.496.311,79.100 us,2 B,,SP,55,Write Transaction,12 01
0,4040,1:03.501.659,659.000 us,25 B,,SP,55,Read Transaction,00 00 00 00 00 02 6C 64 26 04 64 00 02 6F 63 03 CD 00 00 00 00 00 01 03 00*
0,4041,1:03.510.138,677.800 us,26 B,,SP,55,Write Transaction,14 00 02 C7 12 03 7E 9E 06 EB A8 06 23 B3 00 00 00 00 00 00 FF B9 00 87 FC 38
0,4042,1:03.526.079,116.300 us,3 B,,SP,55,Read Transaction,00 00 18*
0,4043,1:03.530.472,79.000 us,2 B,,SP,55,Write Transaction,00 00
0,4044,1:03.535.820,86.700 us,2 B,,SP,55,Read Transaction,00 08*
0,4045,1:03.536.182,79.000 us,2 B,,SP,55,Write Transaction,12 01
0,4046,1:03.541.531,659.100 us,25 B,,SP,55,Read Transaction,00 00 00 00 00 02 6C 64 00 00 00 00 02 6F 63 03 CD 00 00 00 00 00 01 03 00*
0,4047,1:03.550.128,676.800 us,26 B,,SP,55,Write Transaction,14 00 02 CB 9A 03 86 BE 06 EF 74 06 25 CA 00 00 00 00 00 00 FF BB 00 8E FC 30
0,4048,1:03.566.073,116.200 us,3 B,,SP,55,Read Transaction,00 00 18*
0,4049,1:03.570.464,79.100 us,2 B,,SP,55,Write Transaction,00 00
0,4050,1:03.575.818,86.700 us,2 B,,SP,55,Read Transaction,00 08*
0,4051,1:03.576.181,79.100 us,2 B,,SP,55,Write Transaction,12 01
0,4052,1:03.581.528,659.500 us,25 B,,SP,55,Read Transaction,00 00 00 00 00 02 6C 64 00 00 00 00 02 6F 63 03 CD 00 00 00 00 00 01 03 00*
0,4053,1:03.590.009,676.800 us,26 B,,SP,55,Write Transaction,14 00 02 D0 31 03 8D D9 06 F3 04 06 27 B1 00 00 00 00 00 00 FF BA 00 88 FC 34
0,4054,1:03.605.951,116.300 us,3 B,,SP,55,Read Transaction,00 00 18*
0,4055,1:03.610.345,79.000 us,2 B,,SP,55,Write Transaction,00 00
0,4056,1:03.615.694,86.700 us,2 B,,SP,55,Read Transaction,00 08*
0,4057,1:03.616.055,79.100 us,2 B,,SP,55,Write Transaction,12 01
0,4058,1:03.621.405,659.500 us,25 B,,SP,55,Read Transaction,00 00 00 00 00 02 6C 64 00 00 00 00 02 6F 63 03 CD 00 00 00 00 00 01 03 00*
0,4059,1:03.629.986,676.900 us,26 B,,SP,55,Write Transaction,14 00 02 D4 6E 03 94 89 06 F5 FD 06 29 60 00 00 00 00 00 00 FF BD 00 8A FC 38
0,4060,1:03.645.925,116.200 us,3 B,,SP,55,Read Transaction,00 00 18*
0,4061,1:03.650.316,79.100 us,2 B,,SP,55,Write Transaction,00 00
0,4062,1:03.655.667,86.600 us,2 B,,SP,55,Read Transaction,00 08*
0,4063,1:03.656.029,79.100 us,2 B,,SP,55,Write Transaction,12 01
0,4064,1:03.661.380,659.500 us,25 B,,SP,55,Read Transaction,00 00 00 00 00 02 6C 64 00 00 00 00 02 6F 63 03 CD 00 00 00 00 00 01 03 00*
0,4065,1:03.669.943,676.900 us,26 B,,SP,55,Write Transaction,14 00 02 D8 89 03 9A D9 06 F9 20 06 2B 2C 00 00 00 00 00 00 FF B9 00 88 FC 30
0,4066,1:03.685.884,116.200 us,3 B,,SP,55,Read Transaction,00 00 18*
0,4067,1:03.690.277,79.000 us,2 B,,SP,55,Write Transaction,00 00
0,4068,1:03.695.628,86.700 us,2 B,,SP,55,Read Transaction,00 08*
0,4069,1:03.695.992,79.100 us,2 B,,SP,55,Write Transaction,12 01
0,4070,1:03.701.340,659.600 us,25 B,,SP,55,Read Transaction,00 00 00 00 00 02 6C 64 00 00 00 00 02 6F 63 03 CD 00 00 00 00 00 01 03 00*
0,4071,1:03.709.875,676.900 us,26 B,,SP,55,Write Transaction,14 00 02 DC A2 03 A1 40 06 FB CF 06 2C A2 00 00 00 00 00 00 FF BC 00 8B FC 35
0,4072,1:03.725.825,116.300 us,3 B,,SP,55,Read Transaction,00 00 18*
0,4073,1:03.730.218,79.000 us,2 B,,SP,55,Write Transaction,00 00
0,4074,1:03.735.567,86.600 us,2 B,,SP,55,Read Transaction,00 08*
0,4075,1:03.735.929,79.100 us,2 B,,SP,55,Write Transaction,12 01
0,4076,1:03.741.282,659.700 us,25 B,,SP,55,Read Transaction,00 00 00 00 00 02 6C 64 00 00 00 00 02 6F 63 03 CD 00 00 00 00 00 01 03 00*
0,4077,1:03.749.828,677.300 us,26 B,,SP,55,Write Transaction,14 00 02 E0 87 03 A8 11 06 FE 96 06 2E 18 00 00 00 00 00 00 FF BE 00 88 FC 36
0,4078,1:03.765.862,116.200 us,3 B,,SP,55,Read Transaction,00 00 18*
0,4079,1:03.770.255,79.000 us,2 B,,SP,55,Write Transaction,00 00
0,4080,1:03.775.605,86.700 us,2 B,,SP,55,Read Transaction,00 08*
0,4081,1:03.775.967,79.000 us,2 B,,SP,55,Write Transaction,12 01
0,4082,1:03.781.314,659.500 us,25 B,,SP,55,Read Transaction,00 00 00 00 00 02 6C 64 00 00 00 00 02 6F 63 03 CD 00 00 00 00 00 01 03 00*
0,4083,1:03.789.768,676.900 us,26 B,,SP,55,Write Transaction,14 00 02 E4 AC 03 AE 5E 07 01 7E 06 2F C9 00 00 00 00 00 00 FF BD 00 85 FC 32
0,4084,1:03.805.707,116.300 us,3 B,,SP,55,Read Transaction,00 00 18*
0,4085,1:03.810.102,79.100 us,2 B,,SP,55,Write Transaction,00 00
0,4086,1:03.815.456,86.700 us,2 B,,SP,55,Read Transaction,00 08*
0,4087,1:03.815.817,79.000 us,2 B,,SP,55,Write Transaction,12 01
0,4088,1:03.821.171,659.600 us,25 B,,SP,55,Read Transaction,00 00 00 00 00 02 6C 64 00 00 00 00 02 6F 63 03 CD 00 00 00 00 00 01 03 00*
0,4089,1:03.829.723,676.500 us,26 B,,SP,55,Write Transaction,14 00 02 E8 43 03 B4 27 07 03 D4 06 30 F0 00 00 00 00 00 00 FF BE 00 88 FC 32
0,4090,1:03.845.669,116.300 us,3 B,,SP,55,Read Transaction,00 00 18*
0,4091,1:03.850.061,79.000 us,2 B,,SP,55,Write Transaction,00 00
0,4092,1:03.855.413,86.600 us,2 B,,SP,55,Read Transaction,00 08*
0,4093,1:03.855.775,79.000 us,2 B,,SP,55,Write Transaction,12 01
0,4094,1:03.861.123,659.500 us,25 B,,SP,55,Read Transaction,00 00 00 00 00 02 6C 64 00 00 00 00 02 6F 63 03 CD 00 00 00 00 00 01 03 00*
0,4095,1:03.870.828,676.800 us,26 B,,SP,55,Write Transaction,14 00 02 EC 3E 03 BA 3D 07 06 98 06 32 7B 00 00 00 00 00 00 FF C2 00 85 FC 34
0,4096,1:03.886.769,116.300 us,3 B,,SP,55,Read Transaction,00 00 18*
0,4097,1:03.891.164,79.000 us,2 B,,SP,55,Write Transaction,00 00
0,4098,1:03.896.512,86.600 us,2 B,,SP,55,Read Transaction,00 08*
0,4099,1:03.896.899,79.100 us,2 B,,SP,55,Write Transaction,12 01
0,4100,1:03.902.255,659.600 us,25 B,,SP,55,Read Transaction,00 00 00 00 00 02 6C 64 00 00 00 00 02 6F 63 03 CD 00 00 00 00 00 01 03 00*
0,4101,1:03.909.556,677.000 us,26 B,,SP,55,Write Transaction,14 00 02 EF 84 03 BE 88 07 08 C6 06 33 AA 00 00 00 00 00 00 FF C0 00 8C FC 37
0,4102,1:03.925.495,116.200 us,3 B,,SP,55,Read Transaction,00 00 18*
0,4103,1:03.929.887,79.100 us,2 B,,SP,55,Write Transaction,00 00
0,4104,1:03.935.238,86.700 us,2 B,,SP,55,Read Transaction,00 08*
0,4105,1:03.935.602,79.200 us,2 B,,SP,55,Write Transaction,12 01
0,4106,1:03.940.957,659.600 us,25 B,,SP,55,Read Transaction,00 00 00 00 00 02 6C 64 00 00 00 00 02 6F 63 03 CD 00 00 00 00 00 01 03 00*
0,4107,1:03.949.582,676.800 us,26 B,,SP,55,Write Transaction,14 00 02 F3 9D 03 C6 05 07 0B AB 06 35 10 00 00 00 00 00 00 FF BD 00 88 FC 32
0,4108,1:03.965.531,116.200 us,3 B,,SP,55,Read Transaction,00 00 18*
0,4109,1:03.969.924,79.000 us,2 B,,SP,55,Write Transaction,00 00
0,4110,1:03.975.274,86.600 us,2 B,,SP,55,Read Transaction,00 08*
0,4111,1:03.975.659,79.100 us,2 B,,SP,55,Write Transaction,12 01
0,4112,1:03.981.010,659.600 us,25 B,,SP,55,Read Transaction,00 00 00 00 00 02 6C 64 00 00 00 00 02 6F 63 03 CD 00 00 00 00 00 01 03 00*
0,4113,1:03.989.449,676.900 us,26 B,,SP,55,Write Transaction,14 00 02 F6 14 03 C7 F8 07 0B 6E 06 34 95 00 00 00 00 00 00 FF BF 00 88 FC 39
0,4114,1:04.005.400,116.300 us,3 B,,SP,55,Read Transaction,00 00 18*
0,4115,1:04.009.793,79.000 us,2 B,,SP,55,Write Transaction,00 00
0,4116,1:04.015.143,86.700 us,2 B,,SP,55,Read Transaction,00 08*
0,4117,1:04.015.506,79.100 us,2 B,,SP,55,Write Transaction,12 01
0,4118,1:04.020.860,659.800 us,25 B,,SP,55,Read Transaction,00 00 00 00 00 02 6C 64 00 00 00 00 02 6F 63 03 CD 00 00 00 00 00 01 03 00*
0,4119,1:04.029.435,676.900 us,26 B,,SP,55,Write Transaction,14 00 02 EE 2D 03 B8 04 07 01 7D 06 2F 1B 00 00 00 00 00 00 FF C0 00 8C FC 34
0,4120,1:04.045.397,116.200 us,3 B,,SP,55,Read Transaction,00 00 18*
0,4121,1:04.049.792,79.000 us,2 B,,SP,55,Write Transaction,00 00
0,4122,1:04.055.142,86.700 us,2 B,,SP,55,Read Transaction,00 08*
0,4123,1:04.055.507,79.100 us,2 B,,SP,55,Write Transaction,12 01
0,4124,1:04.060.855,659.600 us,25 B,,SP,55,Read Transaction,00 00 00 00 00 02 6C 64 00 00 00 00 02 6F 63 03 CD 00 00 00 00 00 01 03 00*
0,4125,1:04.069.325,676.700 us,26 B,,SP,55,Write Transaction,14 00 02 DD 7E 03 9E A7 06 F5 5E 06 29 90 00 00 00 00 00 00 FF BD 00 89 FC 32
0,4126,1:04.085.270,116.300 us,3 B,,SP,55,Read Transaction,00 00 18*
0,4127,1:04.089.664,79.100 us,2 B,,SP,55,Write Transaction,00 00
0,4128,1:04.095.013,86.600 us,2 B,,SP,55,Read Transaction,00 08*
0,4129,1:04.095.375,79.100 us,2 B,,SP,55,Write Transaction,12 01
0,4130,1:04.100.724,659.500 us,25 B,,SP,55,Read Transaction,00 00 00 00 00 02 6C 64 00 00 00 00 02 6F 63 03 CD 00 00 00 00 00 01 03 00*
0,4131,1:04.109.336,676.800 us,26 B,,SP,55,Write Transaction,14 00 02 CF B0 03 88 02 06 ED 4A 06 25 F2 00 00 00 00 00 00 FF BE 00 88 FC 35
0,4132,1:04.125.274,116.300 us,3 B,,SP,55,Read Transaction,00 00 18*
0,4133,1:04.129.667,79.100 us,2 B,,SP,55,Write Transaction,00 00
0,4134,1:04.135.017,86.700 us,2 B,,SP,55,Read Transaction,00 08*
0,4135,1:04.135.379,79.000 us,2 B,,SP,55,Write Transaction,12 01
0,4136,1:04.140.726,659.600 us,25 B,,SP,55,Read Transaction,00 00 00 00 00 02 6C 64 00 00 00 00 02 6F 63 03 CD 00 00 00 00 00 01 03 00*
0,4137,1:04.149.231,676.500 us,26 B,,SP,55,Write Transaction,14 00 02 C8 25 03 78 DA 06 E8 DE 06 24 06 00 00 00 00 00 00 FF BC 00 8B FC 30
0,4138,1:04.165.168,116.300 us,3 B,,SP,55,Read Transaction,00 00 18*
0,4139,1:04.169.562,79.100 us,2 B,,SP,55,Write Transaction,00 00
0,4140,1:04.174.914,86.800 us,2 B,,SP,55,Read Transaction,00 08*
0,4141,1:04.175.276,79.200 us,2 B,,SP,55,Write Transaction,12 01
0,4142,1:04.180.630,659.600 us,25 B,,SP,55,Read Transaction,00 00 00 00 00 02 6C 64 00 00 00 00 02 6F 63 03 CD 00 00 00 00 00 01 03 00*
0,4143,1:04.189.198,676.900 us,26 B,,SP,55,Write Transaction,14 00 02 C3 8F 03 6E 8A 06 E5 EB 06 22 B9 00 00 00 00 00 00 FF BE 00 8D FC 39
0,4144,1:04.205.142,116.300 us,3 B,,SP,55,Read Transaction,00 00 18*
0,4145,1:04.209.535,79.000 us,2 B,,SP,55,Write Transaction,00 00
0,4146,1:04.214.888,86.800 us,2 B,,SP,55,Read Transaction,00 08*
0,4147,1:04.215.251,79.200 us,2 B,,SP,55,Write Transaction,12 01
0,4148,1:04.220.662,659.600 us,25 B,,SP,55,Read Transaction,00 00 00 00 00 02 6C 64 00 00 00 00 02 6F 63 03 CD E4 00 00 00 00 01 03 00*
0,4149,1:04.229.119,676.600 us,26 B,,SP,55,Write Transaction,14 00 02 C0 8C 03 69 D7 06 E3 70 06 21 5B 00 00 00 00 00 00 FF BF 00 85 FC 34
0,4150,1:04.245.059,116.200 us,3 B,,SP,55,Read Transaction,00 00 18*
0,4151,1:04.249.454,79.000 us,2 B,,SP,55,Write Transaction,00 00
0,4152,1:04.254.803,86.600 us,2 B,,SP,55,Read Transaction,00 08*
0,4153,1:04.255.165,79.000 us,2 B,,SP,55,Write Transaction,12 01
0,4154,1:04.260.516,659.600 us,25 B,,SP,55,Read Transaction,00 00 00 00 00 02 6C 64 00 00 00 00 02 6F 63 03 CD 00 00 00 00 00 01 03 00*
0,4155,1:04.269.098,676.900 us,26 B,,SP,55,Write Transaction,14 00 02 C1 90 03 6C 76 06 E5 1E 06 22 72 00 00 00 00 00 00 FF C2 00 8A FC 2F
0,4156,1:04.285.040,116.400 us,3 B,,SP,55,Read Transaction,00 00 18*
0,4157,1:04.289.433,79.000 us,2 B,,SP,55,Write Transaction,00 00
0,4158,1:04.294.782,86.700 us,2 B,,SP,55,Read Transaction,00 08*
0,4159,1:04.295.145,79.100 us,2 B,,SP,55,Write Transaction,12 01
0,4160,1:04.300.494,659.600 us,25 B,,SP,55,Read Transaction,00 00 00 00 00 02 6C 64 00 00 00 00 02 6F 63 03 CD 00 00 00 00 00 01 03 00*
0,4161,1:04.309.029,676.900 us,26 B,,SP,55,Write Transaction,14 00 02 C5 21 03 72 B3 06 E8 A1 06 24 66 00 00 00 00 00 00 FF BD 00 8A FC 37
0,4162,1:04.324.969,116.300 us,3 B,,SP,55,Read Transaction,00 00 18*
0,4163,1:04.329.363,79.100 us,2 B,,SP,55,Write Transaction,00 00
0,4164,1:04.334.718,86.700 us,2 B,,SP,55,Read Transaction,00 08*
0,4165,1:04.335.079,79.100 us,2 B,,SP,55,Write Transaction,12 01
0,4166,1:04.340.430,659.500 us,25 B,,SP,55,Read Transaction,00 00 00 00 00 02 6C 64 00 00 00 00 02 6F 63 03 CD 00 00 00 00 00 01 03 00*
0,4167,1:04.348.945,677.800 us,26 B,,SP,55,Write Transaction,14 00 02 C7 CA 03 77 4F 06 EA A6 06 25 72 00 00 00 00 00 00 FF BD 00 87 FC 32
0,4168,1:04.364.891,116.400 us,3 B,,SP,55,Read Transaction,00 00 18*
0,4169,1:04.369.289,79.200 us,2 B,,SP,55,Write Transaction,00 00
0,4170,1:04.374.643,86.700 us,2 B,,SP,55,Read Transaction,00 08*
0,4171,1:04.375.005,79.100 us,2 B,,SP,55,Write Transaction,12 01
0,4172,1:04.380.355,659.500 us,25 B,,SP,55,Read Transaction,00 00 00 00 00 02 6C 64 00 00 00 00 02 6F 63 03 CD 00 00 00 00 00 01 03 00*
0,4173,1:04.388.969,676.900 us,26 B,,SP,55,Write Transaction,14 00 02 C9 37 03 79 C9 06 EB F7 06 26 3B 00 00 00 00 00 00 FF BF 00 8A FC 33
0,4174,1:04.404.909,116.200 us,3 B,,SP,55,Read Transaction,00 00 18*
0,4175,1:04.409.301,79.100 us,2 B,,SP,55,Write Transaction,00 00
0,4176,1:04.414.652,86.800 us,2 B,,SP,55,Read Transaction,00 08*
0,4177,1:04.415.015,79.000 us,2 B,,SP,55,Write Transaction,12 01
0,4178,1:04.420.363,659.600 us,25 B,,SP,55,Read Transaction,00 00 00 00 00 02 6C 64 00 00 00 00 02 6F 63 03 CD 00 00 00 00 00 01 03 00*
0,4179,1:04.428.821,676.800 us,26 B,,SP,55,Write Transaction,14 00 02 CB CB 03 7E 73 06 EE 86 06 27 BA 00 00 00 00 00 00 FF BD 00 87 FC 35
0,4180,1:04.444.759,116.400 us,3 B,,SP,55,Read Transaction,00 00 18*
0,4181,1:04.449.153,79.100 us,2 B,,SP,55,Write Transaction,00 00
0,4182,1:04.454.502,86.700 us,2 B,,SP,55,Read Transaction,00 08*
0,4183,1:04.454.863,79.100 us,2 B,,SP,55,Write Transaction,12 01
0,4184,1:04.460.214,659.600 us,25 B,,SP,55,Read Transaction,00 00 00 00 00 02 6C 64 26 05 64 00 02 6F 63 03 CD 00 00 00 00 00 01 03 00*
0,4185,1:04.468.832,676.800 us,26 B,,SP,55,Write Transaction,14 00 02 D0 37 03 86 55 06 F2 70 06 29 F3 00 00 00 00 00 00 FF C1 00 8A FC 31
0,4186,1:04.484.771,116.200 us,3 B,,SP,55,Read Transaction,00 00 18*
0,4187,1:04.489.163,79.100 us,2 B,,SP,55,Write Transaction,00 00
0,4188,1:04.494.513,86.600 us,2 B,,SP,55,Read Transaction,00 08*
0,4189,1:04.494.875,79.100 us,2 B,,SP,55,Write Transaction,12 01
0,4190,1:04.500.227,660.500 us,25 B,,SP,55,Read Transaction,00 00 00 00 00 02 6C 64 00 00 00 00 02 6F 63 03 CD 00 00 00 00 00 01 03 00*
0,4191,1:04.508.712,676.700 us,26 B,,SP,55,Write Transaction,14 00 02 D4 DE 03 8D BB 06 F6 64 06 2C 10 00 00 00 00 00 00 FF B8 00 8A FC 33
0,4192,1:04.524.658,116.200 us,3 B,,SP,55,Read Transaction,00 00 18*
0,4193,1:04.529.052,79.100 us,2 B,,SP,55,Write Transaction,00 00
0,4194,1:04.534.401,86.600 us,2 B,,SP,55,Read Transaction,00 08*
0,4195,1:04.534.762,79.100 us,2 B,,SP,55,Write Transaction,12 01
0,4196,1:04.540.114,659.600 us,25 B,,SP,55,Read Transaction,00 00 00 00 00 02 6C 64 00 00 00 00 02 6F 63 03 CD 00 00 00 00 00 01 03 00*
0,4197,1:04.548.693,676.900 us,26 B,,SP,55,Write Transaction,14 00 02 D8 F6 03 93 41 06 F9 82 06 2D A1 00 00 00 00 00 00 FF BE 00 86 FC 36
0,4198,1:04.564.637,116.200 us,3 B,,SP,55,Read Transaction,00 00 18*
0,4199,1:04.569.029,79.000 us,2 B,,SP,55,Write Transaction,00 00
0,4200,1:04.574.379,86.600 us,2 B,,SP,55,Read Transaction,00 08*
0,4201,1:04.574.741,79.100 us,2 B,,SP,55,Write Transaction,12 01
0,4202,1:04.580.090,659.600 us,25 B,,SP,55,Read Transaction,00 00 00 00 00 02 6C 64 00 00 00 00 02 6F 63 03 CD 00 00 00 00 00 01 03 00*
0,4203,1:04.588.646,676.900 us,26 B,,SP,55,Write Transaction,14 00 02 DD 85 03 9A 6F 06 FD 6E 06 2F CC 00 00 00 00 00 00 FF BE 00 89 FC 35
0,4204,1:04.604.586,116.300 us,3 B,,SP,55,Read Transaction,00 00 18*
0,4205,1:04.608.982,79.200 us,2 B,,SP,55,Write Transaction,00 00
0,4206,1:04.614.331,86.700 us,2 B,,SP,55,Read Transaction,00 08*
0,4207,1:04.614.694,79.100 us,2 B,,SP,55,Write Transaction,12 01
0,4208,1:04.620.046,659.600 us,25 B,,SP,55,Read Transaction,00 00 00 00 00 02 6C 64 00 00 00 00 02 6F 63 03 CD 00 00 00 00 00 01 03 00*
0,4209,1:04.628.579,676.900 us,26 B,,SP,55,Write Transaction,14 00 02 E1 E8 03 A0 D7 07 00 9F 06 31 62 00 00 00 00 00 00 FF BA 00 89 FC 32
0,4210,1:04.644.514,116.300 us,3 B,,SP,55,Read Transaction,00 00 18*
0,4211,1:04.648.905,79.000 us,2 B,,SP,55,Write Transaction,00 00
0,4212,1:04.654.254,86.700 us,2 B,,SP,55,Read Transaction,00 08*
0,4213,1:04.654.618,79.000 us,2 B,,SP,55,Write Transaction,12 01
0,4214,1:04.659.967,659.500 us,25 B,,SP,55,Read Transaction,00 00 00 00 00 02 6C 64 00 00 00 00 02 6F 63 03 CD 00 00 00 00 00 01 03 00*
0,4215,1:04.669.066,676.800 us,26 B,,SP,55,Write Transaction,14 00 02 E5 5A 03 A5 E0 07 02 9D 06 32 4B 00 00 00 00 00 00 FF C2 00 89 FC 32
0,4216,1:04.685.005,116.300 us,3 B,,SP,55,Read Transaction,00 00 18*
0,4217,1:04.689.401,79.100 us,2 B,,SP,55,Write Transaction,00 00
0,4218,1:04.694.753,86.700 us,2 B,,SP,55,Read Transaction,00 08*
0,4219,1:04.695.116,79.000 us,2 B,,SP,55,Write Transaction,12 01
0,4220,1:04.700.463,659.600 us,25 B,,SP,55,Read Transaction,00 00 00 00 00 02 6C 64 00 00 00 00 02 6F 63 03 CD 00 00 00 00 00 01 03 00*
0,4221,1:04.708.434,676.900 us,26 B,,SP,55,Write Transaction,14 00 02 E9 1F 03 AB 05 07 05 9D 06 34 10 00 00 00 00 00 00 FF BE 00 89 FC 33
0,4222,1:04.724.372,116.300 us,3 B,,SP,55,Read Transaction,00 00 18*
0,4223,1:04.728.764,79.000 us,2 B,,SP,55,Write Transaction,00 00
0,4224,1:04.734.112,86.700 us,2 B,,SP,55,Read Transaction,00 08*
0,4225,1:04.734.474,79.000 us,2 B,,SP,55,Write Transaction,12 01
0,4226,1:04.739.825,659.600 us,25 B,,SP,55,Read Transaction,00 00 00 00 00 02 6C 64 00 00 00 00 02 6F 63 03 CD 00 00 00 00 00 01 03 00*
0,4227,1:04.748.452,677.800 us,26 B,,SP,55,Write Transaction,14 00 02 EC A6 03 B0 53 07 07 D3 06 35 18 00 00 00 00 00 00 FF C1 00 84 FC 35
0,4228,1:04.764.401,116.200 us,3 B,,SP,55,Read Transaction,00 00 18*
0,4229,1:04.768.797,79.100 us,2 B,,SP,55,Write Transaction,00 00
0,4230,1:04.774.152,86.800 us,2 B,,SP,55,Read Transaction,00 08*
0,4231,1:04.774.515,79.200 us,2 B,,SP,55,Write Transaction,12 01
0,4232,1:04.779.867,659.500 us,25 B,,SP,55,Read Transaction,00 00 00 00 00 02 6C 64 00 00 00 00 02 6F 63 03 CD 00 00 00 00 00 01 03 00*
0,4233,1:04.788.369,676.900 us,26 B,,SP,55,Write Transaction,14 00 02 EF 41 03 B3 77 07 09 24 06 35 C3 00 00 00 00 00 00 FF C0 00 8C FC 30
0,4234,1:04.804.307,116.200 us,3 B,,SP,55,Read Transaction,00 00 18*
0,4235,1:04.808.702,79.100 us,2 B,,SP,55,Write Transaction,00 00
0,4236,1:04.814.053,86.700 us,2 B,,SP,55,Read Transaction,00 08*
0,4237,1:04.814.414,79.100 us,2 B,,SP,55,Write Transaction,12 01
0,4238,1:04.819.765,659.500 us,25 B,,SP,55,Read Transaction,00 00 00 00 00 02 6C 64 00 00 00 00 02 6F 63 03 CD 00 00 00 00 00 01 03 00*
0,4239,1:04.828.311,677.000 us,26 B,,SP,55,Write Transaction,14 00 02 F2 6D 03 B7 F1 07 0B 9D 06 37 21 00 00 00 00 00 00 FF BC 00 84 FC 32
0,4240,1:04.844.263,116.500 us,3 B,,SP,55,Read Transaction,00 00 18*
0,4241,1:04.848.659,79.100 us,2 B,,SP,55,Write Transaction,00 00
0,4242,1:04.854.010,86.700 us,2 B,,SP,55,Read Transaction,00 08*
0,4243,1:04.854.372,79.100 us,2 B,,SP,55,Write Transaction,12 01
0,4244,1:04.859.756,660.200 us,25 B,,SP,55,Read Transaction,00 00 00 00 00 02 6C 64 00 00 00 00 02 6F 63 03 CD 00 00 00 00 00 01 03 00*
0,4245,1:04.868.283,676.900 us,26 B,,SP,55,Write Transaction,14 00 02 F5 1F 03 BB 0C 07 0C 96 06 37 58 00 00 00 00 00 00 FF BD 00 8A FC 33
0,4246,1:04.884.224,116.300 us,3 B,,SP,55,Read Transaction,00 00 18*
0,4247,1:04.888.619,79.000 us,2 B,,SP,55,Write Transaction,00 00
0,4248,1:04.893.969,86.600 us,2 B,,SP,55,Read Transaction,00 08*
0,4249,1:04.894.329,79.000 us,2 B,,SP,55,Write Transaction,12 01
0,4250,1:04.899.689,659.700 us,25 B,,SP,55,Read Transaction,00 00 00 00 00 02 6C 64 00 00 00 00 02 6F 63 03 CD 00 00 00 00 00 01 03 00*
0,4251,1:04.908.157,676.800 us,26 B,,SP,55,Write Transaction,14 00 02 F8 0C 03 C0 4E 07 0E 89 06 38 54 00 00 00 00 00 00 FF C0 00 8D FC 2D
0,4252,1:04.924.104,116.300 us,3 B,,SP,55,Read Transaction,00 00 18*
0,4253,1:04.928.496,79.100 us,2 B,,SP,55,Write Transaction,00 00
0,4254,1:04.933.846,86.700 us,2 B,,SP,55,Read Transaction,00 08*
0,4255,1:04.934.209,79.100 us,2 B,,SP,55,Write Transaction,12 01
0,4256,1:04.939.558,659.600 us,25 B,,SP,55,Read Transaction,00 00 00 00 00 02 6C 64 00 00 00 00 02 6F 63 03 CD 00 00 00 00 00 01 03 00*
0,4257,1:04.948.161,676.900 us,26 B,,SP,55,Write Transaction,14 00 02 FA 1D 03 C3 25 07 0E 41 06 37 B8 00 00 00 00 00 00 FF BF 00 89 FC 30
0,4258,1:04.964.098,116.200 us,3 B,,SP,55,Read Transaction,00 00 18*
0,4259,1:04.968.492,79.100 us,2 B,,SP,55,Write Transaction,00 00
0,4260,1:04.973.850,86.700 us,2 B,,SP,55,Read Transaction,00 08*
0,4261,1:04.974.213,79.100 us,2 B,,SP,55,Write Transaction,12 01
0,4262,1:04.979.570,660.500 us,25 B,,SP,55,Read Transaction,00 00 00 00 00 02 6C 64 00 00 00 00 02 6F 63 03 CD 00 00 00 00 00 01 03 00*
0,4263,1:04.988.033,676.800 us,26 B,,SP,55,Write Transaction,14 00 02 F1 D7 03 B2 A6 07 05 1B 06 32 DA 00 00 00 00 00 00 FF BB 00 87 FC 3E
0,4264,1:05.003.971,116.400 us,3 B,,SP,55,Read Transaction,00 00 18*
0,4265,1:05.008.369,79.200 us,2 B,,SP,55,Write Transaction,00 00
0,4266,1:05.013.720,86.700 us,2 B,,SP,55,Read Transaction,00 08*
0,4267,1:05.014.081,79.100 us,2 B,,SP,55,Write Transaction,12 01
0,4268,1:05.019.431,659.600 us,25 B,,SP,55,Read Transaction,00 00 00 00 00 02 6C 64 00 00 00 00 02 6F 63 03 CD 00 00 00 00 00 01 03 00*
0,4269,1:05.028.041,676.800 us,26 B,,SP,55,Write Transaction,14 00 02 DF 09 03 93 E3 06 F8 24 06 2C 6C 00 00 00 00 00 00 FF BF 00 87 FC 30
0,4270,1:05.043.987,116.300 us,3 B,,SP,55,Read Transaction,00 00 18*
0,4271,1:05.048.381,79.000 us,2 B,,SP,55,Write Transaction,00 00
0,4272,1:05.053.731,86.600 us,2 B,,SP,55,Read Transaction,00 08*
0,4273,1:05.054.093,79.100 us,2 B,,SP,55,Write Transaction,12 01
0,4274,1:05.059.440,659.600 us,25 B,,SP,55,Read Transaction,00 00 00 00 00 02 6C 64 00 00 00 00 02 6F 63 03 CD 00 00 00 00 00 01 03 00*
0,4275,1:05.067.935,676.900 us,26 B,,SP,55,Write Transaction,14 00 02 CE 76 03 76 15 06 EF 0F 06 28 39 00 00 00 00 00 00 FF BA 00 8B FC 36
0,4276,1:05.083.873,116.200 us,3 B,,SP,55,Read Transaction,00 00 18*
0,4277,1:05.088.268,79.100 us,2 B,,SP,55,Write Transaction,00 00
0,4278,1:05.093.616,86.600 us,2 B,,SP,55,Read Transaction,00 08*
0,4279,1:05.093.977,79.100 us,2 B,,SP,55,Write Transaction,12 01
0,4280,1:05.099.327,659.400 us,25 B,,SP,55,Read Transaction,00 00 00 00 00 02 6C 64 00 00 00 00 02 6F 63 03 CD 00 00 00 00 00 01 03 00*
0,4281,1:05.108.012,676.900 us,26 B,,SP,55,Write Transaction,14 00 02 C4 8E 03 62 AE 06 E9 DC 06 25 9D 00 00 00 00 00 00 FF BE 00 88 FC 39
0,4282,1:05.123.955,116.500 us,3 B,,SP,55,Read Transaction,00 00 18*
0,4283,1:05.128.350,79.100 us,2 B,,SP,55,Write Transaction,00 00
0,4284,1:05.133.701,86.700 us,2 B,,SP,55,Read Transaction,00 08*
0,4285,1:05.134.063,79.100 us,2 B,,SP,55,Write Transaction,12 01
0,4286,1:05.139.412,659.600 us,25 B,,SP,55,Read Transaction,00 00 00 00 00 02 6C 64 00 00 00 00 02 6F 63 03 CD 00 00 00 00 00 01 03 00*
0,4287,1:05.147.826,676.900 us,26 B,,SP,55,Write Transaction,14 00 02 BC B1 03 56 87 06 E5 1C 06 23 0C 00 00 00 00 00 00 FF B9 00 89 FC 30
0,4288,1:05.163.770,116.200 us,3 B,,SP,55,Read Transaction,00 00 18*
0,4289,1:05.168.164,79.000 us,2 B,,SP,55,Write Transaction,00 00
0,4290,1:05.173.514,86.600 us,2 B,,SP,55,Read Transaction,00 08*
0,4291,1:05.173.875,79.000 us,2 B,,SP,55,Write Transaction,12 01
0,4292,1:05.179.224,659.500 us,25 B,,SP,55,Read Transaction,00 00 00 00 00 02 6C 64 00 00 00 00 02 6F 63 03 CD 00 00 00 00 00 01 03 00*
0,4293,1:05.187.799,676.800 us,26 B,,SP,55,Write Transaction,14 00 02 B7 40 03 4E F1 06 E2 21 06 21 BC 00 00 00 00 00 00 FF BF 00 8A FC 33
0,4294,1:05.203.745,116.300 us,3 B,,SP,55,Read Transaction,00 00 18*
0,4295,1:05.208.136,79.000 us,2 B,,SP,55,Write Transaction,00 00
0,4296,1:05.213.487,86.700 us,2 B,,SP,55,Read Transaction,00 08*
0,4297,1:05.213.849,79.100 us,2 B,,SP,55,Write Transaction,12 01
0,4298,1:05.219.198,659.600 us,25 B,,SP,55,Read Transaction,00 00 00 00 00 02 6C 64 00 00 00 00 02 6F 64 03 CD E4 00 00 00 00 01 03 00*
0,4299,1:05.227.735,676.900 us,26 B,,SP,55,Write Transaction,14 00 02 B6 DF 03 51 72 06 E3 0B 06 22 1D 00 00 00 00 00 00 FF BE 00 87 FC 35
0,4300,1:05.243.676,116.300 us,3 B,,SP,55,Read Transaction,00 00 18*
0,4301,1:05.248.069,79.100 us,2 B,,SP,55,Write Transaction,00 00
0,4302,1:05.253.418,86.800 us,2 B,,SP,55,Read Transaction,00 08*
0,4303,1:05.253.782,79.100 us,2 B,,SP,55,Write Transaction,12 01
0,4304,1:05.259.130,659.500 us,25 B,,SP,55,Read Transaction,00 00 00 00 00 02 6C 64 00 00 00 00 02 6F 64 03 CD 00 00 00 00 00 01 03 00*
0,4305,1:05.267.678,676.900 us,26 B,,SP,55,Write Transaction,14 00 02 B8 8A 03 56 5F 06 E3 EC 06 22 0B 00 00 00 00 00 00 FF BA 00 8B FC 33
0,4306,1:05.283.616,116.200 us,3 B,,SP,55,Read Transaction,00 00 18*
0,4307,1:05.288.008,79.100 us,2 B,,SP,55,Write Transaction,00 00
0,4308,1:05.293.359,86.600 us,2 B,,SP,55,Read Transaction,00 08*
0,4309,1:05.293.721,79.100 us,2 B,,SP,55,Write Transaction,12 01
0,4310,1:05.299.072,659.600 us,25 B,,SP,55,Read Transaction,00 00 00 00 00 02 6C 64 00 00 00 00 02 6F 64 03 CD 00 00 00 00 00 01 03 00*
0,4311,1:05.307.635,676.800 us,26 B,,SP,55,Write Transaction,14 00 02 B9 5C 03 59 48 06 E5 5A 06 23 14 00 00 00 00 00 00 FF BF 00 87 FC 33
0,4312,1:05.323.579,116.300 us,3 B,,SP,55,Read Transaction,00 00 18*
0,4313,1:05.327.970,79.000 us,2 B,,SP,55,Write Transaction,00 00
0,4314,1:05.333.321,86.700 us,2 B,,SP,55,Read Transaction,00 08*
0,4315,1:05.333.683,79.100 us,2 B,,SP,55,Write Transaction,12 01
0,4316,1:05.339.030,659.700 us,25 B,,SP,55,Read Transaction,00 00 00 00 00 02 6C 64 00 00 00 00 02 6F 64 03 CD 00 00 00 00 00 01 03 00*
0,4317,1:05.348.300,676.600 us,26 B,,SP,55,Write Transaction,14 00 02 BA C9 03 5E 50 06 E8 F3 06 25 7E 00 00 00 00 00 00 FF BC 00 8C FC 35
0,4318,1:05.364.237,116.300 us,3 B,,SP,55,Read Transaction,00 00 18*
0,4319,1:05.368.632,79.100 us,2 B,,SP,55,Write Transaction,00 00
0,4320,1:05.373.981,86.700 us,2 B,,SP,55,Read Transaction,00 08*
0,4321,1:05.374.343,79.100 us,2 B,,SP,55,Write Transaction,12 01
0,4322,1:05.379.692,659.600 us,25 B,,SP,55,Read Transaction,00 00 00 00 00 02 6C 64 24 FA 64 00 02 6F 64 03 CD 00 00 00 00 00 01 03 00*
0,4323,1:05.387.518,676.800 us,26 B,,SP,55,Write Transaction,14 00 02 BD 44 03 64 2B 06 EB A4 06 26 DE 00 00 00 00 00 00 FF BD 00 8B FC 39
0,4324,1:05.403.469,116.300 us,3 B,,SP,55,Read Transaction,00 00 18*
0,4325,1:05.407.862,79.100 us,2 B,,SP,55,Write Transaction,00 00
0,4326,1:05.413.213,86.700 us,2 B,,SP,55,Read Transaction,00 08*
0,4327,1:05.413.575,79.100 us,2 B,,SP,55,Write Transaction,12 01
0,4328,1:05.418.928,660.500 us,25 B,,SP,55,Read Transaction,00 00 00 00 00 02 6C 64 00 00 00 00 02 6F 64 03 CD 00 00 00 00 00 01 03 00*
0,4329,1:05.427.467,676.500 us,26 B,,SP,55,Write Transaction,14 00 02 BF 83 03 69 65 06 ED 09 06 27 68 00 00 00 00 00 00 FF BA 00 8C FC 37
0,4330,1:05.443.404,116.200 us,3 B,,SP,55,Read Transaction,00 00 18*
0,4331,1:05.447.799,79.100 us,2 B,,SP,55,Write Transaction,00 00
0,4332,1:05.453.155,86.800 us,2 B,,SP,55,Read Transaction,00 08*
0,4333,1:05.453.516,79.000 us,2 B,,SP,55,Write Transaction,12 01
0,4334,1:05.458.869,659.500 us,25 B,,SP,55,Read Transaction,00 00 00 00 00 02 6C 64 00 00 00 00 02 6F 64 03 CD 00 00 00 00 00 01 03 00*
0,4335,1:05.467.384,676.500 us,26 B,,SP,55,Write Transaction,14 00 02 C3 11 03 70 0E 06 F0 96 06 29 99 00 00 00 00 00 00 FF BA 00 8B FC 33
0,4336,1:05.483.321,116.100 us,3 B,,SP,55,Read Transaction,00 00 18*
0,4337,1:05.487.714,79.100 us,2 B,,SP,55,Write Transaction,00 00
0,4338,1:05.493.064,86.700 us,2 B,,SP,55,Read Transaction,00 08*
0,4339,1:05.493.427,79.100 us,2 B,,SP,55,Write Transaction,12 01
0,4340,1:05.498.776,659.600 us,25 B,,SP,55,Read Transaction,00 00 00 00 00 02 6C 64 00 00 00 00 02 6F 64 03 CD 00 00 00 00 00 01 03 00*
0,4341,1:05.507.373,676.800 us,26 B,,SP,55,Write Transaction,14 00 02 C6 93 03 77 49 06 F3 2E 06 2A B6 00 00 00 00 00 00 FF BC 00 89 FC 34
0,4342,1:05.523.322,116.300 us,3 B,,SP,55,Read Transaction,00 00 18*
0,4343,1:05.527.717,79.100 us,2 B,,SP,55,Write Transaction,00 00
0,4344,1:05.533.091,86.800 us,2 B,,SP,55,Read Transaction,00 08*
0,4345,1:05.533.454,79.200 us,2 B,,SP,55,Write Transaction,12 01
0,4346,1:05.538.812,660.500 us,25 B,,SP,55,Read Transaction,00 00 00 00 00 02 6C 64 00 00 00 00 02 6F 64 03 CD 00 00 00 00 00 01 03 00*
0,4347,1:05.547.275,676.800 us,26 B,,SP,55,Write Transaction,14 00 02 C9 FD 03 7E 29 06 F4 FF 06 2B 55 00 00 00 00 00 00 FF BA 00 86 FC 30
0,4348,1:05.563.220,116.400 us,3 B,,SP,55,Read Transaction,00 00 18*
0,4349,1:05.567.612,79.100 us,2 B,,SP,55,Write Transaction,00 00
0,4350,1:05.572.964,86.700 us,2 B,,SP,55,Read Transaction,00 08*
0,4351,1:05.573.326,79.000 us,2 B,,SP,55,Write Transaction,12 01
0,4352,1:05.578.676,659.200 us,25 B,,SP,55,Read Transaction,00 00 00 00 00 02 6C 64 00 00 00 00 02 6F 64 03 CD 00 00 00 00 00 01 03 00*
0,4353,1:05.587.269,677.000 us,26 B,,SP,55,Write Transaction,14 00 02 CD B6 03 85 14 06 F7 BE 06 2C B0 00 00 00 00 00 00 FF BE 00 89 FC 37
0,4354,1:05.603.218,116.300 us,3 B,,SP,55,Read Transaction,00 00 18*
0,4355,1:05.607.613,79.100 us,2 B,,SP,55,Write Transaction,00 00
0,4356,1:05.612.968,86.800 us,2 B,,SP,55,Read Transaction,00 08*
0,4357,1:05.613.331,79.100 us,2 B,,SP,55,Write Transaction,12 01
0,4358,1:05.618.681,659.600 us,25 B,,SP,55,Read Transaction,00 00 00 00 00 02 6C 64 00 00 00 00 02 6F 64 03 CD 00 00 00 00 00 01 03 00*
0,4359,1:05.627.168,677.000 us,26 B,,SP,55,Write Transaction,14 00 02 D1 60 03 8A 61 06 FA 6D 06 2E 1A 00 00 00 00 00 00 FF BB 00 87 FC 33
0,4360,1:05.643.106,116.300 us,3 B,,SP,55,Read Transaction,00 00 18*
0,4361,1:05.647.502,79.000 us,2 B,,SP,55,Write Transaction,00 00
0,4362,1:05.652.852,86.700 us,2 B,,SP,55,Read Transaction,00 08*
0,4363,1:05.653.213,79.000 us,2 B,,SP,55,Write Transaction,12 01
0,4364,1:05.658.564,659.600 us,25 B,,SP,55,Read Transaction,00 00 00 00 00 02 6C 64 00 00 00 00 02 6F 64 03 CD 00 00 00 00 00 01 03 00*
0,4365,1:05.667.142,677.000 us,26 B,,SP,55,Write Transaction,14 00 02 D4 56 03 8D 1B 06 FC A1 06 2F 52 00 00 00 00 00 00 FF B5 00 8C FC 30
0,4366,1:05.683.086,116.300 us,3 B,,SP,55,Read Transaction,00 00 18*
0,4367,1:05.687.478,79.100 us,2 B,,SP,55,Write Transaction,00 00
0,4368,1:05.692.830,86.700 us,2 B,,SP,55,Read Transaction,00 08*
0,4369,1:05.693.193,79.100 us,2 B,,SP,55,Write Transaction,12 01
0,4370,1:05.698.541,659.600 us,25 B,,SP,55,Read Transaction,00 00 00 00 00 02 6C 64 00 00 00 00 02 6F 64 03 CD 00 00 00 00 00 01 03 00*
0,4371,1:05.707.074,676.500 us,26 B,,SP,55,Write Transaction,14 00 02 D6 63 03 8D E6 06 FD 50 06 2F 9A 00 00 00 00 00 00 FF BF 00 87 FC 38
0,4372,1:05.723.016,116.200 us,3 B,,SP,55,Read Transaction,00 00 18*
0,4373,1:05.727.410,79.100 us,2 B,,SP,55,Write Transaction,00 00
0,4374,1:05.732.760,86.600 us,2 B,,SP,55,Read Transaction,00 08*
0,4375,1:05.733.121,79.100 us,2 B,,SP,55,Write Transaction,12 01
0,4376,1:05.738.472,659.500 us,25 B,,SP,55,Read Transaction,00 00 00 00 00 02 6C 64 00 00 00 00 02 6F 64 03 CD 00 00 00 00 00 01 03 00*
0,4377,1:05.747.044,677.000 us,26 B,,SP,55,Write Transaction,14 00 02 D8 AD 03 91 14 06 FF 3B 06 30 DE 00 00 00 00 00 00 FF B8 00 8B FC 32
0,4378,1:05.762.983,116.300 us,3 B,,SP,55,Read Transaction,00 00 18*
0,4379,1:05.767.376,79.100 us,2 B,,SP,55,Write Transaction,00 00
0,4380,1:05.772.726,86.700 us,2 B,,SP,55,Read Transaction,00 08*
0,4381,1:05.773.088,79.000 us,2 B,,SP,55,Write Transaction,12 01
0,4382,1:05.778.438,659.500 us,25 B,,SP,55,Read Transaction,00 00 00 00 00 02 6C 64 00 00 00 00 02 6F 64 03 CD 00 00 00 00 00 01 03 00*
0,4383,1:05.786.974,676.900 us,26 B,,SP,55,Write Transaction,14 00 02 DB 10 03 94 FB 07 00 60 06 31 2C 00 00 00 00 00 00 FF BF 00 86 FC 2F
0,4384,1:05.802.914,116.300 us,3 B,,SP,55,Read Transaction,00 00 18*
0,4385,1:05.807.308,79.100 us,2 B,,SP,55,Write Transaction,00 00
0,4386,1:05.812.657,86.600 us,2 B,,SP,55,Read Transaction,00 08*
0,4387,1:05.813.018,79.100 us,2 B,,SP,55,Write Transaction,12 01
0,4388,1:05.818.394,660.500 us,25 B,,SP,55,Read Transaction,00 00 00 00 00 02 6C 64 00 00 00 00 02 6F 64 03 CD 00 00 00 00 00 01 03 00*
0,4389,1:05.826.917,676.800 us,26 B,,SP,55,Write Transaction,14 00 02 DD 51 03 9A 76 07 01 02 06 31 4C 00 00 00 00 00 00 FF BD 00 88 FC 36
0,4390,1:05.842.858,116.300 us,3 B,,SP,55,Read Transaction,00 00 18*
0,4391,1:05.847.251,79.100 us,2 B,,SP,55,Write Transaction,00 00
0,4392,1:05.852.605,86.800 us,2 B,,SP,55,Read Transaction,00 08*
0,4393,1:05.852.968,79.000 us,2 B,,SP,55,Write Transaction,12 01
0,4394,1:05.858.322,660.500 us,25 B,,SP,55,Read Transaction,00 00 00 00 00 02 6C 64 00 00 00 00 02 6F 64 03 CD 00 00 00 00 00 01 03 00*
0,4395,1:05.866.890,677.900 us,26 B,,SP,55,Write Transaction,14 00 02 E0 E5 03 A2 72 07 03 0B 06 31 FE 00 00 00 00 00 00 FF B9 00 89 FC 30
0,4396,1:05.882.847,116.300 us,3 B,,SP,55,Read Transaction,00 00 18*
0,4397,1:05.887.241,79.000 us,2 B,,SP,55,Write Transaction,00 00
0,4398,1:05.892.591,86.700 us,2 B,,SP,55,Read Transaction,00 08*
0,4399,1:05.892.954,79.100 us,2 B,,SP,55,Write Transaction,12 01
0,4400,1:05.898.303,659.700 us,25 B,,SP,55,Read Transaction,00 00 00 00 00 02 6C 64 00 00 00 00 02 6F 64 03 CD 00 00 00 00 00 01 03 00*
0,4401,1:05.906.762,676.900 us,26 B,,SP,55,Write Transaction,14 00 02 E2 31 03 A4 15 07 01 54 06 30 76 00 00 00 00 00 00 FF BB 00 85 FC 38
0,4402,1:05.922.703,116.200 us,3 B,,SP,55,Read Transaction,00 00 18*
0,4403,1:05.927.138,79.000 us,2 B,,SP,55,Write Transaction,00 00
0,4404,1:05.932.489,86.700 us,2 B,,SP,55,Read Transaction,00 08*
0,4405,1:05.932.851,79.000 us,2 B,,SP,55,Write Transaction,12 01
0,4406,1:05.938.201,659.600 us,25 B,,SP,55,Read Transaction,00 00 00 00 00 02 6C 64 00 00 00 00 02 6F 64 03 CD 00 00 00 00 00 01 03 00*
0,4407,1:05.946.813,677.000 us,26 B,,SP,55,Write Transaction,14 00 02 D8 75 03 92 D4 06 F8 D8 06 2C 2D 00 00 00 00 00 00 FF BB 00 8B FC 31
0,4408,1:05.962.755,116.300 us,3 B,,SP,55,Read Transaction,00 00 18*
0,4409,1:05.967.147,79.100 us,2 B,,SP,55,Write Transaction,00 00
0,4410,1:05.972.500,86.800 us,2 B,,SP,55,Read Transaction,00 08*
0,4411,1:05.972.863,79.200 us,2 B,,SP,55,Write Transaction,12 01
0,4412,1:05.978.212,659.600 us,25 B,,SP,55,Read Transaction,00 00 00 00 00 02 6C 64 00 00 00 00 02 6F 64 03 CD 00 00 00 00 00 01 03 00*
0,4413,1:05.986.654,676.800 us,26 B,,SP,55,Write Transaction,14 00 02 C5 21 03 71 6E 06 ED D8 06 27 08 00 00 00 00 00 00 FF BA 00 83 FC 34
0,4414,1:06.002.591,116.300 us,3 B,,SP,55,Read Transaction,00 00 18*
0,4415,1:06.006.985,79.100 us,2 B,,SP,55,Write Transaction,00 00
0,4416,1:06.012.332,86.700 us,2 B,,SP,55,Read Transaction,00 08*
0,4417,1:06.012.693,79.100 us,2 B,,SP,55,Write Transaction,12 01
0,4418,1:06.018.044,659.500 us,25 B,,SP,55,Read Transaction,00 00 00 00 00 02 6C 64 00 00 00 00 02 6F 64 03 CD 00 00 00 00 00 01 03 00*
0,4419,1:06.027.731,676.800 us,26 B,,SP,55,Write Transaction,14 00 02 B6 6C 03 56 8B 06 E6 26 06 23 63 00 00 00 00 00 00 FF BB 00 83 FC 35
0,4420,1:06.043.698,116.200 us,3 B,,SP,55,Read Transaction,00 00 18*
0,4421,1:06.048.092,79.100 us,2 B,,SP,55,Write Transaction,00 00
0,4422,1:06.053.448,86.800 us,2 B,,SP,55,Read Transaction,00 08*
0,4423,1:06.053.811,79.200 us,2 B,,SP,55,Write Transaction,12 01
0,4424,1:06.059.168,660.500 us,25 B,,SP,55,Read Transaction,00 00 00 00 00 02 6C 64 00 00 00 00 02 6F 64 03 CD 00 00 00 00 00 01 03 00*
0,4425,1:06.066.544,676.800 us,26 B,,SP,55,Write Transaction,14 00 02 AD 2C 03 47 5F 06 E0 AF 06 20 69 00 00 00 00 00 00 FF BA 00 8C FC 31
0,4426,1:06.082.484,116.300 us,3 B,,SP,55,Read Transaction,00 00 18*
0,4427,1:06.086.879,79.100 us,2 B,,SP,55,Write Transaction,00 00
0,4428,1:06.092.228,86.700 us,2 B,,SP,55,Read Transaction,00 08*
0,4429,1:06.092.590,79.100 us,2 B,,SP,55,Write Transaction,12 01
0,4430,1:06.097.940,659.900 us,25 B,,SP,55,Read Transaction,00 00 00 00 00 02 6C 64 00 00 00 00 02 6F 64 03 CD 00 00 00 00 00 01 03 00*
0,4431,1:06.106.539,676.900 us,26 B,,SP,55,Write Transaction,14 00 02 A6 47 03 3C 98 06 DA E1 06 1C CE 00 00 00 00 00 00 FF B7 00 83 FC 37
0,4432,1:06.122.477,116.300 us,3 B,,SP,55,Read Transaction,00 00 18*
0,4433,1:06.126.868,79.000 us,2 B,,SP,55,Write Transaction,00 00
0,4434,1:06.132.224,86.800 us,2 B,,SP,55,Read Transaction,00 08*
0,4435,1:06.132.587,79.200 us,2 B,,SP,55,Write Transaction,12 01
0,4436,1:06.137.940,659.500 us,25 B,,SP,55,Read Transaction,00 00 00 00 00 02 6C 64 00 00 00 00 02 6F 64 03 CD 00 00 00 00 00 01 03 00*
0,4437,1:06.146.493,677.800 us,26 B,,SP,55,Write Transaction,14 00 02 A2 65 03 39 43 06 D7 15 06 1A AD 00 00 00 00 00 00 FF C1 00 87 FC 36
0,4438,1:06.162.453,116.200 us,3 B,,SP,55,Read Transaction,00 00 18*
0,4439,1:06.166.846,79.000 us,2 B,,SP,55,Write Transaction,00 00
0,4440,1:06.172.194,86.700 us,2 B,,SP,55,Read Transaction,00 08*
0,4441,1:06.172.558,79.100 us,2 B,,SP,55,Write Transaction,12 01
0,4442,1:06.177.905,659.500 us,25 B,,SP,55,Read Transaction,00 00 00 00 00 02 6C 64 00 00 00 00 02 6F 64 03 CD 00 00 00 00 00 01 03 00*
0,4443,1:06.186.418,677.900 us,26 B,,SP,55,Write Transaction,14 00 02 A3 89 03 3E 39 06 D8 0B 06 1A E5 00 00 00 00 00 00 FF BC 00 8D FC 37
0,4444,1:06.202.370,116.400 us,3 B,,SP,55,Read Transaction,00 00 18*
0,4445,1:06.206.766,79.100 us,2 B,,SP,55,Write Transaction,00 00
0,4446,1:06.212.121,86.700 us,2 B,,SP,55,Read Transaction,00 08*
0,4447,1:06.212.483,79.000 us,2 B,,SP,55,Write Transaction,12 01
0,4448,1:06.217.833,659.600 us,25 B,,SP,55,Read Transaction,00 00 00 00 00 02 6C 64 00 00 00 00 02 6F 64 03 CD E4 00 00 00 00 01 03 00*
0,4449,1:06.226.353,676.800 us,26 B,,SP,55,Write Transaction,14 00 02 A5 34 03 40 18 06 DA EF 06 1C CC 00 00 00 00 00 00 FF B9 00 87 FC 37
0,4450,1:06.242.298,116.400 us,3 B,,SP,55,Read Transaction,00 00 18*
0,4451,1:06.246.692,79.000 us,2 B,,SP,55,Write Transaction,00 00
0,4452,1:06.252.046,86.700 us,2 B,,SP,55,Read Transaction,00 08*
0,4453,1:06.252.408,79.100 us,2 B,,SP,55,Write Transaction,12 01
0,4454,1:06.257.756,659.600 us,25 B,,SP,55,Read Transaction,00 00 00 00 00 02 6C 64 00 00 00 00 02 6D 64 03 CD 00 00 00 00 00 01 03 00*
0,4455,1:06.266.305,676.900 us,26 B,,SP,55,Write Transaction,14 00 02 A5 9B 03 40 59 06 DB A5 06 1D 77 00 00 00 00 00 00 FF B5 00 89 FC 3C
0,4456,1:06.282.247,116.200 us,3 B,,SP,55,Read Transaction,00 00 18*
0,4457,1:06.286.642,79.100 us,2 B,,SP,55,Write Transaction,00 00
0,4458,1:06.291.990,86.700 us,2 B,,SP,55,Read Transaction,00 08*
0,4459,1:06.292.351,79.000 us,2 B,,SP,55,Write Transaction,12 01
0,4460,1:06.297.700,659.500 us,25 B,,SP,55,Read Transaction,00 00 00 00 00 02 6C 64 00 00 00 00 02 6D 64 03 CD 00 00 00 00 00 01 03 00*
0,4461,1:06.306.245,676.800 us,26 B,,SP,55,Write Transaction,14 00 02 A6 61 03 42 F2 06 DC 58 06 1D 87 00 00 00 00 00 00 FF C0 00 87 FC 2F
0,4462,1:06.322.182,116.200 us,3 B,,SP,55,Read Transaction,00 00 18*
0,4463,1:06.326.574,79.100 us,2 B,,SP,55,Write Transaction,00 00
0,4464,1:06.331.924,86.700 us,2 B,,SP,55,Read Transaction,00 08*
0,4465,1:06.332.286,79.100 us,2 B,,SP,55,Write Transaction,12 01
0,4466,1:06.337.634,659.500 us,25 B,,SP,55,Read Transaction,00 00 00 00 00 02 6C 64 00 00 00 00 02 6D 64 03 CD 00 00 00 00 00 01 03 00*
0,4467,1:06.346.198,676.700 us,26 B,,SP,55,Write Transaction,14 00 02 A8 68 03 47 6D 06 DE 21 06 1E BE 00 00 00 00 00 00 FF BA 00 85 FC 30
0,4468,1:06.362.134,116.300 us,3 B,,SP,55,Read Transaction,00 00 18*
0,4469,1:06.366.528,79.000 us,2 B,,SP,55,Write Transaction,00 00
0,4470,1:06.371.876,86.700 us,2 B,,SP,55,Read Transaction,00 08*
0,4471,1:06.372.237,79.000 us,2 B,,SP,55,Write Transaction,12 01
0,4472,1:06.377.587,659.500 us,25 B,,SP,55,Read Transaction,00 00 00 00 00 02 6C 64 25 4B 64 00 02 6D 64 03 CD 00 00 00 00 00 01 03 00*
0,4473,1:06.386.127,676.800 us,26 B,,SP,55,Write Transaction,14 00 02 AB CD 03 4D FD 06 E2 E7 06 22 0D 00 00 00 00 00 00 FF B7 00 83 FC 33
0,4474,1:06.402.067,116.300 us,3 B,,SP,55,Read Transaction,00 00 18*
0,4475,1:06.406.459,79.100 us,2 B,,SP,55,Write Transaction,00 00
0,4476,1:06.411.809,86.600 us,2 B,,SP,55,Read Transaction,00 08*
0,4477,1:06.412.172,79.100 us,2 B,,SP,55,Write Transaction,12 01
0,4478,1:06.417.522,659.500 us,25 B,,SP,55,Read Transaction,00 00 00 00 00 02 6C 64 00 00 00 00 02 6D 64 03 CD 00 00 00 00 00 01 03 00*
0,4479,1:06.426.111,676.800 us,26 B,,SP,55,Write Transaction,14 00 02 B