# Total Phase Data Center(tm) v6.73
# (c) 2005-2017 Total Phase, Inc.
# www.totalphase.com
#
# 
#
# Level,Index,m:s.ms.us,Dur,Len,Err,S/P,Addr,Record,Data
0,0,0:00.000.000,,,,,,Capture started,[09/19/22 21:17:20]
0,1,0:03.841.238,103.900 us,3 B,,SP,55,Write Transaction,41 06 10
0,2,0:03.846.615,87.200 us,2 B,,SP,55,Read Transaction,00 02*
0,3,0:03.877.308,103.900 us,3 B,,SP,55,Write Transaction,41 06 11
0,4,0:03.882.681,87.200 us,2 B,,SP,55,Read Transaction,00 07*
0,5,0:03.920.091,103.900 us,3 B,,SP,55,Write Transaction,41 06 12
0,6,0:03.925.467,87.300 us,2 B,,SP,55,Read Transaction,00 04*
0,7,0:03.963.846,104.000 us,3 B,,SP,55,Write Transaction,41 06 13
0,8,0:03.969.225,87.200 us,2 B,,SP,55,Read Transaction,00 00*
0,9,0:03.998.854,104.100 us,3 B,,SP,55,Write Transaction,41 06 14
0,10,0:04.004.229,87.200 us,2 B,,SP,55,Read Transaction,00 55*
0,11,0:04.033.852,104.000 us,3 B,,SP,55,Write Transaction,41 06 18
0,12,0:04.039.227,87.200 us,2 B,,SP,55,Read Transaction,00 80*
0,13,0:04.068.860,104.000 us,3 B,,SP,55,Write Transaction,41 06 19
0,14,0:04.074.236,87.200 us,2 B,,SP,55,Read Transaction,00 9F*
0,15,0:04.103.865,103.900 us,3 B,,SP,55,Write Transaction,41 06 1A
0,16,0:04.109.243,87.400 us,2 B,,SP,55,Read Transaction,00 3F*
0,17,0:04.138.872,103.900 us,3 B,,SP,55,Write Transaction,41 06 1C
0,18,0:04.144.247,87.300 us,2 B,,SP,55,Read Transaction,00 20*
0,19,0:04.173.875,104.000 us,3 B,,SP,55,Write Transaction,41 06 1D
0,20,0:04.179.248,87.300 us,2 B,,SP,55,Read Transaction,00 05*
0,21,0:04.208.876,104.000 us,3 B,,SP,55,Write Transaction,41 06 1E
0,22,0:04.214.252,87.300 us,2 B,,SP,55,Read Transaction,00 1F*
0,23,0:04.243.888,104.200 us,3 B,,SP,55,Write Transaction,41 06 20
0,24,0:04.249.263,87.200 us,2 B,,SP,55,Read Transaction,00 08*
0,25,0:04.278.889,104.000 us,3 B,,SP,55,Write Transaction,41 06 21
0,26,0:04.284.263,87.100 us,2 B,,SP,55,Read Transaction,00 18*
0,27,0:04.313.892,103.900 us,3 B,,SP,55,Write Transaction,41 06 22
0,28,0:04.319.266,87.200 us,2 B,,SP,55,Read Transaction,00 3F*
0,29,0:04.348.902,104.000 us,3 B,,SP,55,Write Transaction,41 06 23
0,30,0:04.354.276,87.200 us,2 B,,SP,55,Read Transaction,00 50*
0,31,0:04.383.899,104.000 us,3 B,,SP,55,Write Transaction,41 06 24
0,32,0:04.389.279,87.400 us,2 B,,SP,55,Read Transaction,00 08*
0,33,0:04.418.906,104.000 us,3 B,,SP,55,Write Transaction,41 06 25
0,34,0:04.424.280,87.200 us,2 B,,SP,55,Read Transaction,00 14*
0,35,0:04.453.841,104.000 us,3 B,,SP,55,Write Transaction,41 06 26
0,36,0:04.459.219,87.300 us,2 B,,SP,55,Read Transaction,00 00*
0,37,0:04.488.916,104.000 us,3 B,,SP,55,Write Transaction,41 06 FE
0,38,0:04.494.289,87.200 us,2 B,,SP,55,Read Transaction,00 41*
0,39,0:04.558.927,104.000 us,3 B,,SP,55,Write Transaction,41 06 FF
0,40,0:04.564.301,87.200 us,2 B,,SP,55,Read Transaction,00 39*
0,41,0:04.593.935,104.000 us,3 B,,SP,55,Write Transaction,41 04 18
0,42,0:04.599.309,86.900 us,2 B,,SP,55,Read Transaction,00 0E*
0,43,0:04.628.943,104.200 us,3 B,,SP,55,Write Transaction,41 04 1B
0,44,0:04.634.321,86.800 us,2 B,,SP,55,Read Transaction,00 B3*
0,45,0:04.698.869,104.000 us,3 B,,SP,55,Write Transaction,41 06 28
0,46,0:04.704.244,87.200 us,2 B,,SP,55,Read Transaction,00 01*
0,47,0:04.733.955,103.900 us,3 B,,SP,55,Write Transaction,41 06 28
0,48,0:04.739.328,87.200 us,2 B,,SP,55,Read Transaction,00 01*
0,49,0:04.768.956,104.000 us,3 B,,SP,55,Write Transaction,41 06 28
0,50,0:04.774.335,87.300 us,2 B,,SP,55,Read Transaction,00 01*
0,51,0:04.803.957,104.000 us,3 B,,SP,55,Write Transaction,41 06 28
0,52,0:04.809.334,87.300 us,2 B,,SP,55,Read Transaction,00 01*
0,53,0:04.838.963,103.900 us,3 B,,SP,55,Write Transaction,41 06 28
0,54,0:04.844.336,87.200 us,2 B,,SP,55,Read Transaction,00 01*
0,55,0:04.873.969,103.900 us,3 B,,SP,55,Write Transaction,41 06 28
0,56,0:04.879.344,87.200 us,2 B,,SP,55,Read Transaction,00 01*
0,57,0:04.908.971,104.000 us,3 B,,SP,55,Write Transaction,41 06 28
0,58,0:04.914.346,87.200 us,2 B,,SP,55,Read Transaction,00 01*
0,59,0:04.943.872,104.100 us,3 B,,SP,55,Write Transaction,41 06 30
0,60,0:04.949.255,87.300 us,2 B,,SP,55,Read Transaction,00 02*
0,61,0:04.978.981,103.900 us,3 B,,SP,55,Write Transaction,41 06 30
0,62,0:04.984.356,87.200 us,2 B,,SP,55,Read Transaction,00 02*
0,63,0:05.013.981,104.100 us,3 B,,SP,55,Write Transaction,41 06 30
0,64,0:05.019.358,87.300 us,2 B,,SP,55,Read Transaction,00 02*
0,65,0:05.048.994,103.900 us,3 B,,SP,55,Write Transaction,41 06 30
0,66,0:05.054.369,87.200 us,2 B,,SP,55,Read Transaction,00 02*
0,67,0:05.083.995,104.000 us,3 B,,SP,55,Write Transaction,41 06 30
0,68,0:05.089.372,87.300 us,2 B,,SP,55,Read Transaction,00 02*
0,69,0:05.119.003,104.000 us,3 B,,SP,55,Write Transaction,41 06 30
0,70,0:05.124.377,87.200 us,2 B,,SP,55,Read Transaction,00 02*
0,71,0:05.154.009,103.900 us,3 B,,SP,55,Write Transaction,41 06 30
0,72,0:05.159.384,87.200 us,2 B,,SP,55,Read Transaction,00 02*
0,73,0:05.189.016,104.000 us,3 B,,SP,55,Write Transaction,41 06 38
0,74,0:05.194.390,87.200 us,2 B,,SP,55,Read Transaction,00 00*
0,75,0:05.224.014,104.100 us,3 B,,SP,55,Write Transaction,41 06 38
0,76,0:05.229.392,87.200 us,2 B,,SP,55,Read Transaction,00 00*
0,77,0:05.259.019,104.000 us,3 B,,SP,55,Write Transaction,41 06 38
0,78,0:05.264.393,87.300 us,2 B,,SP,55,Read Transaction,00 00*
0,79,0:05.294.024,103.900 us,3 B,,SP,55,Write Transaction,41 06 38
0,80,0:05.299.398,87.200 us,2 B,,SP,55,Read Transaction,00 00*
0,81,0:05.329.023,103.900 us,3 B,,SP,55,Write Transaction,41 06 38
0,82,0:05.334.398,87.200 us,2 B,,SP,55,Read Transaction,00 00*
0,83,0:05.364.031,104.200 us,3 B,,SP,55,Write Transaction,41 06 38
0,84,0:05.369.408,87.200 us,2 B,,SP,55,Read Transaction,00 00*
0,85,0:05.399.043,104.000 us,3 B,,SP,55,Write Transaction,41 06 38
0,86,0:05.404.418,87.200 us,2 B,,SP,55,Read Transaction,00 00*
0,87,0:05.434.040,104.000 us,3 B,,SP,55,Write Transaction,41 06 30
0,88,0:05.439.418,87.300 us,2 B,,SP,55,Read Transaction,00 02*
0,89,0:05.469.049,103.900 us,3 B,,SP,55,Write Transaction,41 06 30
0,90,0:05.474.423,87.200 us,2 B,,SP,55,Read Transaction,00 02*
0,91,0:05.504.052,104.000 us,3 B,,SP,55,Write Transaction,41 06 30
0,92,0:05.509.426,87.200 us,2 B,,SP,55,Read Transaction,00 02*
0,93,0:05.573.956,104.200 us,3 B,,SP,55,Write Transaction,41 06 30
0,94,0:05.579.331,87.200 us,2 B,,SP,55,Read Transaction,00 02*
0,95,0:05.609.063,103.900 us,3 B,,SP,55,Write Transaction,41 06 30
0,96,0:05.614.438,87.200 us,2 B,,SP,55,Read Transaction,00 02*
0,97,0:05.644.072,104.000 us,3 B,,SP,55,Write Transaction,41 06 30
0,98,0:05.649.446,87.200 us,2 B,,SP,55,Read Transaction,00 02*
0,99,0:05.679.070,104.000 us,3 B,,SP,55,Write Transaction,41 06 30
0,100,0:05.684.445,87.400 us,2 B,,SP,55,Read Transaction,00 02*
0,101,0:05.714.082,103.900 us,3 B,,SP,55,Write Transaction,41 06 48
0,102,0:05.719.462,87.400 us,2 B,,SP,55,Read Transaction,00 00*
0,103,0:05.749.086,103.900 us,3 B,,SP,55,Write Transaction,41 06 48
0,104,0:05.754.466,87.300 us,2 B,,SP,55,Read Transaction,00 00*
0,105,0:05.784.089,104.000 us,3 B,,SP,55,Write Transaction,41 06 48
0,106,0:05.789.464,87.200 us,2 B,,SP,55,Read Transaction,00 00*
0,107,0:05.827.844,104.100 us,3 B,,SP,55,Write Transaction,41 06 48
0,108,0:05.833.222,87.200 us,2 B,,SP,55,Read Transaction,00 00*
0,109,0:05.862.848,103.900 us,3 B,,SP,55,Write Transaction,41 06 48
0,110,0:05.868.222,87.200 us,2 B,,SP,55,Read Transaction,00 00*
0,111,0:05.897.858,103.900 us,3 B,,SP,55,Write Transaction,41 06 48
0,112,0:05.903.231,87.300 us,2 B,,SP,55,Read Transaction,00 00*
0,113,0:05.932.854,104.000 us,3 B,,SP,55,Write Transaction,41 06 48
0,114,0:05.938.230,87.200 us,2 B,,SP,55,Read Transaction,00 00*
0,115,0:05.967.861,104.000 us,3 B,,SP,55,Write Transaction,41 06 30
0,116,0:05.973.235,87.200 us,2 B,,SP,55,Read Transaction,00 02*
0,117,0:06.002.870,104.000 us,3 B,,SP,55,Write Transaction,41 06 30
0,118,0:06.008.244,87.200 us,2 B,,SP,55,Read Transaction,00 02*
0,119,0:06.037.879,104.000 us,3 B,,SP,55,Write Transaction,41 06 30
0,120,0:06.043.257,87.300 us,2 B,,SP,55,Read Transaction,00 02*
0,121,0:06.072.876,104.000 us,3 B,,SP,55,Write Transaction,41 06 30
0,122,0:06.078.250,87.200 us,2 B,,SP,55,Read Transaction,00 02*
0,123,0:06.107.880,104.000 us,3 B,,SP,55,Write Transaction,41 06 30
0,124,0:06.113.255,87.200 us,2 B,,SP,55,Read Transaction,00 02*
0,125,0:06.142.888,104.000 us,3 B,,SP,55,Write Transaction,41 06 30
0,126,0:06.148.263,87.300 us,2 B,,SP,55,Read Transaction,00 02*
0,127,0:06.177.887,103.900 us,3 B,,SP,55,Write Transaction,41 06 30
0,128,0:06.183.263,87.200 us,2 B,,SP,55,Read Transaction,00 02*
0,129,0:06.212.894,103.900 us,3 B,,SP,55,Write Transaction,41 06 58
0,130,0:06.218.267,87.200 us,2 B,,SP,55,Read Transaction,00 00*
0,131,0:06.247.905,104.100 us,3 B,,SP,55,Write Transaction,41 06 58
0,132,0:06.253.283,87.300 us,2 B,,SP,55,Read Transaction,00 00*
0,133,0:06.282.901,104.000 us,3 B,,SP,55,Write Transaction,41 06 58
0,134,0:06.288.279,87.300 us,2 B,,SP,55,Read Transaction,00 00*
0,135,0:06.317.908,103.900 us,3 B,,SP,55,Write Transaction,41 06 58
0,136,0:06.323.281,87.200 us,2 B,,SP,55,Read Transaction,00 00*
0,137,0:06.352.917,104.000 us,3 B,,SP,55,Write Transaction,41 06 58
0,138,0:06.358.290,87.300 us,2 B,,SP,55,Read Transaction,00 00*
0,139,0:06.387.918,104.200 us,3 B,,SP,55,Write Transaction,41 06 58
0,140,0:06.393.300,87.300 us,2 B,,SP,55,Read Transaction,00 00*
0,141,0:06.422.924,104.100 us,3 B,,SP,55,Write Transaction,41 06 58
0,142,0:06.428.298,87.200 us,2 B,,SP,55,Read Transaction,00 00*
0,143,0:06.457.928,103.900 us,3 B,,SP,55,Write Transaction,41 06 30
0,144,0:06.463.302,87.200 us,2 B,,SP,55,Read Transaction,00 02*
0,145,0:06.492.937,104.000 us,3 B,,SP,55,Write Transaction,41 06 30
0,146,0:06.498.311,87.200 us,2 B,,SP,55,Read Transaction,00 02*
0,147,0:06.527.946,104.200 us,3 B,,SP,55,Write Transaction,41 06 30
0,148,0:06.533.322,87.200 us,2 B,,SP,55,Read Transaction,00 02*
0,149,0:06.597.949,103.900 us,3 B,,SP,55,Write Transaction,41 06 30
0,150,0:06.603.322,87.200 us,2 B,,SP,55,Read Transaction,00 02*
0,151,0:06.632.953,104.000 us,3 B,,SP,55,Write Transaction,41 06 30
0,152,0:06.638.327,87.200 us,2 B,,SP,55,Read Transaction,00 02*
0,153,0:06.667.950,104.000 us,3 B,,SP,55,Write Transaction,41 06 30
0,154,0:06.673.324,87.300 us,2 B,,SP,55,Read Transaction,00 02*
0,155,0:06.702.958,104.000 us,3 B,,SP,55,Write Transaction,41 06 30
0,156,0:06.708.332,87.200 us,2 B,,SP,55,Read Transaction,00 02*
0,157,0:06.737.966,104.000 us,3 B,,SP,55,Write Transaction,41 06 90
0,158,0:06.743.339,87.200 us,2 B,,SP,55,Read Transaction,00 02*
0,159,0:06.774.204,103.900 us,3 B,,SP,55,Write Transaction,41 06 90
0,160,0:06.779.578,87.200 us,2 B,,SP,55,Read Transaction,00 02*
0,161,0:06.807.972,103.900 us,3 B,,SP,55,Write Transaction,41 06 90
0,162,0:06.813.348,87.200 us,2 B,,SP,55,Read Transaction,00 02*
0,163,0:06.842.980,103.900 us,3 B,,SP,55,Write Transaction,41 06 90
0,164,0:06.848.354,87.200 us,2 B,,SP,55,Read Transaction,00 02*
0,165,0:06.877.982,104.100 us,3 B,,SP,55,Write Transaction,41 06 90
0,166,0:06.883.359,87.200 us,2 B,,SP,55,Read Transaction,00 02*
0,167,0:06.912.991,103.900 us,3 B,,SP,55,Write Transaction,41 06 90
0,168,0:06.918.366,87.200 us,2 B,,SP,55,Read Transaction,00 02*
0,169,0:06.947.995,104.000 us,3 B,,SP,55,Write Transaction,41 06 90
0,170,0:06.953.369,87.300 us,2 B,,SP,55,Read Transaction,00 02*
0,171,0:06.982.999,104.000 us,3 B,,SP,55,Write Transaction,41 06 90
0,172,0:06.988.374,87.200 us,2 B,,SP,55,Read Transaction,00 02*
0,173,0:07.018.001,104.000 us,3 B,,SP,55,Write Transaction,41 06 90
0,174,0:07.023.376,87.200 us,2 B,,SP,55,Read Transaction,00 02*
0,175,0:07.053.006,103.900 us,3 B,,SP,55,Write Transaction,41 06 90
0,176,0:07.058.380,87.200 us,2 B,,SP,55,Read Transaction,00 02*
0,177,0:07.088.010,104.100 us,3 B,,SP,55,Write Transaction,41 06 90
0,178,0:07.093.389,87.200 us,2 B,,SP,55,Read Transaction,00 02*
0,179,0:07.124.078,104.000 us,3 B,,SP,55,Write Transaction,41 06 90
0,180,0:07.129.450,87.200 us,2 B,,SP,55,Read Transaction,00 02*
0,181,0:07.158.022,103.900 us,3 B,,SP,55,Write Transaction,41 06 9E
0,182,0:07.163.395,87.200 us,2 B,,SP,55,Read Transaction,00 00*
0,183,0:07.193.024,104.000 us,3 B,,SP,55,Write Transaction,41 06 A8
0,184,0:07.198.399,87.300 us,2 B,,SP,55,Read Transaction,00 CF*
0,185,0:07.228.024,104.000 us,3 B,,SP,55,Write Transaction,41 06 A9
0,186,0:07.233.397,87.200 us,2 B,,SP,55,Read Transaction,00 40*
0,187,0:07.280.570,128.900 us,4 B,,SP,55,Write Transaction,50 08 0B 01
0,188,0:07.285.968,61.800 us,1 B,,SP,55,Read Transaction,00*
0,189,0:07.286.303,128.900 us,4 B,,SP,55,Write Transaction,50 08 12 01
0,190,0:07.291.709,61.700 us,1 B,,SP,55,Read Transaction,00*
0,191,0:07.292.046,154.000 us,5 B,,SP,55,Write Transaction,50 08 1A 00 03
0,192,0:07.297.470,61.700 us,1 B,,SP,55,Read Transaction,00*
0,193,0:07.297.808,153.800 us,5 B,,SP,55,Write Transaction,50 08 15 01 03
0,194,0:07.303.232,61.700 us,1 B,,SP,55,Read Transaction,00*
0,195,0:07.303.566,153.800 us,5 B,,SP,55,Write Transaction,50 08 15 02 03
0,196,0:07.308.991,61.700 us,1 B,,SP,55,Read Transaction,00*
0,197,0:07.309.328,153.800 us,5 B,,SP,55,Write Transaction,50 08 1B 00 01
0,198,0:07.314.750,61.800 us,1 B,,SP,55,Read Transaction,00*
0,199,0:07.315.145,153.800 us,5 B,,SP,55,Write Transaction,50 08 1B 01 10
0,200,0:07.320.571,61.700 us,1 B,,SP,55,Read Transaction,00*
0,201,0:07.320.907,153.800 us,5 B,,SP,55,Write Transaction,50 08 14 01 04
0,202,0:07.326.331,61.700 us,1 B,,SP,55,Read Transaction,00*
0,203,0:07.326.668,153.800 us,5 B,,SP,55,Write Transaction,50 08 16 01 10
0,204,0:07.332.088,61.700 us,1 B,,SP,55,Read Transaction,00*
0,205,0:07.332.423,153.800 us,5 B,,SP,55,Write Transaction,50 08 1B 02 10
0,206,0:07.337.849,61.700 us,1 B,,SP,55,Read Transaction,00*
0,207,0:07.338.185,153.800 us,5 B,,SP,55,Write Transaction,50 08 14 02 04
0,208,0:07.343.609,61.700 us,1 B,,SP,55,Read Transaction,00*
0,209,0:07.343.946,153.800 us,5 B,,SP,55,Write Transaction,50 08 16 02 10
0,210,0:07.349.368,61.800 us,1 B,,SP,55,Read Transaction,00*
0,211,0:07.349.703,153.800 us,5 B,,SP,55,Write Transaction,50 08 0F 00 7D
0,212,0:07.355.129,61.600 us,1 B,,SP,55,Read Transaction,00*
0,213,0:07.355.466,153.800 us,5 B,,SP,55,Write Transaction,50 08 10 01 38
0,214,0:07.360.890,61.600 us,1 B,,SP,55,Read Transaction,00*
0,215,0:07.361.227,153.800 us,5 B,,SP,55,Write Transaction,50 08 0D 07 08
0,216,0:07.366.649,61.600 us,1 B,,SP,55,Read Transaction,00*
0,217,0:07.366.983,153.700 us,5 B,,SP,55,Write Transaction,50 08 0E 00 32
0,218,0:07.372.408,61.700 us,1 B,,SP,55,Read Transaction,00*
0,219,0:07.372.746,153.800 us,5 B,,SP,55,Write Transaction,50 08 23 00 00
0,220,0:07.378.171,62.000 us,1 B,,SP,55,Read Transaction,00*
0,221,0:07.378.508,153.800 us,5 B,,SP,55,Write Transaction,50 08 24 00 00
0,222,0:07.383.931,61.900 us,1 B,,SP,55,Read Transaction,00*
0,223,0:07.384.267,153.800 us,5 B,,SP,55,Write Transaction,50 08 1C 00 00
0,224,0:07.389.693,61.700 us,1 B,,SP,55,Read Transaction,00*
0,225,0:07.390.030,153.800 us,5 B,,SP,55,Write Transaction,50 08 23 01 00
0,226,0:07.395.455,62.000 us,1 B,,SP,55,Read Transaction,00*
0,227,0:07.395.792,153.800 us,5 B,,SP,55,Write Transaction,50 08 24 01 00
0,228,0:07.401.213,61.900 us,1 B,,SP,55,Read Transaction,00*
0,229,0:07.401.548,153.800 us,5 B,,SP,55,Write Transaction,50 08 23 02 00
0,230,0:07.406.972,62.000 us,1 B,,SP,55,Read Transaction,00*
0,231,0:07.407.309,153.800 us,5 B,,SP,55,Write Transaction,50 08 24 02 00
0,232,0:07.412.737,61.900 us,1 B,,SP,55,Read Transaction,00*
0,233,0:07.413.075,178.800 us,6 B,,SP,55,Write Transaction,50 08 25 00 00 64
0,234,0:07.418.522,61.800 us,1 B,,SP,55,Read Transaction,00*
0,235,0:07.418.857,178.700 us,6 B,,SP,55,Write Transaction,50 08 25 01 00 C8
0,236,0:07.424.307,61.800 us,1 B,,SP,55,Read Transaction,00*
0,237,0:07.424.644,178.700 us,6 B,,SP,55,Write Transaction,50 08 25 02 00 C8
0,238,0:07.430.094,61.800 us,1 B,,SP,55,Read Transaction,00*
0,239,0:07.430.432,153.800 us,5 B,,SP,55,Write Transaction,50 08 11 01 38
0,240,0:07.435.854,61.700 us,1 B,,SP,55,Read Transaction,00*
0,241,0:07.436.189,128.900 us,4 B,,SP,55,Write Transaction,50 08 0C 01
0,242,0:07.441.595,61.800 us,1 B,,SP,55,Read Transaction,00*
0,243,0:07.441.933,104.100 us,3 B,,SP,55,Write Transaction,10 00 07
0,244,0:07.447.313,61.700 us,1 B,,SP,55,Read Transaction,00*
0,245,0:07.447.649,128.900 us,4 B,,SP,55,Write Transaction,40 06 10 01
0,246,0:07.453.045,62.000 us,1 B,,SP,55,Read Transaction,00*
0,247,0:07.453.380,128.800 us,4 B,,SP,55,Write Transaction,40 06 10 02
0,248,0:07.458.779,62.000 us,1 B,,SP,55,Read Transaction,00*
0,249,0:07.459.114,128.800 us,4 B,,SP,55,Write Transaction,40 06 15 1E
0,250,0:07.464.512,62.000 us,1 B,,SP,55,Read Transaction,00*
0,251,0:07.464.847,128.800 us,4 B,,SP,55,Write Transaction,40 06 18 80
0,252,0:07.470.244,62.000 us,1 B,,SP,55,Read Transaction,00*
0,253,0:07.470.578,128.900 us,4 B,,SP,55,Write Transaction,40 06 19 9F
0,254,0:07.475.978,62.000 us,1 B,,SP,55,Read Transaction,00*
0,255,0:07.476.314,129.000 us,4 B,,SP,55,Write Transaction,40 06 1A 3F
0,256,0:07.481.718,61.900 us,1 B,,SP,55,Read Transaction,00*
0,257,0:07.482.053,128.900 us,4 B,,SP,55,Write Transaction,40 06 1C 20
0,258,0:07.487.450,62.000 us,1 B,,SP,55,Read Transaction,00*
0,259,0:07.487.785,128.900 us,4 B,,SP,55,Write Transaction,40 06 1D 05
0,260,0:07.493.184,62.000 us,1 B,,SP,55,Read Transaction,00*
0,261,0:07.493.520,128.900 us,4 B,,SP,55,Write Transaction,40 06 1E 1F
0,262,0:07.498.936,62.000 us,1 B,,SP,55,Read Transaction,00*
0,263,0:07.499.274,128.900 us,4 B,,SP,55,Write Transaction,40 06 86 40
0,264,0:07.504.670,62.000 us,1 B,,SP,55,Read Transaction,00*
0,265,0:07.505.004,128.900 us,4 B,,SP,55,Write Transaction,44 04 01 00
0,266,0:08.004.904,65.100 us,1 B,,SP,55,Read Transaction,00*
0,267,0:08.005.241,128.900 us,4 B,,SP,55,Write Transaction,44 06 01 00
0,268,0:08.505.162,68.600 us,1 B,,SP,55,Read Transaction,00*
0,269,0:08.505.506,103.900 us,3 B,,SP,55,Write Transaction,52 08 01
0,270,0:09.005.465,66.500 us,1 B,,SP,55,Read Transaction,00*
0,271,0:09.007.109,79.100 us,2 B,,SP,55,Write Transaction,00 00
0,272,0:09.012.461,90.700 us,2 B,,SP,55,Read Transaction,00 08*
0,273,0:09.017.834,79.100 us,2 B,,SP,55,Write Transaction,12 01
0,274,0:09.023.184,1.182.600 ms,46 B,,SP,55,Read Transaction,00 00 FF 9B 00 7A FC 32 04 29 2D 04 28 55 B7 FF FF B7 FF FF B7 FF FF B7 FF FF 00 02 58 00 00 00 00 01 00 00 00 00 00 00 00 00 00 00 00 02*
0,275,0:09.026.016,79.100 us,2 B,,SP,55,Write Transaction,00 00
0,276,0:09.031.367,86.600 us,2 B,,SP,55,Read Transaction,00 08*
0,277,0:09.036.731,79.000 us,2 B,,SP,55,Write Transaction,12 01
0,278,0:09.042.080,1.182.700 ms,46 B,,SP,55,Read Transaction,00 01 FF 9B 00 79 FC 31 04 2E 03 04 2D 33 B7 FF FF B7 FF FF B7 FF FF B7 FF FF 00 02 58 00 00 00 00 01 00 00 00 00 00 00 00 00 00 00 00 02*
0,279,0:09.044.715,79.100 us,2 B,,SP,55,Write Transaction,00 00
0,280,0:09.050.066,86.900 us,2 B,,SP,55,Read Transaction,00 08*
0,281,0:09.055.433,79.000 us,2 B,,SP,55,Write Transaction,12 01
0,282,0:09.060.785,1.183.200 ms,46 B,,SP,55,Read Transaction,00 02 FF 9A 00 7C FC 30 04 33 FF 04 33 3B B7 FF FF B7 FF FF B7 FF FF B7 FF FF 00 02 58 00 00 00 00 01 00 00 00 00 00 00 00 00 00 00 00 02*
0,283,0:09.062.370,79.100 us,2 B,,SP,55,Write Transaction,00 00
0,284,0:09.067.722,86.600 us,2 B,,SP,55,Read Transaction,00 08*
0,285,0:09.073.086,79.000 us,2 B,,SP,55,Write Transaction,12 01
0,286,0:09.078.439,1.182.800 ms,46 B,,SP,55,Read Transaction,00 03 FF 9C 00 76 FC 2F 03 18 1B 03 17 7F B7 FF FF B7 FF FF B7 FF FF B7 FF FF 00 02 58 00 00 00 00 01 00 00 00 00 00 00 00 00 00 00 00 02*
0,287,0:09.082.317,79.100 us,2 B,,SP,55,Write Transaction,00 00
0,288,0:09.087.672,86.700 us,2 B,,SP,55,Read Transaction,00 08*
0,289,0:09.093.040,79.000 us,2 B,,SP,55,Write Transaction,12 01
0,290,0:09.098.389,1.182.400 ms,46 B,,SP,55,Read Transaction,00 04 FF 9A 00 7C FC 34 02 B6 58 02 B5 CF B7 FF FF B7 FF FF B7 FF FF B7 FF FF 00 02 58 00 00 00 00 01 00 00 00 00 00 00 00 00 00 00 00 02*
0,291,0:09.099.973,79.000 us,2 B,,SP,55,Write Transaction,00 00
0,292,0:09.105.323,86.600 us,2 B,,SP,55,Read Transaction,00 08*
0,293,0:09.110.690,79.000 us,2 B,,SP,55,Write Transaction,12 01
0,294,0:09.116.046,1.182.800 ms,46 B,,SP,55,Read Transaction,00 05 FF 99 00 7A FC 30 02 4D 43 02 4C C4 B7 FF FF B7 FF FF B7 FF FF B7 FF FF 00 02 58 00 00 00 00 01 00 00 00 00 00 00 00 00 00 00 00 02*
0,295,0:09.117.646,79.000 us,2 B,,SP,55,Write Transaction,00 00
0,296,0:09.122.999,86.600 us,2 B,,SP,55,Read Transaction,00 08*
0,297,0:09.128.370,79.200 us,2 B,,SP,55,Write Transaction,12 01
0,298,0:09.133.727,1.188.300 ms,46 B,,SP,55,Read Transaction,00 06 FF 9D 00 7D FC 30 02 50 9B 02 50 16 B7 FF FF B7 FF FF B7 FF FF B7 FF FF 00 02 58 00 00 00 00 01 00 00 00 00 00 00 00 00 00 00 00 02*
0,299,0:09.137.706,79.200 us,2 B,,SP,55,Write Transaction,00 00
0,300,0:09.143.059,86.700 us,2 B,,SP,55,Read Transaction,00 08*
0,301,0:09.148.425,79.100 us,2 B,,SP,55,Write Transaction,12 01
0,302,0:09.153.778,1.182.700 ms,46 B,,SP,55,Read Transaction,00 07 FF 9C 00 7A FC 31 02 53 8B 02 53 03 B7 FF FF B7 FF FF B7 FF FF B7 FF FF 00 02 58 00 00 00 00 01 00 00 00 00 00 00 00 00 00 00 00 02*
0,303,0:09.155.363,79.100 us,2 B,,SP,55,Write Transaction,00 00
0,304,0:09.160.713,86.600 us,2 B,,SP,55,Read Transaction,00 08*
0,305,0:09.166.081,79.100 us,2 B,,SP,55,Write Transaction,12 01
0,306,0:09.171.431,1.185.800 ms,46 B,,SP,55,Read Transaction,00 08 FF 99 00 76 FC 32 02 56 37 02 55 B3 B7 FF FF B7 FF FF B7 FF FF B7 FF FF 00 02 58 00 00 00 00 01 00 00 00 00 00 00 00 00 00 00 00 02*
0,307,0:09.175.303,79.100 us,2 B,,SP,55,Write Transaction,00 00
0,308,0:09.180.653,86.600 us,2 B,,SP,55,Read Transaction,00 08*
0,309,0:09.186.019,79.000 us,2 B,,SP,55,Write Transaction,12 01
0,310,0:09.191.371,1.182.700 ms,46 B,,SP,55,Read Transaction,00 09 FF 9F 00 7D FC 2D 02 59 44 02 58 BC B7 FF FF B7 FF FF B7 FF FF B7 FF FF 00 02 58 00 00 00 00 01 00 00 00 00 00 00 00 00 00 00 00 02*
0,311,0:09.192.968,79.100 us,2 B,,SP,55,Write Transaction,00 00
0,312,0:09.198.319,86.600 us,2 B,,SP,55,Read Transaction,00 08*
0,313,0:09.203.684,79.100 us,2 B,,SP,55,Write Transaction,12 01
0,314,0:09.209.037,1.182.700 ms,46 B,,SP,55,Read Transaction,00 0A FF 9C 00 78 FC 33 02 59 D6 02 59 54 B7 FF FF B7 FF FF B7 FF FF B7 FF FF 00 02 58 00 00 00 00 01 00 00 00 00 00 00 00 00 00 00 00 02*
0,315,0:09.211.669,79.100 us,2 B,,SP,55,Write Transaction,00 00
0,316,0:09.217.022,87.100 us,2 B,,SP,55,Read Transaction,00 08*
0,317,0:09.222.389,79.100 us,2 B,,SP,55,Write Transaction,12 01
0,318,0:09.227.740,1.182.600 ms,46 B,,SP,55,Read Transaction,00 0B FF 9F 00 7B FC 31 02 53 5F 02 52 E2 B7 FF FF B7 FF FF B7 FF FF B7 FF FF 00 02 58 00 00 00 00 01 00 00 00 00 00 00 00 00 00 00 00 02*
0,319,0:09.230.561,79.100 us,2 B,,SP,55,Write Transaction,00 00
0,320,0:09.235.912,86.600 us,2 B,,SP,55,Read Transaction,00 08*
0,321,0:09.241.277,79.000 us,2 B,,SP,55,Write Transaction,12 01
0,322,0:09.246.627,1.182.700 ms,46 B,,SP,55,Read Transaction,00 0C FF 9C 00 7A FC 29 02 49 78 02 48 F7 B7 FF FF B7 FF FF B7 FF FF B7 FF FF 00 02 58 00 00 00 00 01 00 00 00 00 00 00 00 00 00 00 00 02*
0,323,0:09.249.286,79.000 us,2 B,,SP,55,Write Transaction,00 00
0,324,0:09.254.636,90.400 us,2 B,,SP,55,Read Transaction,00 08*
0,325,0:09.260.004,79.000 us,2 B,,SP,55,Write Transaction,12 01
0,326,0:09.265.359,1.184.200 ms,46 B,,SP,55,Read Transaction,00 0D FF 9B 00 7C FC 36 02 40 AF 02 40 33 B7 FF FF B7 FF FF B7 FF FF B7 FF FF 00 02 58 00 00 00 00 01 00 00 00 00 00 00 00 00 00 00 00 02*
0,327,0:09.267.075,79.200 us,2 B,,SP,55,Write Transaction,00 00
0,328,0:09.272.429,86.600 us,2 B,,SP,55,Read Transaction,00 08*
0,329,0:09.277.795,79.100 us,2 B,,SP,55,Write Transaction,12 01
0,330,0:09.283.143,1.182.600 ms,46 B,,SP,55,Read Transaction,00 0E FF 9A 00 7C FC 32 02 3A A4 02 3A 2D B7 FF FF B7 FF FF B7 FF FF B7 FF FF 00 02 58 00 00 00 00 01 00 00 00 00 00 00 00 00 00 00 00 02*
0,331,0:09.287.077,79.100 us,2 B,,SP,55,Write Transaction,00 00
0,332,0:09.292.427,91.200 us,2 B,,SP,55,Read Transaction,00 08*
0,333,0:09.297.797,79.100 us,2 B,,SP,55,Write Transaction,12 01
0,334,0:09.303.149,1.182.500 ms,46 B,,SP,55,Read Transaction,00 0F FF 9B 00 7D FC 2C 02 36 0F 02 35 99 B7 FF FF B7 FF FF B7 FF FF B7 FF FF 00 02 58 00 00 00 00 01 00 00 00 00 00 00 00 00 00 00 00 02*
0,335,0:09.304.735,79.100 us,2 B,,SP,55,Write Transaction,00 00
0,336,0:09.310.082,88.100 us,2 B,,SP,55,Read Transaction,00 08*
0,337,0:09.315.450,79.100 us,2 B,,SP,55,Write Transaction,12 01
0,338,0:09.320.799,1.182.600 ms,46 B,,SP,55,Read Transaction,00 10 FF 97 00 7D FC 32 02 34 48 02 33 CB B7 FF FF B7 FF FF B7 FF FF B7 FF FF 00 02 58 00 00 00 00 01 00 00 00 00 00 00 00 00 00 00 00 02*
0,339,0:09.323.614,79.100 us,2 B,,SP,55,Write Transaction,00 00
0,340,0:09.328.969,86.600 us,2 B,,SP,55,Read Transaction,00 08*
0,341,0:09.334.338,79.100 us,2 B,,SP,55,Write Transaction,12 01
0,342,0:09.339.688,1.182.900 ms,46 B,,SP,55,Read Transaction,00 11 FF 99 00 7D FC 2F 02 35 9A 02 35 24 B7 FF FF B7 FF FF B7 FF FF B7 FF FF 00 02 58 00 00 00 00 01 00 00 00 00 00 00 00 00 00 00 00 02*
0,343,0:09.342.324,79.200 us,2 B,,SP,55,Write Transaction,00 00
0,344,0:09.347.678,86.700 us,2 B,,SP,55,Read Transaction,00 08*
0,345,0:09.353.050,79.000 us,2 B,,SP,55,Write Transaction,12 01
0,346,0:09.358.403,1.183.100 ms,46 B,,SP,55,Read Transaction,00 12 FF 99 00 7A FC 31 02 38 5A 02 37 DE B7 FF FF B7 FF FF B7 FF FF B7 FF FF 00 02 58 00 00 00 00 01 00 00 00 00 00 00 00 00 00 00 00 02*
0,347,0:09.359.990,79.000 us,2 B,,SP,55,Write Transaction,00 00
0,348,0:09.365.342,86.600 us,2 B,,SP,55,Read Transaction,00 08*
0,349,0:09.370.708,79.000 us,2 B,,SP,55,Write Transaction,12 01
0,350,0:09.376.059,1.185.600 ms,46 B,,SP,55,Read Transaction,00 13 FF 99 00 7F FC 2D 02 3A 68 02 39 E7 B7 FF FF B7 FF FF B7 FF FF B7 FF FF 00 02 58 00 00 00 00 01 00 00 00 00 00 00 00 00 00 00 00 02*
0,351,0:09.379.930,79.100 us,2 B,,SP,55,Write Transaction,00 00
0,352,0:09.385.283,86.500 us,2 B,,SP,55,Read Transaction,00 08*
0,353,0:09.390.652,79.100 us,2 B,,SP,55,Write Transaction,12 01
0,354,0:09.396.001,1.182.800 ms,46 B,,SP,55,Read Transaction,00 14 FF A2 00 7D FC 29 02 3C 4F 02 3B D5 B7 FF FF B7 FF FF B7 FF FF B7 FF FF 00 02 58 00 00 00 00 01 00 00 00 00 00 00 00 00 00 00 00 02*
0,355,0:09.397.597,79.100 us,2 B,,SP,55,Write Transaction,00 00
0,356,0:09.402.953,86.600 us,2 B,,SP,55,Read Transaction,00 08*
0,357,0:09.408.319,79.100 us,2 B,,SP,55,Write Transaction,12 01
0,358,0:09.413.669,1.186.500 ms,46 B,,SP,55,Read Transaction,00 15 FF A0 00 7F FC 31 02 3F 60 02 3E EE B7 FF FF B7 FF FF B7 FF FF B7 FF FF 00 02 58 00 00 00 00 01 00 00 00 00 00 00 00 00 00 00 00 02*
0,359,0:09.416.414,79.100 us,2 B,,SP,55,Write Transaction,00 00
0,360,0:09.421.764,86.600 us,2 B,,SP,55,Read Transaction,00 08*
0,361,0:09.427.129,79.100 us,2 B,,SP,55,Write Transaction,12 01
0,362,0:09.432.479,1.182.600 ms,46 B,,SP,55,Read Transaction,00 16 FF 9A 00 7C FC 2D 02 42 B9 02 42 3F B7 FF FF B7 FF FF B7 FF FF B7 FF FF 00 02 58 00 00 00 00 01 00 00 00 00 00 00 00 00 00 00 00 02*
0,363,0:09.435.416,79.100 us,2 B,,SP,55,Write Transaction,00 00
0,364,0:09.440.765,86.500 us,2 B,,SP,55,Read Transaction,00 00*
0,365,0:09.448.638,79.000 us,2 B,,SP,55,Write Transaction,00 00
0,366,0:09.453.988,90.400 us,2 B,,SP,55,Read Transaction,00 00*
0,367,0:09.463.537,79.100 us,2 B,,SP,55,Write Transaction,00 00
0,368,0:09.468.888,86.600 us,2 B,,SP,55,Read Transaction,00 08*
0,369,0:09.474.251,79.000 us,2 B,,SP,55,Write Transaction,12 01
0,370,0:09.479.601,1.182.500 ms,46 B,,SP,55,Read Transaction,00 17 FF A0 00 79 FC 31 02 46 9D 02 46 2D B7 FF FF B7 FF FF B7 FF FF B7 FF FF 00 02 58 00 00 00 00 01 00 00 00 00 00 00 00 00 00 00 00 02*
0,371,0:09.483.480,79.000 us,2 B,,SP,55,Write Transaction,00 00
0,372,0:09.488.837,86.600 us,2 B,,SP,55,Read Transaction,00 00*
0,373,0:09.496.489,79.000 us,2 B,,SP,55,Write Transaction,00 00
0,374,0:09.501.838,87.000 us,2 B,,SP,55,Read Transaction,00 08*
0,375,0:09.507.205,79.000 us,2 B,,SP,55,Write Transaction,12 01
0,376,0:09.512.554,1.182.600 ms,46 B,,SP,55,Read Transaction,00 18 FF A1 00 7F FC 30 02 4A 7C 02 4A 07 B7 FF FF B7 FF FF B7 FF FF B7 FF FF 00 02 58 00 00 00 00 01 00 00 00 00 00 00 00 00 00 00 00 02*
0,377,0:09.514.147,79.000 us,2 B,,SP,55,Write Transaction,00 00
0,378,0:09.519.495,86.600 us,2 B,,SP,55,Read Transaction,00 00*
0,379,0:09.528.713,79.000 us,2 B,,SP,55,Write Transaction,00 00
0,380,0:09.534.069,90.500 us,2 B,,SP,55,Read Transaction,00 00*
0,381,0:09.543.612,79.200 us,2 B,,SP,55,Write Transaction,00 00
0,382,0:09.548.971,86.700 us,2 B,,SP,55,Read Transaction,00 08*
0,383,0:09.554.339,79.000 us,2 B,,SP,55,Write Transaction,12 01
0,384,0:09.559.696,1.182.500 ms,46 B,,SP,55,Read Transaction,00 19 FF 9E 00 7B FC 27 02 4D E4 02 4D 5F B7 FF FF B7 FF FF B7 FF FF B7 FF FF 00 02 58 00 00 00 00 01 00 00 00 00 00 00 00 00 00 00 00 02*
0,385,0:09.562.329,79.000 us,2 B,,SP,55,Write Transaction,00 00
0,386,0:09.567.681,86.600 us,2 B,,SP,55,Read Transaction,00 00*
0,387,0:09.576.566,79.000 us,2 B,,SP,55,Write Transaction,00 00
0,388,0:09.581.953,87.000 us,2 B,,SP,55,Read Transaction,00 08*
0,389,0:09.587.324,79.200 us,2 B,,SP,55,Write Transaction,12 01
0,390,0:09.592.678,1.182.600 ms,46 B,,SP,55,Read Transaction,00 1A FF 9B 00 7B FC 32 02 50 A7 02 50 36 B7 FF FF B7 FF FF B7 FF FF B7 FF FF 00 02 58 00 00 00 00 01 00 00 00 00 00 00 00 00 00 00 00 02*
0,391,0:09.594.272,79.100 us,2 B,,SP,55,Write Transaction,00 00
0,392,0:09.599.623,86.600 us,2 B,,SP,55,Read Transaction,00 00*
0,393,0:09.608.545,79.100 us,2 B,,SP,55,Write Transaction,00 00
0,394,0:09.613.894,90.500 us,2 B,,SP,55,Read Transaction,00 00*
0,395,0:09.623.681,79.100 us,2 B,,SP,55,Write Transaction,00 00
0,396,0:09.629.041,86.700 us,2 B,,SP,55,Read Transaction,00 08*
0,397,0:09.634.463,79.100 us,2 B,,SP,55,Write Transaction,12 01
0,398,0:09.639.813,1.182.600 ms,46 B,,SP,55,Read Transaction,00 1B FF A1 00 7B FC 32 02 54 E0 02 54 61 B7 FF FF B7 FF FF B7 FF FF B7 FF FF 00 02 58 00 00 00 00 01 00 00 00 00 00 00 00 00 00 00 00 02*
0,399,0:09.642.446,79.100 us,2 B,,SP,55,Write Transaction,00 00
0,400,0:09.647.799,86.600 us,2 B,,SP,55,Read Transaction,00 00*
0,401,0:09.656.645,79.100 us,2 B,,SP,55,Write Transaction,00 00
0,402,0:09.661.995,87.000 us,2 B,,SP,55,Read Transaction,00 08*
0,403,0:09.667.359,79.100 us,2 B,,SP,55,Write Transaction,12 01
0,404,0:09.672.710,1.182.600 ms,46 B,,SP,55,Read Transaction,00 1C FF A4 00 79 FC 30 02 58 28 02 57 A7 B7 FF FF B7 FF FF B7 FF FF B7 FF FF 00 02 58 00 00 00 00 01 00 00 00 00 00 00 00 00 00 00 00 02*
0,405,0:09.675.527,79.100 us,2 B,,SP,55,Write Transaction,00 00
0,406,0:09.680.880,86.700 us,2 B,,SP,55,Read Transaction,00 00*
0,407,0:09.688.625,79.100 us,2 B,,SP,55,Write Transaction,00 00
0,408,0:09.693.974,91.200 us,2 B,,SP,55,Read Transaction,00 00*
0,409,0:09.703.525,79.000 us,2 B,,SP,55,Write Transaction,00 00
0,410,0:09.708.877,86.600 us,2 B,,SP,55,Read Transaction,00 08*
0,411,0:09.714.242,79.100 us,2 B,,SP,55,Write Transaction,12 01
0,412,0:09.719.590,1.182.100 ms,46 B,,SP,55,Read Transaction,00 1D FF A0 00 7A FC 37 02 5B E8 02 5B 6D B7 FF FF B7 FF FF B7 FF FF B7 FF FF 00 02 58 00 00 00 00 01 00 00 00 00 00 00 00 00 00 00 00 02*
0,413,0:09.723.576,79.000 us,2 B,,SP,55,Write Transaction,00 00
0,414,0:09.728.926,86.600 us,2 B,,SP,55,Read Transaction,00 00*
0,415,0:09.736.712,79.000 us,2 B,,SP,55,Write Transaction,00 00
0,416,0:09.742.063,87.000 us,2 B,,SP,55,Read Transaction,00 08*
0,417,0:09.747.428,79.000 us,2 B,,SP,55,Write Transaction,12 01
0,418,0:09.752.778,1.183.300 ms,46 B,,SP,55,Read Transaction,00 1E FF A1 00 7D FC 2C 02 5F 7B 02 5E FD B7 FF FF B7 FF FF B7 FF FF B7 FF FF 00 02 58 00 00 00 00 01 00 00 00 00 00 00 00 00 00 00 00 02*
0,419,0:09.754.364,79.200 us,2 B,,SP,55,Write Transaction,00 00
0,420,0:09.759.723,86.700 us,2 B,,SP,55,Read Transaction,00 00*
0,421,0:09.768.711,79.000 us,2 B,,SP,55,Write Transaction,00 00
0,422,0:09.774.060,90.500 us,2 B,,SP,55,Read Transaction,00 00*
0,423,0:09.783.602,79.200 us,2 B,,SP,55,Write Transaction,00 00
0,424,0:09.788.950,86.600 us,2 B,,SP,55,Read Transaction,00 08*
0,425,0:09.794.315,79.000 us,2 B,,SP,55,Write Transaction,12 01
0,426,0:09.799.664,1.182.600 ms,46 B,,SP,55,Read Transaction,00 1F FF A5 00 7D FC 2D 02 62 83 02 62 08 B7 FF FF B7 FF FF B7 FF FF B7 FF FF 00 02 58 00 00 00 00 01 00 00 00 00 00 00 00 00 00 00 00 02*
0,427,0:09.802.364,79.000 us,2 B,,SP,55,Write Transaction,00 00
0,428,0:09.807.714,86.600 us,2 B,,SP,55,Read Transaction,00 00*
0,429,0:09.816.546,79.100 us,2 B,,SP,55,Write Transaction,00 00
0,430,0:09.821.899,87.200 us,2 B,,SP,55,Read Transaction,00 08*
0,431,0:09.827.273,79.200 us,2 B,,SP,55,Write Transaction,12 01
0,432,0:09.832.628,1.182.400 ms,46 B,,SP,55,Read Transaction,00 20 FF A7 00 80 FC 2A 02 65 02 02 64 8E B7 FF FF B7 FF FF B7 FF FF B7 FF FF 00 02 58 00 00 00 00 01 00 00 00 00 00 00 00 00 00 00 00 02*
0,433,0:09.835.479,79.100 us,2 B,,SP,55,Write Transaction,00 00
0,434,0:09.840.831,86.600 us,2 B,,SP,55,Read Transaction,00 00*
0,435,0:09.848.541,79.100 us,2 B,,SP,55,Write Transaction,00 00
0,436,0:09.853.891,90.400 us,2 B,,SP,55,Read Transaction,00 00*
0,437,0:09.863.673,79.100 us,2 B,,SP,55,Write Transaction,00 00
0,438,0:09.869.024,86.800 us,2 B,,SP,55,Read Transaction,00 08*
0,439,0:09.874.392,79.100 us,2 B,,SP,55,Write Transaction,12 01
0,440,0:09.879.743,1.182.200 ms,46 B,,SP,55,Read Transaction,00 21 FF 9B 00 80 FC 32 02 68 03 02 67 81 B7 FF FF B7 FF FF B7 FF FF B7 FF FF 00 02 58 00 00 00 00 01 00 00 00 00 00 00 00 00 00 00 00 02*
0,441,0:09.883.623,79.200 us,2 B,,SP,55,Write Transaction,00 00
0,442,0:09.888.975,106.000 us,2 B,,SP,55,Read Transaction,00 00*
0,443,0:09.896.624,79.200 us,2 B,,SP,55,Write Transaction,00 00
0,444,0:09.901.978,87.000 us,2 B,,SP,55,Read Transaction,00 08*
0,445,0:09.907.349,79.200 us,2 B,,SP,55,Write Transaction,12 01
0,446,0:09.912.706,1.184.000 ms,46 B,,SP,55,Read Transaction,00 22 FF A1 00 7A FC 2F 02 6B 57 02 6A DE B7 FF FF B7 FF FF B7 FF FF B7 FF FF 00 02 58 00 00 00 00 01 00 00 00 00 00 00 00 00 00 00 00 02*
0,447,0:09.914.320,79.100 us,2 B,,SP,55,Write Transaction,00 00
0,448,0:09.919.670,86.600 us,2 B,,SP,55,Read Transaction,00 00*
0,449,0:09.928.600,79.000 us,2 B,,SP,55,Write Transaction,00 00
0,450,0:09.933.954,91.500 us,2 B,,SP,55,Read Transaction,00 00*
0,451,0:09.943.490,79.200 us,2 B,,SP,55,Write Transaction,00 00
0,452,0:09.948.845,86.700 us,2 B,,SP,55,Read Transaction,00 08*
0,453,0:09.954.214,79.100 us,2 B,,SP,55,Write Transaction,12 01
0,454,0:09.959.565,1.182.600 ms,46 B,,SP,55,Read Transaction,00 23 FF 9F 00 7E FC 32 02 6D 4B 02 6C D6 B7 FF FF B7 FF FF B7 FF FF B7 FF FF 00 02 58 00 00 00 00 01 00 00 00 00 00 00 00 00 00 00 00 02*
0,455,0:09.961.146,79.100 us,2 B,,SP,55,Write Transaction,00 00
0,456,0:09.966.506,86.600 us,2 B,,SP,55,Read Transaction,00 00*
0,457,0:09.975.497,79.100 us,2 B,,SP,55,Write Transaction,00 00
0,458,0:09.980.847,87.000 us,2 B,,SP,55,Read Transaction,00 08*
0,459,0:09.986.213,79.100 us,2 B,,SP,55,Write Transaction,12 01
0,460,0:09.991.562,1.193.300 ms,46 B,,SP,55,Read Transaction,00 24 FF 9E 00 7A FC 2E 02 66 78 02 65 F2 B7 FF FF B7 FF FF B7 FF FF B7 FF FF 00 02 58 00 00 00 00 01 00 00 00 00 00 00 00 00 00 00 00 02*
0,461,0:09.994.302,79.100 us,2 B,,SP,55,Write Transaction,00 00
0,462,0:09.999.656,86.600 us,2 B,,SP,55,Read Transaction,00 00*
0,463,0:10.008.692,79.100 us,2 B,,SP,55,Write Transaction,00 00
0,464,0:10.014.043,90.400 us,2 B,,SP,55,Read Transaction,00 00*
0,465,0:10.023.574,79.100 us,2 B,,SP,55,Write Transaction,00 00
0,466,0:10.028.924,86.500 us,2 B,,SP,55,Read Transaction,00 08*
0,467,0:10.034.286,79.100 us,2 B,,SP,55,Write Transaction,12 01
0,468,0:10.039.636,1.182.500 ms,46 B,,SP,55,Read Transaction,00 25 FF 9F 00 7E FC 2B 02 5C E3 02 5C 63 B7 FF FF B7 FF FF B7 FF FF B7 FF FF 00 02 58 00 00 00 00 01 00 00 00 00 00 00 00 00 00 00 00 02*
0,469,0:10.041.220,79.100 us,2 B,,SP,55,Write Transaction,00 00
0,470,0:10.046.571,86.700 us,2 B,,SP,55,Read Transaction,00 00*
0,471,0:10.055.546,79.100 us,2 B,,SP,55,Write Transaction,00 00
0,472,0:10.060.895,87.000 us,2 B,,SP,55,Read Transaction,00 08*
0,473,0:10.066.260,79.100 us,2 B,,SP,55,Write Transaction,12 01
0,474,0:10.071.608,1.182.000 ms,46 B,,SP,55,Read Transaction,00 26 FF 9D 00 7B FC 33 02 54 CD 02 54 58 B7 FF FF B7 FF FF B7 FF FF B7 FF FF 00 02 58 00 00 00 00 01 00 00 00 00 00 00 00 00 00 00 00 02*
0,475,0:10.075.530,79.000 us,2 B,,SP,55,Write Transaction,00 00
0,476,0:10.080.881,86.700 us,2 B,,SP,55,Read Transaction,00 00*
0,477,0:10.088.517,79.000 us,2 B,,SP,55,Write Transaction,00 00
0,478,0:10.093.869,91.200 us,2 B,,SP,55,Read Transaction,00 00*
0,479,0:10.103.643,79.100 us,2 B,,SP,55,Write Transaction,00 00
0,480,0:10.108.995,86.600 us,2 B,,SP,55,Read Transaction,00 08*
0,481,0:10.114.359,79.100 us,2 B,,SP,55,Write Transaction,12 01
0,482,0:10.119.710,1.181.700 ms,46 B,,SP,55,Read Transaction,00 27 FF A0 00 7E FC 2E 02 4F 4E 02 4E CF B7 FF FF B7 FF FF B7 FF FF B7 FF FF 00 02 58 00 00 00 00 01 00 00 00 00 00 00 00 00 00 00 00 02*
0,483,0:10.122.540,79.000 us,2 B,,SP,55,Write Transaction,00 00
0,484,0:10.127.891,86.600 us,2 B,,SP,55,Read Transaction,00 00*
0,485,0:10.135.632,79.100 us,2 B,,SP,55,Write Transaction,00 00
0,486,0:10.140.983,87.100 us,2 B,,SP,55,Read Transaction,00 08*
0,487,0:10.146.348,79.100 us,2 B,,SP,55,Write Transaction,12 01
0,488,0:10.151.699,1.182.600 ms,46 B,,SP,55,Read Transaction,00 28 FF 9E 00 7E FC 2E 02 4B E4 02 4B 6B B7 FF FF B7 FF FF B7 FF FF B7 FF FF 00 02 58 00 00 00 00 01 00 00 00 00 00 00 00 00 00 00 00 02*
0,489,0:10.154.332,79.000 us,2 B,,SP,55,Write Transaction,00 00
0,490,0:10.159.699,86.600 us,2 B,,SP,55,Read Transaction,00 00*
0,491,0:10.168.580,79.000 us,2 B,,SP,55,Write Transaction,00 00
0,492,0:10.173.929,90.500 us,2 B,,SP,55,Read Transaction,00 00*
0,493,0:10.183.478,79.000 us,2 B,,SP,55,Write Transaction,00 00
0,494,0:10.188.828,86.700 us,2 B,,SP,55,Read Transaction,00 08*
0,495,0:10.194.201,79.200 us,2 B,,SP,55,Write Transaction,12 01
0,496,0:10.199.559,1.182.500 ms,46 B,,SP,55,Read Transaction,00 29 FF A0 00 7F FC 33 02 49 FB 02 49 7D B7 FF FF B7 FF FF B7 FF FF B7 FF FF 00 02 58 00 00 00 00 01 00 00 00 00 00 00 00 00 00 00 00 02*
0,497,0:10.201.154,79.000 us,2 B,,SP,55,Write Transaction,00 00
0,498,0:10.206.505,86.600 us,2 B,,SP,55,Read Transaction,00 00*
0,499,0:10.215.458,79.000 us,2 B,,SP,55,Write Transaction,00 00
0,500,0:10.220.809,87.100 us,2 B,,SP,55,Read Transaction,00 08*
0,501,0:10.226.171,79.100 us,2 B,,SP,55,Write Transaction,12 01
0,502,0:10.231.522,1.182.600 ms,46 B,,SP,55,Read Transaction,00 2A FF 9F 00 7C FC 33 02 4A 6F 02 49 F4 B7 FF FF B7 FF FF B7 FF FF B7 FF FF 00 02 58 00 00 00 00 01 00 00 00 00 00 00 00 00 00 00 00 02*
0,503,0:10.235.391,79.200 us,2 B,,SP,55,Write Transaction,00 00
0,504,0:10.240.742,86.600 us,2 B,,SP,55,Read Transaction,00 00*
0,505,0:10.248.658,79.000 us,2 B,,SP,55,Write Transaction,00 00
0,506,0:10.254.009,90.400 us,2 B,,SP,55,Read Transaction,00 00*
0,507,0:10.263.561,79.100 us,2 B,,SP,55,Write Transaction,00 00
0,508,0:10.268.912,86.600 us,2 B,,SP,55,Read Transaction,00 08*
0,509,0:10.274.278,79.100 us,2 B,,SP,55,Write Transaction,12 01
0,510,0:10.279.628,1.182.600 ms,46 B,,SP,55,Read Transaction,00 2B FF 9F 00 7E FC 32 02 4B A2 02 4B 2F B7 FF FF B7 FF FF B7 FF FF B7 FF FF 00 02 58 00 00 00 00 01 00 00 00 00 00 00 00 00 00 00 00 02*
0,511,0:10.282.459,79.100 us,2 B,,SP,55,Write Transaction,00 00
0,512,0:10.287.809,86.600 us,2 B,,SP,55,Read Transaction,00 00*
0,513,0:10.295.527,79.100 us,2 B,,SP,55,Write Transaction,00 00
0,514,0:10.300.877,87.000 us,2 B,,SP,55,Read Transaction,00 08*
0,515,0:10.306.241,79.100 us,2 B,,SP,55,Write Transaction,12 01
0,516,0:10.311.592,1.184.400 ms,46 B,,SP,55,Read Transaction,00 2C FF 9E 00 7C FC 2F 02 4C B3 02 4C 3D B7 FF FF B7 FF FF B7 FF FF B7 FF FF 00 02 58 00 00 00 00 01 00 00 00 00 00 00 00 00 00 00 00 02*
0,517,0:10.314.230,79.200 us,2 B,,SP,55,Write Transaction,00 00
0,518,0:10.319.585,86.600 us,2 B,,SP,55,Read Transaction,00 00*
0,519,0:10.328.498,79.000 us,2 B,,SP,55,Write Transaction,00 00
0,520,0:10.333.847,90.400 us,2 B,,SP,55,Read Transaction,00 00*
0,521,0:10.343.627,79.200 us,2 B,,SP,55,Write Transaction,00 00
0,522,0:10.348.977,86.600 us,2 B,,SP,55,Read Transaction,00 08*
0,523,0:10.354.342,79.000 us,2 B,,SP,55,Write Transaction,12 01
0,524,0:10.359.697,1.182.700 ms,46 B,,SP,55,Read Transaction,00 2D FF 9C 00 80 FC 2F 02 4D 0A 02 4C 8D B7 FF FF B7 FF FF B7 FF FF B7 FF FF 00 02 58 00 00 00 00 01 00 00 00 00 00 00 00 00 00 00 00 02*
0,525,0:10.361.336,79.100 us,2 B,,SP,55,Write Transaction,00 00
0,526,0:10.366.684,86.600 us,2 B,,SP,55,Read Transaction,00 00*
0,527,0:10.375.619,79.100 us,2 B,,SP,55,Write Transaction,00 00
0,528,0:10.380.970,87.000 us,2 B,,SP,55,Read Transaction,00 08*
0,529,0:10.386.335,79.000 us,2 B,,SP,55,Write Transaction,12 01
0,530,0:10.391.684,1.182.000 ms,46 B,,SP,55,Read Transaction,00 2E FF 9F 00 7A FC 2A 02 4D F6 02 4D 80 B7 FF FF B7 FF FF B7 FF FF B7 FF FF 00 02 58 00 00 00 00 01 00 00 00 00 00 00 00 00 00 00 00 02*
0,531,0:10.394.327,79.100 us,2 B,,SP,55,Write Transaction,00 00
0,532,0:10.399.677,86.500 us,2 B,,SP,55,Read Transaction,00 00*
0,533,0:10.408.562,79.100 us,2 B,,SP,55,Write Transaction,00 00
0,534,0:10.413.913,90.400 us,2 B,,SP,55,Read Transaction,00 00*
0,535,0:10.423.471,79.100 us,2 B,,SP,55,Write Transaction,00 00
0,536,0:10.428.821,86.600 us,2 B,,SP,55,Read Transaction,00 08*
0,537,0:10.434.186,79.100 us,2 B,,SP,55,Write Transaction,12 01
0,538,0:10.439.568,1.184.100 ms,46 B,,SP,55,Read Transaction,00 2F FF 9E 00 79 FC 30 02 4F F0 02 4F 6F B7 FF FF B7 FF FF B7 FF FF B7 FF FF 00 02 58 00 00 00 00 01 00 00 00 00 00 00 00 00 00 00 00 02*
0,539,0:10.441.153,79.100 us,2 B,,SP,55,Write Transaction,00 00
0,540,0:10.446.505,86.500 us,2 B,,SP,55,Read Transaction,00 00*
0,541,0:10.455.678,79.000 us,2 B,,SP,55,Write Transaction,00 00
0,542,0:10.461.028,87.100 us,2 B,,SP,55,Read Transaction,00 08*
0,543,0:10.466.394,79.000 us,2 B,,SP,55,Write Transaction,12 01
0,544,0:10.471.742,1.182.600 ms,46 B,,SP,55,Read Transaction,00 30 FF A1 00 80 FC 31 02 51 FC 02 51 7A B7 FF FF B7 FF FF B7 FF FF B7 FF FF 00 02 58 00 00 00 00 01 00 00 00 00 00 00 00 00 00 00 00 02*
0,545,0:10.475.640,79.200 us,2 B,,SP,55,Write Transaction,00 00
0,546,0:10.480.989,86.500 us,2 B,,SP,55,Read Transaction,00 00*
0,547,0:10.488.647,79.000 us,2 B,,SP,55,Write Transaction,00 00
0,548,0:10.493.998,91.100 us,2 B,,SP,55,Read Transaction,00 00*
0,549,0:10.503.531,79.100 us,2 B,,SP,55,Write Transaction,00 00
0,550,0:10.508.882,86.700 us,2 B,,SP,55,Read Transaction,00 08*
0,551,0:10.514.249,79.100 us,2 B,,SP,55,Write Transaction,12 01
0,552,0:10.519.605,1.184.000 ms,46 B,,SP,55,Read Transaction,00 31 FF A1 00 7B FC 2F 02 53 AD 02 53 29 B7 FF FF B7 FF FF B7 FF FF B7 FF FF 00 02 58 00 00 00 00 01 00 00 00 00 00 00 00 00 00 00 00 02*
0,553,0:10.522.445,79.100 us,2 B,,SP,55,Write Transaction,00 00
0,554,0:10.527.796,86.600 us,2 B,,SP,55,Read Transaction,00 00*
0,555,0:10.535.571,79.100 us,2 B,,SP,55,Write Transaction,00 00
0,556,0:10.540.921,87.100 us,2 B,,SP,55,Read Transaction,00 08*
0,557,0:10.546.287,79.100 us,2 B,,SP,55,Write Transaction,12 01
0,558,0:10.551.635,1.194.800 ms,46 B,,SP,55,Read Transaction,00 32 FF 9F 00 7A FC 30 02 56 27 02 55 9F B7 FF FF B7 FF FF B7 FF FF B7 FF FF 00 02 58 00 00 00 00 01 00 00 00 00 00 00 00 00 00 00 00 02*
0,559,0:10.554.360,79.100 us,2 B,,SP,55,Write Transaction,00 00
0,560,0:10.559.711,86.700 us,2 B,,SP,55,Read Transaction,00 00*
0,561,0:10.568.480,79.000 us,2 B,,SP,55,Write Transaction,00 00
0,562,0:10.573.837,90.500 us,2 B,,SP,55,Read Transaction,00 00*
0,563,0:10.583.619,79.000 us,2 B,,SP,55,Write Transaction,00 00
0,564,0:10.588.972,86.700 us,2 B,,SP,55,Read Transaction,00 08*
0,565,0:10.594.343,79.200 us,2 B,,SP,55,Write Transaction,12 01
0,566,0:10.599.701,1.184.300 ms,46 B,,SP,55,Read Transaction,00 33 FF A6 00 7C FC 34 02 58 A2 02 58 24 B7 FF FF B7 FF FF B7 FF FF B7 FF FF 00 02 58 00 00 00 00 01 00 00 00 00 00 00 00 00 00 00 00 02*
0,567,0:10.601.297,79.200 us,2 B,,SP,55,Write Transaction,00 00
0,568,0:10.606.655,86.600 us,2 B,,SP,55,Read Transaction,00 00*
0,569,0:10.615.584,79.200 us,2 B,,SP,55,Write Transaction,00 00
0,570,0:10.620.933,87.100 us,2 B,,SP,55,Read Transaction,00 08*
0,571,0:10.626.299,79.100 us,2 B,,SP,55,Write Transaction,12 01
0,572,0:10.631.651,1.182.500 ms,46 B,,SP,55,Read Transaction,00 34 FF A0 00 7F FC 2C 02 5B 19 02 5A 98 B7 FF FF B7 FF FF B7 FF FF B7 FF FF 00 02 58 00 00 00 00 01 00 00 00 00 00 00 00 00 00 00 00 02*
0,573,0:10.635.572,79.000 us,2 B,,SP,55,Write Transaction,00 00
0,574,0:10.640.928,86.600 us,2 B,,SP,55,Read Transaction,00 00*
0,575,0:10.648.553,79.100 us,2 B,,SP,55,Write Transaction,00 00
0,576,0:10.653.908,90.300 us,2 B,,SP,55,Read Transaction,00 00*
0,577,0:10.663.441,79.100 us,2 B,,SP,55,Write Transaction,00 00
0,578,0:10.668.793,86.600 us,2 B,,SP,55,Read Transaction,00 08*
0,579,0:10.674.158,79.100 us,2 B,,SP,55,Write Transaction,12 01
0,580,0:10.679.508,1.182.700 ms,46 B,,SP,55,Read Transaction,00 35 FF A1 00 7E FC 2F 02 5D 60 02 5C E3 B7 FF FF B7 FF FF B7 FF FF B7 FF FF 00 02 58 00 00 00 00 01 00 00 00 00 00 00 00 00 00 00 00 02*
0,581,0:10.682.337,79.100 us,2 B,,SP,55,Write Transaction,00 00
0,582,0:10.687.688,86.600 us,2 B,,SP,55,Read Transaction,00 00*
0,583,0:10.695.680,79.000 us,2 B,,SP,55,Write Transaction,00 00
0,584,0:10.701.029,87.100 us,2 B,,SP,55,Read Transaction,00 08*
0,585,0:10.706.396,79.100 us,2 B,,SP,55,Write Transaction,12 01
0,586,0:10.711.747,1.182.600 ms,46 B,,SP,55,Read Transaction,00 36 FF 9C 00 7A FC 2F 02 5F 11 02 5E 91 B7 FF FF B7 FF FF B7 FF FF B7 FF FF 00 02 58 00 00 00 00 01 00 00 00 00 00 00 00 00 00 00 00 02*
0,587,0:10.714.380,79.100 us,2 B,,SP,55,Write Transaction,00 00
0,588,0:10.719.740,86.600 us,2 B,,SP,55,Read Transaction,00 00*
0,589,0:10.728.636,79.000 us,2 B,,SP,55,Write Transaction,00 00
0,590,0:10.733.984,89.200 us,2 B,,SP,55,Read Transaction,00 00*
0,591,0:10.743.531,79.100 us,2 B,,SP,55,Write Transaction,00 00
0,592,0:10.748.881,86.600 us,2 B,,SP,55,Read Transaction,00 08*
0,593,0:10.754.245,79.100 us,2 B,,SP,55,Write Transaction,12 01
0,594,0:10.759.596,1.184.200 ms,46 B,,SP,55,Read Transaction,00 37 FF A3 00 7A FC 2C 02 61 5F 02 60 DD B7 FF FF B7 FF FF B7 FF FF B7 FF FF 00 02 58 00 00 00 00 00 00 00 00 00 00 00 00 00 00 00 00 02*
0,595,0:10.761.182,79.200 us,2 B,,SP,55,Write Transaction,00 00
0,596,0:10.766.536,86.600 us,2 B,,SP,55,Read Transaction,00 00*
0,597,0:10.775.496,79.100 us,2 B,,SP,55,Write Transaction,00 00
0,598,0:10.780.863,87.200 us,2 B,,SP,55,Read Transaction,00 08*
0,599,0:10.786.227,79.100 us,2 B,,SP,55,Write Transaction,12 01
0,600,0:10.791.577,1.182.500 ms,46 B,,SP,55,Read Transaction,00 38 FF 9F 00 7A FC 2E 02 64 03 02 63 87 B7 FF FF B7 FF FF B7 FF FF B7 FF FF 00 02 58 00 00 00 00 00 00 00 00 00 00 00 00 00 00 00 00 02*
0,601,0:10.794.221,79.100 us,2 B,,SP,55,Write Transaction,00 00
0,602,0:10.799.578,86.600 us,2 B,,SP,55,Read Transaction,00 00*
0,603,0:10.808.451,79.100 us,2 B,,SP,55,Write Transaction,00 00
0,604,0:10.813.799,89.700 us,2 B,,SP,55,Read Transaction,00 00*
0,605,0:10.823.594,79.000 us,2 B,,SP,55,Write Transaction,00 00
0,606,0:10.828.944,86.500 us,2 B,,SP,55,Read Transaction,00 08*
0,607,0:10.834.311,79.100 us,2 B,,SP,55,Write Transaction,12 01
0,608,0:10.839.660,1.181.900 ms,46 B,,SP,55,Read Transaction,00 39 FF A2 00 7E FC 2C 02 66 25 02 65 AD B7 FF FF B7 FF FF B7 FF FF B7 FF FF 00 02 58 00 00 00 00 00 00 00 00 00 00 00 00 00 00 00 00 02*
0,609,0:10.841.242,79.100 us,2 B,,SP,55,Write Transaction,00 00
0,610,0:10.846.593,86.600 us,2 B,,SP,55,Read Transaction,00 00*
0,611,0:10.855.573,79.200 us,2 B,,SP,55,Write Transaction,00 00
0,612,0:10.860.930,87.100 us,2 B,,SP,55,Read Transaction,00 08*
0,613,0:10.866.294,79.100 us,2 B,,SP,55,Write Transaction,12 01
0,614,0:10.871.647,1.184.400 ms,46 B,,SP,55,Read Transaction,00 3A FF A0 00 82 FC 30 02 67 DF 02 67 6D B7 FF FF B7 FF FF B7 FF FF B7 FF FF 00 02 58 00 00 00 00 00 00 00 00 00 00 00 00 00 00 00 00 02*
0,615,0:10.875.517,79.100 us,2 B,,SP,55,Write Transaction,00 00
0,616,0:10.880.868,86.600 us,2 B,,SP,55,Read Transaction,00 00*
0,617,0:10.888.533,79.100 us,2 B,,SP,55,Write Transaction,00 00
0,618,0:10.893.882,90.800 us,2 B,,SP,55,Read Transaction,00 00*
0,619,0:10.903.670,79.100 us,2 B,,SP,55,Write Transaction,00 00
0,620,0:10.909.019,86.600 us,2 B,,SP,55,Read Transaction,00 08*
0,621,0:10.914.386,79.100 us,2 B,,SP,55,Write Transaction,12 01
0,622,0:10.919.736,1.182.800 ms,46 B,,SP,55,Read Transaction,00 3B FF A3 00 7C FC 2C 02 6A 48 02 69 D1 B7 FF FF B7 FF FF B7 FF FF B7 FF FF 00 02 58 00 00 00 00 00 00 00 00 00 00 00 00 00 00 00 00 02*
0,623,0:10.922.621,79.100 us,2 B,,SP,55,Write Transaction,00 00
0,624,0:10.927.975,87.800 us,2 B,,SP,55,Read Transaction,00 00*
0,625,0:10.935.654,79.000 us,2 B,,SP,55,Write Transaction,00 00
0,626,0:10.941.005,87.100 us,2 B,,SP,55,Read Transaction,00 08*
0,627,0:10.946.370,79.000 us,2 B,,SP,55,Write Transaction,12 01
0,628,0:10.951.721,1.181.900 ms,46 B,,SP,55,Read Transaction,00 3C FF A1 00 7D FC 31 02 6A 57 02 69 D7 B7 FF FF B7 FF FF B7 FF FF B7 FF FF 00 02 58 00 00 00 00 00 00 00 00 00 00 00 00 00 00 00 00 02*
0,629,0:10.954.355,79.100 us,2 B,,SP,55,Write Transaction,00 00
0,630,0:10.959.707,86.600 us,2 B,,SP,55,Read Transaction,00 00*
0,631,0:10.968.603,79.100 us,2 B,,SP,55,Write Transaction,00 00
0,632,0:10.973.954,89.200 us,2 B,,SP,55,Read Transaction,00 00*
0,633,0:10.983.490,79.100 us,2 B,,SP,55,Write Transaction,00 00
0,634,0:10.988.838,86.700 us,2 B,,SP,55,Read Transaction,00 08*
0,635,0:10.994.203,79.000 us,2 B,,SP,55,Write Transaction,12 01
0,636,0:10.999.565,1.184.400 ms,46 B,,SP,55,Read Transaction,00 3D FF A4 00 80 FC 29 02 62 6C 02 61 F1 15 D0 C9 15 CF CD B7 FF FF B7 FF FF 00 02 58 00 00 00 00 00 00 00 00 00 00 00 00 00 00 00 00 02*
0,637,0:11.001.163,79.100 us,2 B,,SP,55,Write Transaction,00 00
0,638,0:11.006.511,86.700 us,2 B,,SP,55,Read Transaction,00 00*
0,639,0:11.015.492,79.100 us,2 B,,SP,55,Write Transaction,00 00
0,640,0:11.020.846,87.000 us,2 B,,SP,55,Read Transaction,00 08*
0,641,0:11.026.212,79.100 us,2 B,,SP,55,Write Transaction,12 01
0,642,0:11.031.561,1.182.600 ms,46 B,,SP,55,Read Transaction,00 3E FF 9F 00 78 FC 33 02 57 F3 02 57 6F 15 CD AD 15 CC AD B7 FF FF B7 FF FF 00 02 58 00 00 00 00 00 00 00 00 00 00 00 00 00 00 00 00 02*
0,643,0:11.035.438,79.000 us,2 B,,SP,55,Write Transaction,00 00
0,644,0:11.040.793,86.700 us,2 B,,SP,55,Read Transaction,00 00*
0,645,0:11.048.433,79.100 us,2 B,,SP,55,Write Transaction,00 00
0,646,0:11.053.791,89.300 us,2 B,,SP,55,Read Transaction,00 00*
0,647,0:11.063.569,79.100 us,2 B,,SP,55,Write Transaction,00 00
0,648,0:11.068.922,86.600 us,2 B,,SP,55,Read Transaction,00 08*
0,649,0:11.074.291,79.100 us,2 B,,SP,55,Write Transaction,12 01
0,650,0:11.079.640,1.183.300 ms,46 B,,SP,55,Read Transaction,00 3F FF 9B 00 7F FC 30 02 50 65 02 4F EC 15 CB CC 15 CA CF B7 FF FF B7 FF FF 00 02 58 00 00 00 00 00 00 00 00 00 00 00 00 00 00 00 00 02*
0,651,0:11.082.474,79.200 us,2 B,,SP,55,Write Transaction,00 00
0,652,0:11.087.826,87.300 us,2 B,,SP,55,Read Transaction,00 00*
0,653,0:11.095.551,79.100 us,2 B,,SP,55,Write Transaction,00 00
0,654,0:11.100.903,87.100 us,2 B,,SP,55,Read Transaction,00 08*
0,655,0:11.106.270,79.000 us,2 B,,SP,55,Write Transaction,12 01
0,656,0:11.111.619,1.182.600 ms,46 B,,SP,55,Read Transaction,00 40 FF 9F 00 7C FC 2D 02 4D 0E 02 4C 93 15 CB 7B 15 CA 7F B7 FF FF B7 FF FF 00 02 58 00 00 00 00 00 00 00 00 00 00 00 00 00 00 00 00 02*
0,657,0:11.114.359,79.200 us,2 B,,SP,55,Write Transaction,00 00
0,658,0:11.119.717,86.700 us,2 B,,SP,55,Read Transaction,00 00*
0,659,0:11.128.512,79.100 us,2 B,,SP,55,Write Transaction,00 00
0,660,0:11.133.864,89.200 us,2 B,,SP,55,Read Transaction,00 00*
0,661,0:11.143.641,79.100 us,2 B,,SP,55,Write Transaction,00 00
0,662,0:11.148.994,86.700 us,2 B,,SP,55,Read Transaction,00 08*
0,663,0:11.154.358,79.000 us,2 B,,SP,55,Write Transaction,12 01
0,664,0:11.159.710,1.182.600 ms,46 B,,SP,55,Read Transaction,00 41 FF 9F 00 7C FC 38 02 4A 90 02 4A 18 15 CB 0D 15 CA 11 B7 FF FF B7 FF FF 00 02 58 00 00 00 00 00 00 00 00 00 00 00 00 00 00 00 00 02*
0,665,0:11.161.293,79.100 us,2 B,,SP,55,Write Transaction,00 00
0,666,0:11.166.644,86.500 us,2 B,,SP,55,Read Transaction,00 00*
0,667,0:11.175.629,79.100 us,2 B,,SP,55,Write Transaction,00 00
0,668,0:11.180.980,87.100 us,2 B,,SP,55,Read Transaction,00 08*
0,669,0:11.186.346,79.100 us,2 B,,SP,55,Write Transaction,12 01
0,670,0:11.191.695,1.182.500 ms,46 B,,SP,55,Read Transaction,00 42 FF 9C 00 7F FC 2C 02 49 F2 02 49 7A 15 CB 89 15 CA 8D B7 FF FF B7 FF FF 00 02 58 00 00 00 00 00 00 00 00 00 00 00 00 00 00 00 00 02*
0,671,0:11.194.393,79.000 us,2 B,,SP,55,Write Transaction,00 00
0,672,0:11.199.740,86.600 us,2 B,,SP,55,Read Transaction,00 00*
0,673,0:11.208.590,79.100 us,2 B,,SP,55,Write Transaction,00 00
0,674,0:11.213.942,87.600 us,2 B,,SP,55,Read Transaction,00 00*
0,675,0:11.223.487,79.200 us,2 B,,SP,55,Write Transaction,00 00
0,676,0:11.228.845,86.600 us,2 B,,SP,55,Read Transaction,00 08*
0,677,0:11.234.210,79.100 us,2 B,,SP,55,Write Transaction,12 01
0,678,0:11.239.559,1.182.600 ms,46 B,,SP,55,Read Transaction,00 43 FF 9F 00 7A FC 2E 02 4B AA 02 4B 32 15 CD 00 15 CC 0A B7 FF FF B7 FF FF 00 02 58 00 00 00 00 00 00 00 00 00 00 00 00 00 00 00 00 02*
0,679,0:11.241.144,79.100 us,2 B,,SP,55,Write Transaction,00 00
0,680,0:11.246.497,86.500 us,2 B,,SP,55,Read Transaction,00 00*
0,681,0:11.255.452,79.100 us,2 B,,SP,55,Write Transaction,00 00
0,682,0:11.260.800,87.000 us,2 B,,SP,55,Read Transaction,00 08*
0,683,0:11.266.166,79.100 us,2 B,,SP,55,Write Transaction,12 01
0,684,0:11.271.520,1.182.600 ms,46 B,,SP,55,Read Transaction,00 44 FF 9E 00 7E FC 36 02 4D 05 02 4C 93 15 CD E7 15 CC F1 B7 FF FF B7 FF FF 00 02 58 00 00 00 00 00 00 00 00 00 00 00 00 00 00 00 00 02*
0,685,0:11.274.336,79.100 us,2 B,,SP,55,Write Transaction,00 00
0,686,0:11.279.688,86.600 us,2 B,,SP,55,Read Transaction,00 00*
0,687,0:11.287.437,79.100 us,2 B,,SP,55,Write Transaction,00 00
0,688,0:11.292.789,91.100 us,2 B,,SP,55,Read Transaction,00 00*
0,689,0:11.302.587,79.000 us,2 B,,SP,55,Write Transaction,00 00
0,690,0:11.307.937,86.700 us,2 B,,SP,55,Read Transaction,00 08*
0,691,0:11.313.301,79.000 us,2 B,,SP,55,Write Transaction,12 01
0,692,0:11.318.651,1.182.500 ms,46 B,,SP,55,Read Transaction,00 45 FF A0 00 7B FC 31 02 4D 6B 02 4C F3 15 CE 25 15 CD 28 B7 FF FF B7 FF FF 00 02 58 00 00 00 00 00 00 00 00 00 00 00 00 00 00 00 00 02*
0,693,0:11.322.530,79.100 us,2 B,,SP,55,Write Transaction,00 00
0,694,0:11.327.882,89.000 us,2 B,,SP,55,Read Transaction,00 00*
0,695,0:11.335.548,79.100 us,2 B,,SP,55,Write Transaction,00 00
0,696,0:11.340.938,87.000 us,2 B,,SP,55,Read Transaction,00 08*
0,697,0:11.346.302,79.100 us,2 B,,SP,55,Write Transaction,12 01
0,698,0:11.351.652,1.182.500 ms,46 B,,SP,55,Read Transaction,00 46 FF A4 00 7C FC 32 02 4D E0 02 4D 5E 15 CE 5D 15 CD 5C B7 FF FF B7 FF FF 00 02 58 00 00 00 00 00 00 00 00 00 00 00 00 00 00 00 00 02*
0,699,0:11.353.235,79.100 us,2 B,,SP,55,Write Transaction,00 00
0,700,0:11.358.584,86.500 us,2 B,,SP,55,Read Transaction,00 00*
0,701,0:11.367.512,79.000 us,2 B,,SP,55,Write Transaction,00 00
0,702,0:11.372.861,90.300 us,2 B,,SP,55,Read Transaction,00 00*
0,703,0:11.382.655,79.100 us,2 B,,SP,55,Write Transaction,00 00
0,704,0:11.388.007,86.600 us,2 B,,SP,55,Read Transaction,00 08*
0,705,0:11.393.374,79.000 us,2 B,,SP,55,Write Transaction,12 01
0,706,0:11.398.725,1.183.400 ms,46 B,,SP,55,Read Transaction,00 47 FF 9D 00 7F FC 35 02 4F 9B 02 4F 16 15 CF D3 15 CE D8 B7 FF FF B7 FF FF 00 02 58 00 00 00 00 00 00 00 00 00 00 00 00 00 00 00 00 02*
0,707,0:11.401.371,79.200 us,2 B,,SP,55,Write Transaction,00 00
0,708,0:11.406.722,86.900 us,2 B,,SP,55,Read Transaction,00 00*
0,709,0:11.415.624,79.000 us,2 B,,SP,55,Write Transaction,00 00
0,710,0:11.420.976,87.100 us,2 B,,SP,55,Read Transaction,00 08*
0,711,0:11.426.343,79.100 us,2 B,,SP,55,Write Transaction,12 01
0,712,0:11.431.693,1.182.600 ms,46 B,,SP,55,Read Transaction,00 48 FF A2 00 7F FC 2F 02 52 29 02 51 AF 15 D1 7D 15 D0 82 B7 FF FF B7 FF FF 00 02 58 00 00 00 00 00 00 00 00 00 00 00 00 00 00 00 00 02*
0,713,0:11.434.511,79.000 us,2 B,,SP,55,Write Transaction,00 00
0,714,0:11.439.862,86.600 us,2 B,,SP,55,Read Transaction,00 00*
0,715,0:11.447.602,79.200 us,2 B,,SP,55,Write Transaction,00 00
0,716,0:11.452.952,89.200 us,2 B,,SP,55,Read Transaction,00 00*
0,717,0:11.462.477,79.100 us,2 B,,SP,55,Write Transaction,00 00
0,718,0:11.467.829,86.600 us,2 B,,SP,55,Read Transaction,00 08*
0,719,0:11.473.197,79.200 us,2 B,,SP,55,Write Transaction,12 01
0,720,0:11.478.547,1.182.600 ms,46 B,,SP,55,Read Transaction,00 49 FF 9D 00 7F FC 37 02 54 D4 02 54 5A 15 D2 B5 15 D1 B6 26 5D 98 26 5C 7C 00 02 58 00 00 00 00 00 00 00 00 00 00 00 00 00 00 00 00 02*
0,721,0:11.482.533,79.000 us,2 B,,SP,55,Write Transaction,00 00
0,722,0:11.487.883,89.300 us,2 B,,SP,55,Read Transaction,00 00*
0,723,0:11.495.450,79.000 us,2 B,,SP,55,Write Transaction,00 00
0,724,0:11.500.802,87.100 us,2 B,,SP,55,Read Transaction,00 08*
0,725,0:11.506.168,79.000 us,2 B,,SP,55,Write Transaction,12 01
0,726,0:11.511.519,1.182.600 ms,46 B,,SP,55,Read Transaction,00 4A FF A1 00 7A FC 29 02 57 ED 02 57 75 15 D4 42 15 D3 43 26 5E B7 26 5D 97 00 02 58 00 00 00 00 00 00 00 00 00 00 00 00 00 00 00 00 02*
0,727,0:11.513.103,79.100 us,2 B,,SP,55,Write Transaction,00 00
0,728,0:11.518.456,86.700 us,2 B,,SP,55,Read Transaction,00 00*
0,729,0:11.527.422,79.100 us,2 B,,SP,55,Write Transaction,00 00
0,730,0:11.532.771,89.200 us,2 B,,SP,55,Read Transaction,00 00*
0,731,0:11.542.558,79.000 us,2 B,,SP,55,Write Transaction,00 00
0,732,0:11.547.907,86.600 us,2 B,,SP,55,Read Transaction,00 08*
0,733,0:11.553.273,79.100 us,2 B,,SP,55,Write Transaction,12 01
0,734,0:11.558.623,1.182.600 ms,46 B,,SP,55,Read Transaction,00 4B FF A0 00 7A FC 2E 02 5A FE 02 5A 80 15 D5 EB 15 D4 EC 26 5F BC 26 5E 9F 00 02 58 00 00 00 00 00 00 00 00 00 00 00 00 00 00 00 00 02*
0,735,0:11.561.311,79.000 us,2 B,,SP,55,Write Transaction,00 00
0,736,0:11.566.660,87.200 us,2 B,,SP,55,Read Transaction,00 00*
0,737,0:11.575.528,79.000 us,2 B,,SP,55,Write Transaction,00 00
0,738,0:11.580.881,87.000 us,2 B,,SP,55,Read Transaction,00 08*
0,739,0:11.586.248,79.100 us,2 B,,SP,55,Write Transaction,12 01
0,740,0:11.591.597,1.182.800 ms,46 B,,SP,55,Read Transaction,00 4C FF 99 00 7F FC 32 02 5D 8B 02 5D 10 15 D6 BA 15 D5 B5 26 60 6F 26 5F 52 00 02 58 00 00 00 00 00 00 00 00 00 00 00 00 00 00 00 00 02*
0,741,0:11.593.191,79.000 us,2 B,,SP,55,Write Transaction,00 00
0,742,0:11.598.543,86.600 us,2 B,,SP,55,Read Transaction,00 00*
0,743,0:11.607.509,79.100 us,2 B,,SP,55,Write Transaction,00 00
0,744,0:11.612.861,89.100 us,2 B,,SP,55,Read Transaction,00 00*
0,745,0:11.622.637,79.100 us,2 B,,SP,55,Write Transaction,00 00
0,746,0:11.627.988,86.600 us,2 B,,SP,55,Read Transaction,00 08*
0,747,0:11.633.353,79.100 us,2 B,,SP,55,Write Transaction,12 01
0,748,0:11.638.704,1.182.600 ms,46 B,,SP,55,Read Transaction,00 4D FF 9F 00 7E FC 31 02 5F E2 02 5F 69 15 D7 C6 15 D6 C3 26 61 4C 26 60 2C 00 02 58 00 00 00 00 00 00 00 00 00 00 00 00 00 00 00 00 02*
0,749,0:11.641.337,79.100 us,2 B,,SP,55,Write Transaction,00 00
0,750,0:11.646.686,87.200 us,2 B,,SP,55,Read Transaction,00 00*
0,751,0:11.655.587,79.100 us,2 B,,SP,55,Write Transaction,00 00
0,752,0:11.660.940,87.000 us,2 B,,SP,55,Read Transaction,00 08*
0,753,0:11.666.306,79.100 us,2 B,,SP,55,Write Transaction,12 01
0,754,0:11.671.654,1.182.600 ms,46 B,,SP,55,Read Transaction,00 4E FF 9F 00 79 FC 30 02 62 91 02 62 0D 15 D8 FE 15 D7 FF 26 62 38 26 61 21 00 02 58 00 00 00 00 00 00 00 00 00 00 00 00 00 00 00 00 02*
0,755,0:11.674.501,79.100 us,2 B,,SP,55,Write Transaction,00 00
0,756,0:11.679.852,86.700 us,2 B,,SP,55,Read Transaction,00 00*
0,757,0:11.687.588,79.200 us,2 B,,SP,55,Write Transaction,00 00
0,758,0:11.692.946,90.800 us,2 B,,SP,55,Read Transaction,00 00*
0,759,0:11.702.471,79.100 us,2 B,,SP,55,Write Transaction,00 00
0,760,0:11.707.821,86.500 us,2 B,,SP,55,Read Transaction,00 08*
0,761,0:11.713.185,79.100 us,2 B,,SP,55,Write Transaction,12 01
0,762,0:11.718.538,1.182.600 ms,46 B,,SP,55,Read Transaction,00 4F FF A1 00 80 FC 33 02 65 19 02 64 90 15 DA 36 15 D9 3A 26 63 27 26 62 15 00 02 58 00 00 00 00 00 00 00 00 00 00 00 00 00 00 00 00 02*
0,763,0:11.722.416,79.100 us,2 B,,SP,55,Write Transaction,00 00
0,764,0:11.727.767,89.300 us,2 B,,SP,55,Read Transaction,00 00*
0,765,0:11.735.418,79.100 us,2 B,,SP,55,Write Transaction,00 00
0,766,0:11.740.767,87.000 us,2 B,,SP,55,Read Transaction,00 08*
0,767,0:11.746.137,79.200 us,2 B,,SP,55,Write Transaction,12 01
0,768,0:11.751.494,1.184.400 ms,46 B,,SP,55,Read Transaction,00 50 FF 9C 00 7D FC 33 02 67 2E 02 66 B6 15 DB 07 15 DA 03 26 63 C9 26 62 A9 00 02 58 00 00 00 00 00 00 00 00 00 00 00 00 00 00 00 00 03*
0,769,0:11.753.141,79.200 us,2 B,,SP,55,Write Transaction,00 00
0,770,0:11.758.489,86.600 us,2 B,,SP,55,Read Transaction,00 00*
0,771,0:11.767.397,79.200 us,2 B,,SP,55,Write Transaction,00 00
0,772,0:11.772.753,90.300 us,2 B,,SP,55,Read Transaction,00 00*
0,773,0:11.782.540,79.100 us,2 B,,SP,55,Write Transaction,00 00
0,774,0:11.787.896,86.600 us,2 B,,SP,55,Read Transaction,00 08*
0,775,0:11.793.261,79.100 us,2 B,,SP,55,Write Transaction,12 01
0,776,0:11.798.611,1.182.600 ms,46 B,,SP,55,Read Transaction,00 51 FF A1 00 7C FC 2E 02 69 C3 02 69 49 15 DC 6E 15 DB 6C 26 64 C2 26 63 A8 00 02 58 00 00 00 00 00 00 00 00 00 00 00 00 00 00 00 00 03*
0,777,0:11.801.255,79.000 us,2 B,,SP,55,Write Transaction,00 00
0,778,0:11.806.606,87.200 us,2 B,,SP,55,Read Transaction,00 00*
0,779,0:11.815.494,79.100 us,2 B,,SP,55,Write Transaction,00 00
0,780,0:11.820.844,87.000 us,2 B,,SP,55,Read Transaction,00 08*
0,781,0:11.826.212,79.000 us,2 B,,SP,55,Write Transaction,12 01
0,782,0:11.831.564,1.182.600 ms,46 B,,SP,55,Read Transaction,00 52 FF A0 00 7B FC 33 02 6C 08 02 6B 91 15 DD 5E 15 DC 5C 26 65 84 26 64 64 00 02 58 00 00 00 00 00 00 00 00 00 00 00 00 00 00 00 00 03*
0,783,0:11.834.382,79.000 us,2 B,,SP,55,Write Transaction,00 00
0,784,0:11.839.753,86.600 us,2 B,,SP,55,Read Transaction,00 00*
0,785,0:11.847.483,79.100 us,2 B,,SP,55,Write Transaction,00 00
0,786,0:11.852.834,90.300 us,2 B,,SP,55,Read Transaction,00 00*
0,787,0:11.862.627,79.100 us,2 B,,SP,55,Write Transaction,00 00
0,788,0:11.867.979,86.600 us,2 B,,SP,55,Read Transaction,00 08*
0,789,0:11.873.344,79.100 us,2 B,,SP,55,Write Transaction,12 01
0,790,0:11.878.694,1.183.700 ms,46 B,,SP,55,Read Transaction,00 53 FF A0 00 7A FC 29 02 6E C3 02 6E 47 15 DE C8 15 DD C2 26 66 79 26 65 5C 00 02 58 00 00 00 00 00 00 00 00 00 00 00 00 00 00 00 00 03*
0,791,0:11.882.575,79.100 us,2 B,,SP,55,Write Transaction,00 00
0,792,0:11.887.926,91.100 us,2 B,,SP,55,Read Transaction,00 00*
0,793,0:11.895.579,79.000 us,2 B,,SP,55,Write Transaction,00 00
0,794,0:11.900.936,86.600 us,2 B,,SP,55,Read Transaction,00 08*
0,795,0:11.906.302,79.100 us,2 B,,SP,55,Write Transaction,12 01
0,796,0:11.911.652,1.182.500 ms,46 B,,SP,55,Read Transaction,00 54 FF 9D 00 80 FC 3C 02 6E 8E 02 6E 1B 15 DD 3B 15 DC 3A 26 65 5D 26 64 42 00 02 58 00 00 00 00 00 00 00 00 00 00 00 00 00 00 00 00 03*
0,797,0:11.913.235,79.100 us,2 B,,SP,55,Write Transaction,00 00
0,798,0:11.918.586,86.600 us,2 B,,SP,55,Read Transaction,00 00*
0,799,0:11.927.567,79.200 us,2 B,,SP,55,Write Transaction,00 00
0,800,0:11.932.921,91.100 us,2 B,,SP,55,Read Transaction,00 00*
0,801,0:11.942.439,79.000 us,2 B,,SP,55,Write Transaction,00 00
0,802,0:11.947.789,86.600 us,2 B,,SP,55,Read Transaction,00 08*
0,803,0:11.953.153,79.100 us,2 B,,SP,55,Write Transaction,12 01
0,804,0:11.958.507,1.184.300 ms,46 B,,SP,55,Read Transaction,00 55 FF A3 00 81 FC 2F 02 65 A9 02 65 25 15 D8 89 15 D7 89 26 62 D2 26 61 B9 00 02 58 00 00 00 00 00 00 00 00 00 00 00 00 00 00 00 00 03*
0,805,0:11.961.143,79.000 us,2 B,,SP,55,Write Transaction,00 00
0,806,0:11.966.494,87.300 us,2 B,,SP,55,Read Transaction,00 00*
0,807,0:11.975.413,79.100 us,2 B,,SP,55,Write Transaction,00 00
0,808,0:11.980.764,87.100 us,2 B,,SP,55,Read Transaction,00 08*
0,809,0:11.986.133,79.100 us,2 B,,SP,55,Write Transaction,12 01
0,810,0:11.991.485,1.182.500 ms,46 B,,SP,55,Read Transaction,00 56 FF 9E 00 7F FC 2E 02 59 CB 02 59 49 15 D4 99 15 D3 99 26 61 10 26 5F F4 00 02 58 00 00 00 00 00 00 00 00 00 00 00 00 00 00 00 00 03*
0,811,0:11.993.079,79.100 us,2 B,,SP,55,Write Transaction,00 00
0,812,0:11.998.434,86.700 us,2 B,,SP,55,Read Transaction,00 00*
0,813,0:12.007.624,79.100 us,2 B,,SP,55,Write Transaction,00 00
0,814,0:12.012.973,88.300 us,2 B,,SP,55,Read Transaction,00 00*
0,815,0:12.022.524,79.100 us,2 B,,SP,55,Write Transaction,00 00
0,816,0:12.027.875,86.600 us,2 B,,SP,55,Read Transaction,00 08*
0,817,0:12.033.242,79.000 us,2 B,,SP,55,Write Transaction,12 01
0,818,0:12.038.591,1.182.500 ms,46 B,,SP,55,Read Transaction,00 57 FF 9E 00 83 FC 35 02 51 84 02 51 04 15 D2 5A 15 D1 5C 26 60 4C 26 5F 33 00 02 58 00 00 00 00 00 00 00 00 00 00 00 00 00 00 00 00 03*
0,819,0:12.041.341,79.100 us,2 B,,SP,55,Write Transaction,00 00
0,820,0:12.046.691,88.500 us,2 B,,SP,55,Read Transaction,00 00*
0,821,0:12.055.472,79.100 us,2 B,,SP,55,Write Transaction,00 00
0,822,0:12.060.825,87.100 us,2 B,,SP,55,Read Transaction,00 08*
0,823,0:12.066.192,79.100 us,2 B,,SP,55,Write Transaction,12 01
0,824,0:12.071.542,1.182.200 ms,46 B,,SP,55,Read Transaction,00 58 FF 9C 00 7D FC 2D 02 4D 0D 02 4C 89 15 D1 D3 15 D0 D6 26 60 6A 26 5F 4E 00 02 58 00 00 00 00 00 00 00 00 00 00 00 00 00 00 00 00 03*
0,825,0:12.074.361,79.100 us,2 B,,SP,55,Write Transaction,00 00
0,826,0:12.079.713,86.600 us,2 B,,SP,55,Read Transaction,00 00*
0,827,0:12.087.460,79.000 us,2 B,,SP,55,Write Transaction,00 00
0,828,0:12.092.809,88.700 us,2 B,,SP,55,Read Transaction,00 00*
0,829,0:12.102.609,79.000 us,2 B,,SP,55,Write Transaction,00 00
0,830,0:12.107.957,86.600 us,2 B,,SP,55,Read Transaction,00 08*
0,831,0:12.113.322,79.100 us,2 B,,SP,55,Write Transaction,12 01
0,832,0:12.118.673,1.182.600 ms,46 B,,SP,55,Read Transaction,00 59 FF A0 00 7E FC 2E 02 4A 70 02 49 F7 15 D1 B7 15 D0 BA 26 60 9F 26 5F 84 00 02 4E 00 00 00 00 00 00 00 00 00 00 00 00 00 00 00 00 03*
0,833,0:12.122.607,79.000 us,2 B,,SP,55,Write Transaction,00 00
0,834,0:12.127.956,95.200 us,2 B,,SP,55,Read Transaction,00 00*
0,835,0:12.135.551,79.100 us,2 B,,SP,55,Write Transaction,00 00
0,836,0:12.140.904,86.600 us,2 B,,SP,55,Read Transaction,00 08*
0,837,0:12.146.270,79.100 us,2 B,,SP,55,Write Transaction,12 01
0,838,0:12.151.619,1.182.400 ms,46 B,,SP,55,Read Transaction,00 5A FF 9A 00 81 FC 31 02 48 E1 02 48 64 15 D1 BC 15 D0 B7 26 60 EB 26 5F CB 00 02 4E 00 00 00 00 00 00 00 00 00 00 00 00 00 00 00 00 03*
0,839,0:12.153.203,79.000 us,2 B,,SP,55,Write Transaction,00 00
0,840,0:12.158.554,86.600 us,2 B,,SP,55,Read Transaction,00 00*
0,841,0:12.167.531,79.100 us,2 B,,SP,55,Write Transaction,00 00
0,842,0:12.172.880,87.100 us,2 B,,SP,55,Read Transaction,00 00*
0,843,0:12.182.439,79.000 us,2 B,,SP,55,Write Transaction,00 00
0,844,0:12.187.787,86.600 us,2 B,,SP,55,Read Transaction,00 08*
0,845,0:12.193.151,79.000 us,2 B,,SP,55,Write Transaction,12 01
0,846,0:12.198.550,1.182.500 ms,46 B,,SP,55,Read Transaction,00 5B FF 9D 00 81 FC 2D 02 4A 41 02 49 C2 15 D3 4B 15 D2 46 26 62 20 26 60 FE 00 02 4E 00 00 00 00 00 00 00 00 00 00 00 00 00 00 00 00 03*
0,847,0:12.201.195,79.100 us,2 B,,SP,55,Write Transaction,00 00
0,848,0:12.206.544,88.800 us,2 B,,SP,55,Read Transaction,00 00*
0,849,0:12.215.379,79.000 us,2 B,,SP,55,Write Transaction,00 00
0,850,0:12.220.730,87.000 us,2 B,,SP,55,Read Transaction,00 08*
0,851,0:12.226.096,79.100 us,2 B,,SP,55,Write Transaction,12 01
0,852,0:12.231.446,1.184.000 ms,46 B,,SP,55,Read Transaction,00 5C FF 9F 00 7A FC 2F 02 4C 44 02 4B C9 15 D4 63 15 D3 66 26 62 D7 26 61 BB 00 02 4E 00 00 00 00 00 00 00 00 00 00 00 00 00 00 00 00 03*
0,853,0:12.234.270,79.000 us,2 B,,SP,55,Write Transaction,00 00
0,854,0:12.239.620,86.600 us,2 B,,SP,55,Read Transaction,00 00*
0,855,0:12.247.612,79.100 us,2 B,,SP,55,Write Transaction,00 00
0,856,0:12.252.965,87.000 us,2 B,,SP,55,Read Transaction,00 08*
0,857,0:12.258.330,79.100 us,2 B,,SP,55,Write Transaction,12 01
0,858,0:12.263.681,1.182.600 ms,46 B,,SP,55,Read Transaction,00 5D FF 9E 00 7D FC 30 02 4D 73 02 4C F2 15 D5 31 15 D4 31 26 63 5D 26 62 42 00 02 4E 00 00 00 00 00 00 00 00 00 00 00 00 00 00 00 00 03*
0,859,0:12.266.315,79.000 us,2 B,,SP,55,Write Transaction,00 00
0,860,0:12.271.666,86.700 us,2 B,,SP,55,Read Transaction,00 00*
0,861,0:12.280.583,79.100 us,2 B,,SP,55,Write Transaction,00 00
0,862,0:12.285.933,87.300 us,2 B,,SP,55,Read Transaction,00 00*
0,863,0:12.295.470,79.000 us,2 B,,SP,55,Write Transaction,00 00
0,864,0:12.300.819,87.100 us,2 B,,SP,55,Read Transaction,00 08*
0,865,0:12.306.186,79.100 us,2 B,,SP,55,Write Transaction,12 01
0,866,0:12.311.535,1.182.500 ms,46 B,,SP,55,Read Transaction,00 5E FF 9D 00 7F FC 32 02 4E 8D 02 4E 16 15 D5 D9 15 D4 DE 26 64 1F 26 63 04 00 02 4E 00 26 E2 19 00 00 00 00 00 00 00 00 00 00 00 00 03*
0,867,0:12.313.183,79.000 us,2 B,,SP,55,Write Transaction,00 00
0,868,0:12.318.531,86.600 us,2 B,,SP,55,Read Transaction,00 00*
0,869,0:12.327.448,79.000 us,2 B,,SP,55,Write Transaction,00 00
0,870,0:12.332.803,87.200 us,2 B,,SP,55,Read Transaction,00 08*
0,871,0:12.338.175,79.200 us,2 B,,SP,55,Write Transaction,12 01
0,872,0:12.343.529,1.182.500 ms,46 B,,SP,55,Read Transaction,00 5F FF A0 00 80 FC 30 02 50 C7 02 50 51 15 D7 3E 15 D6 3C 26 65 29 26 64 0F 00 02 4E 00 00 00 00 00 00 00 00 00 00 00 00 00 00 00 00 03*
0,873,0:12.346.162,79.100 us,2 B,,SP,55,Write Transaction,00 00
0,874,0:12.351.514,86.600 us,2 B,,SP,55,Read Transaction,00 00*
0,875,0:12.360.393,79.100 us,2 B,,SP,55,Write Transaction,00 00
0,876,0:12.365.752,87.400 us,2 B,,SP,55,Read Transaction,00 00*
0,877,0:12.375.550,79.200 us,2 B,,SP,55,Write Transaction,00 00
0,878,0:12.380.907,87.200 us,2 B,,SP,55,Read Transaction,00 08*
0,879,0:12.386.282,79.200 us,2 B,,SP,55,Write Transaction,12 01
0,880,0:12.391.637,1.183.800 ms,46 B,,SP,55,Read Transaction,00 60 FF 9E 00 80 FC 2C 02 53 9E 02 53 25 15 D8 FF 15 D7 FE 26 66 68 26 65 4C 00 02 4E 00 00 00 00 00 00 00 00 00 00 00 00 00 00 00 00 03*
0,881,0:12.393.232,79.200 us,2 B,,SP,55,Write Transaction,00 00
0,882,0:12.398.580,86.600 us,2 B,,SP,55,Read Transaction,00 00*
0,883,0:12.407.512,79.200 us,2 B,,SP,55,Write Transaction,00 00
0,884,0:12.412.868,87.100 us,2 B,,SP,55,Read Transaction,00 08*
0,885,0:12.418.235,79.100 us,2 B,,SP,55,Write Transaction,12 01
0,886,0:12.423.586,1.182.500 ms,46 B,,SP,55,Read Transaction,00 61 FF A2 00 7E FC 30 02 57 29 02 56 A3 15 DA E5 15 D9 E4 26 67 BE 26 66 A5 00 02 4E 00 00 00 00 00 00 00 00 00 00 00 00 00 00 00 00 03*
0,887,0:12.427.563,79.100 us,2 B,,SP,55,Write Transaction,00 00
0,888,0:12.432.912,86.500 us,2 B,,SP,55,Read Transaction,00 00*
0,889,0:12.440.486,79.100 us,2 B,,SP,55,Write Transaction,00 00
0,890,0:12.445.839,87.300 us,2 B,,SP,55,Read Transaction,00 00*
0,891,0:12.455.610,79.200 us,2 B,,SP,55,Write Transaction,00 00
0,892,0:12.460.962,87.100 us,2 B,,SP,55,Read Transaction,00 08*
0,893,0:12.466.328,79.100 us,2 B,,SP,55,Write Transaction,12 01
0,894,0:12.471.679,1.182.600 ms,46 B,,SP,55,Read Transaction,00 62 FF A2 00 7E FC 2A 02 5A 81 02 5A 09 15 DC 39 15 DB 36 26 68 B8 26 67 9C 00 02 4E 00 00 00 00 00 00 00 00 00 00 00 00 00 00 00 00 03*
0,895,0:12.474.497,79.200 us,2 B,,SP,55,Write Transaction,00 00
0,896,0:12.479.851,86.600 us,2 B,,SP,55,Read Transaction,00 00*
0,897,0:12.487.594,79.000 us,2 B,,SP,55,Write Transaction,00 00
0,898,0:12.492.943,87.100 us,2 B,,SP,55,Read Transaction,00 08*
0,899,0:12.498.312,79.100 us,2 B,,SP,55,Write Transaction,12 01
0,900,0:12.503.660,1.182.700 ms,46 B,,SP,55,Read Transaction,00 63 FF 9B 00 7B FC 30 02 5D 70 02 5C F6 15 DD 9C 15 DC 9B 26 69 A0 26 68 89 00 02 4E 00 00 00 00 00 00 00 00 00 00 00 00 00 00 00 00 03*
0,901,0:12.506.361,79.100 us,2 B,,SP,55,Write Transaction,00 00
0,902,0:12.511.710,86.600 us,2 B,,SP,55,Read Transaction,00 00*
0,903,0:12.520.547,79.000 us,2 B,,SP,55,Write Transaction,00 00
0,904,0:12.525.899,87.400 us,2 B,,SP,55,Read Transaction,00 00*
0,905,0:12.535.453,79.100 us,2 B,,SP,55,Write Transaction,00 00
0,906,0:12.540.805,87.000 us,2 B,,SP,55,Read Transaction,00 08*
0,907,0:12.546.170,79.000 us,2 B,,SP,55,Write Transaction,12 01
0,908,0:12.551.522,1.182.700 ms,46 B,,SP,55,Read Transaction,00 64 FF 9F 00 7F FC 2F 02 60 49 02 5F C5 15 DE A3 15 DD A3 26 6A 65 26 69 47 00 02 4E 00 00 00 00 00 00 00 00 00 00 00 00 00 00 00 00 03*
0,909,0:12.553.113,79.100 us,2 B,,SP,55,Write Transaction,00 00
0,910,0:12.558.465,86.600 us,2 B,,SP,55,Read Transaction,00 00*
0,911,0:12.568.466,79.100 us,2 B,,SP,55,Write Transaction,00 00
0,912,0:12.573.815,87.000 us,2 B,,SP,55,Read Transaction,00 08*
0,913,0:12.579.180,79.100 us,2 B,,SP,55,Write Transaction,12 01
0,914,0:12.584.531,1.182.300 ms,46 B,,SP,55,Read Transaction,00 65 FF 9F 00 7F FC 2E 02 62 C3 02 62 46 15 DF B3 15 DE AE 26 6B 2F 26 6A 14 00 02 4E 00 00 00 00 00 00 00 00 00 00 00 00 00 00 00 00 03*
0,915,0:12.587.176,79.100 us,2 B,,SP,55,Write Transaction,00 00
0,916,0:12.592.527,86.700 us,2 B,,SP,55,Read Transaction,00 00*
0,917,0:12.601.606,79.100 us,2 B,,SP,55,Write Transaction,00 00
0,918,0:12.606.956,91.100 us,2 B,,SP,55,Read Transaction,00 00*
0,919,0:12.616.500,79.000 us,2 B,,SP,55,Write Transaction,00 00
0,920,0:12.621.852,86.600 us,2 B,,SP,55,Read Transaction,00 08*
0,921,0:12.627.216,79.100 us,2 B,,SP,55,Write Transaction,12 01
0,922,0:12.632.566,1.182.600 ms,46 B,,SP,55,Read Transaction,00 66 FF A0 00 80 FC 31 02 65 DF 02 65 67 15 E1 3C 15 E0 39 26 6C 33 26 6B 19 00 02 4E 00 00 00 00 00 00 00 00 00 00 00 00 00 00 00 00 03*
0,923,0:12.635.383,79.100 us,2 B,,SP,55,Write Transaction,00 00
0,924,0:12.640.733,86.700 us,2 B,,SP,55,Read Transaction,00 00*
0,925,0:12.648.472,79.100 us,2 B,,SP,55,Write Transaction,00 00
0,926,0:12.653.823,87.000 us,2 B,,SP,55,Read Transaction,00 08*
0,927,0:12.659.187,79.000 us,2 B,,SP,55,Write Transaction,12 01
0,928,0:12.664.539,1.182.500 ms,46 B,,SP,55,Read Transaction,00 67 FF 9E 00 7F FC 2E 02 68 90 02 68 12 15 E2 62 15 E1 5E 26 6D 1A 26 6B FD 00 02 4E 00 00 00 00 00 00 00 00 00 00 00 00 00 00 00 00 03*
0,929,0:12.666.120,79.100 us,2 B,,SP,55,Write Transaction,00 00
0,930,0:12.671.470,86.600 us,2 B,,SP,55,Read Transaction,00 00*
0,931,0:12.680.449,79.100 us,2 B,,SP,55,Write Transaction,00 00
0,932,0:12.685.801,88.900 us,2 B,,SP,55,Read Transaction,00 00*
0,933,0:12.695.594,79.000 us,2 B,,SP,55,Write Transaction,00 00
0,934,0:12.700.945,87.000 us,2 B,,SP,55,Read Transaction,00 08*
0,935,0:12.706.309,79.000 us,2 B,,SP,55,Write Transaction,12 01
0,936,0:12.711.658,1.182.500 ms,46 B,,SP,55,Read Transaction,00 68 FF 9F 00 7C FC 2C 02 6A F2 02 6A 75 15 E3 50 15 E2 4E 26 6D C5 26 6C AA 00 02 4E 00 00 00 00 00 00 00 00 00 00 00 00 00 00 00 00 03*
0,937,0:12.714.300,79.000 us,2 B,,SP,55,Write Transaction,00 00
0,938,0:12.719.653,86.500 us,2 B,,SP,55,Read Transaction,00 00*
0,939,0:12.728.553,79.100 us,2 B,,SP,55,Write Transaction,00 00
0,940,0:12.733.913,87.200 us,2 B,,SP,55,Read Transaction,00 08*
0,941,0:12.739.279,79.200 us,2 B,,SP,55,Write Transaction,12 01
0,942,0:12.744.637,1.184.300 ms,46 B,,SP,55,Read Transaction,00 69 FF A0 00 80 FC 30 02 6D 2F 02 6C B5 15 E4 13 15 E3 12 26 6E 5E 26 6D 46 00 02 4E 00 00 00 00 00 00 00 00 00 00 00 00 00 00 00 00 03*
0,943,0:12.746.223,79.000 us,2 B,,SP,55,Write Transaction,00 00
0,944,0:12.751.573,86.600 us,2 B,,SP,55,Read Transaction,00 00*
0,945,0:12.760.527,79.000 us,2 B,,SP,55,Write Transaction,00 00
0,946,0:12.765.875,89.300 us,2 B,,SP,55,Read Transaction,00 00*
0,947,0:12.775.428,79.000 us,2 B,,SP,55,Write Transaction,00 00
0,948,0:12.780.783,87.100 us,2 B,,SP,55,Read Transaction,00 08*
0,949,0:12.786.155,79.100 us,2 B,,SP,55,Write Transaction,12 01
0,950,0:12.791.503,1.182.400 ms,46 B,,SP,55,Read Transaction,00 6A FF A1 00 80 FC 2D 02 6F 6E 02 6E F1 15 E5 00 15 E3 FC 26 6F 19 26 6D F9 00 02 4E 00 00 00 00 00 00 00 00 00 00 00 00 00 00 00 00 03*
0,951,0:12.794.254,79.100 us,2 B,,SP,55,Write Transaction,00 00
0,952,0:12.799.607,86.500 us,2 B,,SP,55,Read Transaction,00 00*
0,953,0:12.808.393,79.100 us,2 B,,SP,55,Write Transaction,00 00
0,954,0:12.813.744,87.100 us,2 B,,SP,55,Read Transaction,00 08*
0,955,0:12.819.108,79.000 us,2 B,,SP,55,Write Transaction,12 01
0,956,0:12.824.458,1.182.400 ms,46 B,,SP,55,Read Transaction,00 6B FF 9B 00 7B FC 33 02 71 F5 02 71 7E 15 E6 2D 15 E5 27 26 6F E7 26 6E C6 00 02 4E 00 00 00 00 00 00 00 00 00 00 00 00 00 00 00 00 03*
0,957,0:12.827.277,79.100 us,2 B,,SP,55,Write Transaction,00 00
0,958,0:12.832.628,86.600 us,2 B,,SP,55,Read Transaction,00 00*
0,959,0:12.840.367,79.100 us,2 B,,SP,55,Write Transaction,00 00
0,960,0:12.845.717,89.400 us,2 B,,SP,55,Read Transaction,00 00*
0,961,0:12.855.500,79.000 us,2 B,,SP,55,Write Transaction,00 00
0,962,0:12.860.849,87.000 us,2 B,,SP,55,Read Transaction,00 08*
0,963,0:12.866.216,79.100 us,2 B,,SP,55,Write Transaction,12 01
0,964,0:12.871.565,1.183.000 ms,46 B,,SP,55,Read Transaction,00 6C FF 9B 00 7E FC 2E 02 74 B6 02 74 45 15 E7 76 15 E6 6E 26 70 C2 26 6F A2 00 02 4E 00 00 00 00 00 00 00 00 00 00 00 00 00 00 00 00 03*
0,965,0:12.875.488,79.000 us,2 B,,SP,55,Write Transaction,00 00
0,966,0:12.880.839,86.600 us,2 B,,SP,55,Read Transaction,00 00*
0,967,0:12.888.455,79.100 us,2 B,,SP,55,Write Transaction,00 00
0,968,0:12.893.806,87.000 us,2 B,,SP,55,Read Transaction,00 08*
0,969,0:12.899.171,79.000 us,2 B,,SP,55,Write Transaction,12 01
0,970,0:12.904.519,1.182.300 ms,46 B,,SP,55,Read Transaction,00 6D FF 9F 00 7A FC 38 02 72 FE 02 72 82 15 E5 2D 15 E4 26 26 6F 3F 26 6E 24 00 02 4E 00 00 00 00 00 00 00 00 00 00 00 00 00 00 00 00 03*
0,971,0:12.906.114,79.100 us,2 B,,SP,55,Write Transaction,00 00
0,972,0:12.911.464,86.500 us,2 B,,SP,55,Read Transaction,00 00*
0,973,0:12.920.431,79.100 us,2 B,,SP,55,Write Transaction,00 00
0,974,0:12.925.783,89.400 us,2 B,,SP,55,Read Transaction,00 00*
0,975,0:12.935.578,79.000 us,2 B,,SP,55,Write Transaction,00 00
0,976,0:12.940.927,87.000 us,2 B,,SP,55,Read Transaction,00 08*
0,977,0:12.946.297,79.200 us,2 B,,SP,55,Write Transaction,12 01
0,978,0:12.951.656,1.184.200 ms,46 B,,SP,55,Read Transaction,00 6E FF A3 00 7E FC 2F 02 67 C4 02 67 4B 15 DF AB 15 DE AA 26 6C 60 26 6B 46 00 02 4E 00 00 00 00 00 00 00 00 00 00 00 00 00 00 00 00 03*
0,979,0:12.954.292,79.000 us,2 B,,SP,55,Write Transaction,00 00
0,980,0:12.959.669,86.600 us,2 B,,SP,55,Read Transaction,00 00*
0,981,0:12.968.533,79.200 us,2 B,,SP,55,Write Transaction,00 00
0,982,0:12.973.885,87.000 us,2 B,,SP,55,Read Transaction,00 08*
0,983,0:12.979.252,79.000 us,2 B,,SP,55,Write Transaction,12 01
0,984,0:12.984.601,1.182.700 ms,46 B,,SP,55,Read Transaction,00 6F FF 9C 00 81 FC 2E 02 5A 9F 02 5A 21 15 DB 60 15 DA 5F 26 6A 93 26 69 78 00 02 4E 00 00 00 00 00 00 00 00 00 00 00 00 00 00 00 00 03*
0,985,0:12.986.265,79.000 us,2 B,,SP,55,Write Transaction,00 00
0,986,0:12.991.613,86.600 us,2 B,,SP,55,Read Transaction,00 00*
0,987,0:13.000.517,79.000 us,2 B,,SP,55,Write Transaction,00 00
0,988,0:13.005.869,89.300 us,2 B,,SP,55,Read Transaction,00 00*
0,989,0:13.015.404,79.100 us,2 B,,SP,55,Write Transaction,00 00
0,990,0:13.020.756,87.100 us,2 B,,SP,55,Read Transaction,00 08*
0,991,0:13.026.127,79.100 us,2 B,,SP,55,Write Transaction,12 01
0,992,0:13.031.478,1.182.000 ms,46 B,,SP,55,Read Transaction,00 70 FF 9C 00 80 FC 31 02 51 50 02 50 D7 15 D8 BC 15 D7 B7 26 69 AC 26 68 8D 00 02 4E 00 00 00 00 00 00 00 00 00 00 00 00 00 00 00 00 03*
0,993,0:13.035.345,79.000 us,2 B,,SP,55,Write Transaction,00 00
0,994,0:13.040.695,86.600 us,2 B,,SP,55,Read Transaction,00 00*
0,995,0:13.048.363,79.100 us,2 B,,SP,55,Write Transaction,00 00
0,996,0:13.053.713,87.100 us,2 B,,SP,55,Read Transaction,00 08*
0,997,0:13.059.079,79.100 us,2 B,,SP,55,Write Transaction,12 01
0,998,0:13.064.426,1.182.300 ms,46 B,,SP,55,Read Transaction,00 71 FF 9B 00 77 FC 30 02 4B 29 02 4A AB 15 D7 48 15 D6 49 26 69 38 26 68 16 00 02 4E 00 00 00 00 00 00 00 00 00 00 00 00 00 00 00 00 03*
0,999,0:13.066.073,79.000 us,2 B,,SP,55,Write Transaction,00 00
0,1000,0:13.071.422,86.600 us,2 B,,SP,55,Read Transaction,00 00*
0,1001,0:13.080.581,79.100 us,2 B,,SP,55,Write Transaction,00 00
0,1002,0:13.085.937,90.700 us,2 B,,SP,55,Read Transaction,00 00*
0,1003,0:13.095.493,79.100 us,2 B,,SP,55,Write Transaction,00 00
0,1004,0:13.100.846,87.000 us,2 B,,SP,55,Read Transaction,00 08*
0,1005,0:13.106.214,79.000 us,2 B,,SP,55,Write Transaction,12 01
0,1006,0:13.111.565,1.182.500 ms,46 B,,SP,55,Read Transaction,00 72 FF 9D 00 7F FC 2F 02 46 66 02 45 E6 15 D6 3F 15 D5 41 26 69 02 26 67 E9 00 02 4E 00 00 00 00 00 00 00 00 00 00 00 00 00 00 00 00 03*
0,1007,0:13.114.210,79.100 us,2 B,,SP,55,Write Transaction,00 00
0,1008,0:13.119.562,86.600 us,2 B,,SP,55,Read Transaction,00 00*
0,1009,0:13.128.433,79.100 us,2 B,,SP,55,Write Transaction,00 00
0,1010,0:13.133.782,87.100 us,2 B,,SP,55,Read Transaction,00 08*
0,1011,0:13.139.149,79.100 us,2 B,,SP,55,Write Transaction,12 01
0,1012,0:13.144.504,1.184.300 ms,46 B,,SP,55,Read Transaction,00 73 FF 9B 00 7B FC 35 02 43 2D 02 42 BB 15 D5 FA 15 D4 FA 26 69 1F 26 68 02 00 02 4E 00 00 00 00 00 00 00 00 00 00 00 00 00 00 00 00 03*
0,1013,0:13.146.090,79.200 us,2 B,,SP,55,Write Transaction,00 00
0,1014,0:13.151.442,86.600 us,2 B,,SP,55,Read Transaction,00 00*
0,1015,0:13.160.431,79.100 us,2 B,,SP,55,Write Transaction,00 00
0,1016,0:13.165.783,89.800 us,2 B,,SP,55,Read Transaction,00 00*
0,1017,0:13.175.547,79.100 us,2 B,,SP,55,Write Transaction,00 00
0,1018,0:13.180.899,87.000 us,2 B,,SP,55,Read Transaction,00 08*
0,1019,0:13.186.264,79.100 us,2 B,,SP,55,Write Transaction,12 01
0,1020,0:13.191.619,1.182.600 ms,46 B,,SP,55,Read Transaction,00 74 FF 9D 00 82 FC 30 02 43 7C 02 43 06 15 D7 0A 15 D6 05 26 6A 01 26 68 E5 00 02 4E 00 00 00 00 00 00 00 00 00 00 00 00 00 00 00 00 03*
0,1021,0:13.194.264,79.100 us,2 B,,SP,55,Write Transaction,00 00
0,1022,0:13.199.661,86.700 us,2 B,,SP,55,Read Transaction,00 00*
0,1023,0:13.208.514,79.100 us,2 B,,SP,55,Write Transaction,00 00
0,1024,0:13.213.868,87.100 us,2 B,,SP,55,Read Transaction,00 08*
0,1025,0:13.219.233,79.100 us,2 B,,SP,55,Write Transaction,12 01
0,1026,0:13.224.583,1.182.600 ms,46 B,,SP,55,Read Transaction,00 75 FF 9A 00 79 FC 34 02 45 D0 02 45 52 15 D8 8D 15 D7 87 26 6A FB 26 69 DA 00 02 4E 00 00 00 00 00 00 00 00 00 00 00 00 00 00 00 00 03*
0,1027,0:13.227.403,79.100 us,2 B,,SP,55,Write Transaction,00 00
0,1028,0:13.232.755,86.600 us,2 B,,SP,55,Read Transaction,00 00*
0,1029,0:13.240.507,79.100 us,2 B,,SP,55,Write Transaction,00 00
0,1030,0:13.245.859,90.800 us,2 B,,SP,55,Read Transaction,00 00*
0,1031,0:13.255.385,79.100 us,2 B,,SP,55,Write Transaction,00 00
0,1032,0:13.260.735,87.100 us,2 B,,SP,55,Read Transaction,00 08*
0,1033,0:13.266.101,79.000 us,2 B,,SP,55,Write Transaction,12 01
0,1034,0:13.271.455,1.182.500 ms,46 B,,SP,55,Read Transaction,00 76 FF 9D 00 7D FC 36 02 46 F7 02 46 76 15 D9 16 15 D8 15 26 6B 4E 26 6A 2F 00 02 58 64 26 B0 32 00 00 00 00 00 00 00 00 00 00 00 00 03*
0,1035,0:13.275.324,79.100 us,2 B,,SP,55,Write Transaction,00 00
0,1036,0:13.280.673,86.600 us,2 B,,SP,55,Read Transaction,00 00*
0,1037,0:13.288.342,79.100 us,2 B,,SP,55,Write Transaction,00 00
0,1038,0:13.293.695,87.200 us,2 B,,SP,55,Read Transaction,00 08*
0,1039,0:13.299.059,79.100 us,2 B,,SP,55,Write Transaction,12 01
0,1040,0:13.304.410,1.182.800 ms,46 B,,SP,55,Read Transaction,00 77 FF 9B 00 7D FC 32 02 48 63 02 47 E3 15 DA 33 15 D9 32 26 6C 41 26 6B 27 00 02 58 64 00 00 00 00 00 00 00 00 00 00 00 00 00 00 00 03*
0,1041,0:13.306.008,79.200 us,2 B,,SP,55,Write Transaction,00 00
0,1042,0:13.311.366,86.700 us,2 B,,SP,55,Read Transaction,00 00*
0,1043,0:13.320.582,79.000 us,2 B,,SP,55,Write Transaction,00 00
0,1044,0:13.325.932,91.100 us,2 B,,SP,55,Read Transaction,00 00*
0,1045,0:13.335.464,79.100 us,2 B,,SP,55,Write Transaction,00 00
0,1046,0:13.340.815,86.600 us,2 B,,SP,55,Read Transaction,00 08*
0,1047,0:13.346.181,79.100 us,2 B,,SP,55,Write Transaction,12 01
0,1048,0:13.351.530,1.182.600 ms,46 B,,SP,55,Read Transaction,00 78 FF 9C 00 7E FC 32 02 4B 4E 02 4A D9 15 DC 02 15 DA FE 26 6D 96 26 6C 77 00 02 58 64 00 00 00 00 00 00 00 00 00 00 00 00 00 00 00 03*
0,1049,0:13.354.268,79.100 us,2 B,,SP,55,Write Transaction,00 00
0,1050,0:13.359.617,86.600 us,2 B,,SP,55,Read Transaction,00 00*
0,1051,0:13.368.411,79.000 us,2 B,,SP,55,Write Transaction,00 00
0,1052,0:13.373.763,87.200 us,2 B,,SP,55,Read Transaction,00 08*
0,1053,0:13.379.129,79.100 us,2 B,,SP,55,Write Transaction,12 01
0,1054,0:13.384.480,1.182.600 ms,46 B,,SP,55,Read Transaction,00 79 FF 9F 00 7F FC 2E 02 4F 28 02 4E A9 15 DE 36 15 DD 39 26 6F 2E 26 6E 0E 00 02 58 64 00 00 00 00 00 00 00 00 00 00 00 00 00 00 00 03*
0,1055,0:13.386.075,79.100 us,2 B,,SP,55,Write Transaction,00 00
0,1056,0:13.391.426,86.600 us,2 B,,SP,55,Read Transaction,00 00*
0,1057,0:13.400.394,79.100 us,2 B,,SP,55,Write Transaction,00 00
0,1058,0:13.405.745,91.300 us,2 B,,SP,55,Read Transaction,00 00*
0,1059,0:13.415.545,79.200 us,2 B,,SP,55,Write Transaction,00 00
0,1060,0:13.420.900,86.700 us,2 B,,SP,55,Read Transaction,00 08*
0,1061,0:13.426.267,79.100 us,2 B,,SP,55,Write Transaction,12 01
0,1062,0:13.431.617,1.182.900 ms,46 B,,SP,55,Read Transaction,00 7A FF 9F 00 81 FC 32 02 53 62 02 52 E5 15 E0 7A 15 DF 70 26 70 B2 26 6F 93 00 02 58 64 00 00 00 00 00 00 00 00 00 00 00 00 00 00 00 03*
0,1063,0:13.435.542,79.100 us,2 B,,SP,55,Write Transaction,00 00
0,1064,0:13.440.891,86.600 us,2 B,,SP,55,Read Transaction,00 00*
0,1065,0:13.448.503,79.100 us,2 B,,SP,55,Write Transaction,00 00
0,1066,0:13.453.855,87.100 us,2 B,,SP,55,Read Transaction,00 08*
0,1067,0:13.459.221,79.000 us,2 B,,SP,55,Write Transaction,12 01
0,1068,0:13.464.571,1.182.500 ms,46 B,,SP,55,Read Transaction,00 7B FF 9D 00 82 FC 32 02 57 05 02 56 85 15 E1 BA 15 E0 B5 26 71 94 26 70 74 00 02 58 64 00 00 00 00 00 00 00 00 00 00 00 00 00 00 00 03*
0,1069,0:13.466.156,79.000 us,2 B,,SP,55,Write Transaction,00 00
0,1070,0:13.471.514,86.700 us,2 B,,SP,55,Read Transaction,00 00*
0,1071,0:13.480.471,79.100 us,2 B,,SP,55,Write Transaction,00 00
0,1072,0:13.485.823,91.100 us,2 B,,SP,55,Read Transaction,00 00*
0,1073,0:13.495.362,79.000 us,2 B,,SP,55,Write Transaction,00 00
0,1074,0:13.500.709,86.600 us,2 B,,SP,55,Read Transaction,00 08*
0,1075,0:13.506.076,79.100 us,2 B,,SP,55,Write Transaction,12 01
0,1076,0:13.511.427,1.183.000 ms,46 B,,SP,55,Read Transaction,00 7C FF 9F 00 7B FC 37 02 5A 31 02 59 AE 15 E3 11 15 E2 0D 26 72 97 26 71 79 00 02 58 64 00 00 00 00 00 00 00 00 00 00 00 00 00 00 00 03*
0,1077,0:13.514.072,79.000 us,2 B,,SP,55,Write Transaction,00 00
0,1078,0:13.519.429,86.600 us,2 B,,SP,55,Read Transaction,00 00*
0,1079,0:13.528.594,79.000 us,2 B,,SP,55,Write Transaction,00 00
0,1080,0:13.533.945,87.100 us,2 B,,SP,55,Read Transaction,00 08*
0,1081,0:13.539.312,79.100 us,2 B,,SP,55,Write Transaction,12 01
0,1082,0:13.544.664,1.182.700 ms,46 B,,SP,55,Read Transaction,00 7D FF 9F 00 81 FC 2B 02 5E 19 02 5D 99 15 E5 09 15 E4 07 26 73 E4 26 72 C4 00 02 58 64 00 00 00 00 00 00 00 00 00 00 00 00 00 00 00 03*
0,1083,0:13.546.326,79.100 us,2 B,,SP,55,Write Transaction,00 00
0,1084,0:13.551.674,86.600 us,2 B,,SP,55,Read Transaction,00 00*
0,1085,0:13.560.552,79.200 us,2 B,,SP,55,Write Transaction,00 00
0,1086,0:13.565.905,91.200 us,2 B,,SP,55,Read Transaction,00 00*
0,1087,0:13.575.443,79.000 us,2 B,,SP,55,Write Transaction,00 00
0,1088,0:13.580.792,86.600 us,2 B,,SP,55,Read Transaction,00 08*
0,1089,0:13.586.166,79.000 us,2 B,,SP,55,Write Transaction,12 01
0,1090,0:13.591.516,1.182.400 ms,46 B,,SP,55,Read Transaction,00 7E FF 9D 00 79 FC 33 02 61 AC 02 61 37 15 E6 95 15 E5 8E 26 75 16 26 73 F2 00 02 58 64 00 00 00 00 00 00 00 00 00 00 00 00 00 00 00 03*
0,1091,0:13.594.159,79.100 us,2 B,,SP,55,Write Transaction,00 00
0,1092,0:13.599.512,86.600 us,2 B,,SP,55,Read Transaction,00 00*
0,1093,0:13.608.415,79.100 us,2 B,,SP,55,Write Transaction,00 00
0,1094,0:13.613.764,87.100 us,2 B,,SP,55,Read Transaction,00 08*
0,1095,0:13.619.130,79.100 us,2 B,,SP,55,Write Transaction,12 01
0,1096,0:13.624.486,1.182.400 ms,46 B,,SP,55,Read Transaction,00 7F FF A1 00 82 FC 2C 02 64 B0 02 64 29 15 E7 BE 15 E6 B5 26 76 00 26 74 E4 00 02 58 64 00 00 00 00 00 00 00 00 00 00 00 00 00 00 00 03*
0,1097,0:13.627.359,79.100 us,2 B,,SP,55,Write Transaction,00 00
0,1098,0:13.632.708,86.600 us,2 B,,SP,55,Read Transaction,00 00*
0,1099,0:13.640.381,79.100 us,2 B,,SP,55,Write Transaction,00 00
0,1100,0:13.645.732,91.200 us,2 B,,SP,55,Read Transaction,00 00*
0,1101,0:13.655.522,79.100 us,2 B,,SP,55,Write Transaction,00 00
0,1102,0:13.660.873,86.600 us,2 B,,SP,55,Read Transaction,00 08*
0,1103,0:13.666.236,79.100 us,2 B,,SP,55,Write Transaction,12 01
0,1104,0:13.671.590,1.182.700 ms,46 B,,SP,55,Read Transaction,00 80 FF 9C 00 79 FC 2E 02 68 38 02 67 B9 15 E9 6F 15 E8 6A 26 77 33 26 76 19 00 02 58 64 00 00 00 00 00 00 00 00 00 00 00 00 00 00 00 03*
0,1105,0:13.675.461,79.200 us,2 B,,SP,55,Write Transaction,00 00
0,1106,0:13.680.815,86.600 us,2 B,,SP,55,Read Transaction,00 00*
0,1107,0:13.688.469,79.000 us,2 B,,SP,55,Write Transaction,00 00
0,1108,0:13.693.818,87.100 us,2 B,,SP,55,Read Transaction,00 08*
0,1109,0:13.699.185,79.000 us,2 B,,SP,55,Write Transaction,12 01
0,1110,0:13.704.536,1.182.700 ms,46 B,,SP,55,Read Transaction,00 81 FF A0 00 7A FC 30 02 6B A6 02 6B 2B 15 EA D0 15 E9 CD 26 78 15 26 76 FD 00 02 58 64 00 00 00 00 00 00 00 00 00 00 00 00 00 00 00 03*
0,1111,0:13.706.131,79.100 us,2 B,,SP,55,Write Transaction,00 00
0,1112,0:13.711.477,86.600 us,2 B,,SP,55,Read Transaction,00 00*
0,1113,0:13.720.452,79.100 us,2 B,,SP,55,Write Transaction,00 00
0,1114,0:13.725.804,91.000 us,2 B,,SP,55,Read Transaction,00 00*
0,1115,0:13.735.353,79.100 us,2 B,,SP,55,Write Transaction,00 00
0,1116,0:13.740.705,86.600 us,2 B,,SP,55,Read Transaction,00 08*
0,1117,0:13.746.070,79.000 us,2 B,,SP,55,Write Transaction,12 01
0,1118,0:13.751.424,1.184.400 ms,46 B,,SP,55,Read Transaction,00 82 FF 9F 00 80 FC 30 02 6D F0 02 6D 76 15 EB 76 15 EA 6C 26 78 B5 26 77 92 00 02 58 64 00 00 00 00 00 00 00 00 00 00 00 00 00 00 00 03*
0,1119,0:13.754.062,79.100 us,2 B,,SP,55,Write Transaction,00 00
0,1120,0:13.759.475,86.700 us,2 B,,SP,55,Read Transaction,00 00*
0,1121,0:13.768.559,79.100 us,2 B,,SP,55,Write Transaction,00 00
0,1122,0:13.773.911,87.000 us,2 B,,SP,55,Read Transaction,00 00*
0,1123,0:13.783.436,79.100 us,2 B,,SP,55,Write Transaction,00 00
0,1124,0:13.788.785,86.600 us,2 B,,SP,55,Read Transaction,00 08*
0,1125,0:13.794.152,79.100 us,2 B,,SP,55,Write Transaction,12 01
0,1126,0:13.799.510,1.182.600 ms,46 B,,SP,55,Read Transaction,00 83 FF 9F 00 7E FC 2D 02 71 30 02 70 AC 15 ED 04 15 EB F7 26 79 CB 26 78 A9 00 02 58 64 00 00 00 00 00 00 00 00 00 00 00 00 00 00 00 03*
0,1127,0:13.801.159,79.100 us,2 B,,SP,55,Write Transaction,00 00
0,1128,0:13.806.510,91.200 us,2 B,,SP,55,Read Transaction,00 00*
0,1129,0:13.815.430,79.100 us,2 B,,SP,55,Write Transaction,00 00
0,1130,0:13.820.783,86.700 us,2 B,,SP,55,Read Transaction,00 08*
0,1131,0:13.826.152,79.100 us,2 B,,SP,55,Write Transaction,12 01
0,1132,0:13.831.503,1.182.400 ms,46 B,,SP,55,Read Transaction,00 84 FF 9E 00 80 FC 31 02 74 0E 02 73 8D 15 EE 10 15 ED 03 26 7A 83 26 79 6B 00 02 58 64 00 00 00 00 00 00 00 00 00 00 00 00 00 00 01 03*
0,1133,0:13.835.371,79.000 us,2 B,,SP,55,Write Transaction,00 00
0,1134,0:13.840.722,86.600 us,2 B,,SP,55,Read Transaction,00 00*
0,1135,0:13.848.394,79.100 us,2 B,,SP,55,Write Transaction,00 00
0,1136,0:13.853.747,87.100 us,2 B,,SP,55,Read Transaction,00 08*
0,1137,0:13.859.115,79.000 us,2 B,,SP,55,Write Transaction,12 01
0,1138,0:13.864.468,1.182.600 ms,46 B,,SP,55,Read Transaction,00 85 FF 9D 00 7F FC 2C 02 76 DD 02 76 61 15 EF 6F 15 EE 64 26 7B 83 26 7A 66 00 02 58 64 00 00 00 00 00 00 00 00 00 00 00 00 00 00 01 03*
0,1139,0:13.867.289,79.200 us,2 B,,SP,55,Write Transaction,00 00
0,1140,0:13.872.646,86.700 us,2 B,,SP,55,Read Transaction,00 00*
0,1141,0:13.880.365,79.200 us,2 B,,SP,55,Write Transaction,00 00
0,1142,0:13.885.717,91.100 us,2 B,,SP,55,Read Transaction,00 00*
0,1143,0:13.895.510,79.100 us,2 B,,SP,55,Write Transaction,00 00
0,1144,0:13.900.861,86.600 us,2 B,,SP,55,Read Transaction,00 08*
0,1145,0:13.906.228,79.100 us,2 B,,SP,55,Write Transaction,12 01
0,1146,0:13.911.577,1.182.600 ms,46 B,,SP,55,Read Transaction,00 86 FF A0 00 7B FC 36 02 77 CA 02 77 57 15 EE AE 15 ED A4 26 7A EF 26 79 D2 00 02 58 64 00 00 00 00 00 00 00 00 00 00 00 00 00 00 01 03*
0,1147,0:13.914.328,79.000 us,2 B,,SP,55,Write Transaction,00 00
0,1148,0:13.919.678,86.600 us,2 B,,SP,55,Read Transaction,00 00*
0,1149,0:13.928.454,79.100 us,2 B,,SP,55,Write Transaction,00 00
0,1150,0:13.933.808,87.100 us,2 B,,SP,55,Read Transaction,00 08*
0,1151,0:13.939.177,79.200 us,2 B,,SP,55,Write Transaction,12 01
0,1152,0:13.944.528,1.182.800 ms,46 B,,SP,55,Read Transaction,00 87 FF 9F 00 84 FC 2E 02 6F AF 02 6F 34 15 E9 AC 15 E8 A6 26 78 5E 26 77 42 00 02 58 64 00 00 00 00 00 00 00 00 00 00 00 00 00 00 01 03*
0,1153,0:13.946.113,79.000 us,2 B,,SP,55,Write Transaction,00 00
0,1154,0:13.951.464,86.600 us,2 B,,SP,55,Read Transaction,00 00*
0,1155,0:13.960.448,79.100 us,2 B,,SP,55,Write Transaction,00 00
0,1156,0:13.965.798,91.100 us,2 B,,SP,55,Read Transaction,00 00*
0,1157,0:13.975.335,79.000 us,2 B,,SP,55,Write Transaction,00 00
0,1158,0:13.980.688,86.600 us,2 B,,SP,55,Read Transaction,00 08*
0,1159,0:13.986.053,79.100 us,2 B,,SP,55,Write Transaction,12 01
0,1160,0:13.991.404,1.182.900 ms,46 B,,SP,55,Read Transaction,00 88 FF A0 00 7D FC 30 02 62 3B 02 61 BD 15 E4 E2 15 E3 DF 26 76 3A 26 75 1A 00 02 58 64 00 00 00 00 00 00 00 00 00 00 00 00 00 00 01 03*
0,1161,0:13.994.102,79.100 us,2 B,,SP,55,Write Transaction,00 00
0,1162,0:13.999.452,86.600 us,2 B,,SP,55,Read Transaction,00 00*
0,1163,0:14.008.531,79.100 us,2 B,,SP,55,Write Transaction,00 00
0,1164,0:14.013.884,87.000 us,2 B,,SP,55,Read Transaction,00 08*
0,1165,0:14.019.250,79.100 us,2 B,,SP,55,Write Transaction,12 01
0,1166,0:14.024.600,1.182.500 ms,46 B,,SP,55,Read Transaction,00 89 FF A0 00 7B FC 2C 02 58 46 02 57 CD 15 E2 3B 15 E1 32 26 75 48 26 74 2A 00 02 58 64 00 00 00 00 00 00 00 00 00 00 00 00 00 00 01 03*
0,1167,0:14.027.420,79.000 us,2 B,,SP,55,Write Transaction,00 00
0,1168,0:14.032.773,86.700 us,2 B,,SP,55,Read Transaction,00 00*
0,1169,0:14.040.527,79.000 us,2 B,,SP,55,Write Transaction,00 00
0,1170,0:14.045.879,91.200 us,2 B,,SP,55,Read Transaction,00 00*
0,1171,0:14.055.410,79.100 us,2 B,,SP,55,Write Transaction,00 00
0,1172,0:14.060.757,86.600 us,2 B,,SP,55,Read Transaction,00 08*
0,1173,0:14.066.123,79.100 us,2 B,,SP,55,Write Transaction,12 01
0,1174,0:14.071.474,1.182.600 ms,46 B,,SP,55,Read Transaction,00 8A FF A0 00 7A FC 36 02 52 AB 02 52 35 15 E1 34 15 E0 2E 26 75 32 26 74 19 00 02 4E 64 00 00 00 00 00 00 00 00 00 00 00 00 00 00 01 03*
0,1175,0:14.074.298,79.100 us,2 B,,SP,55,Write Transaction,00 00
0,1176,0:14.079.647,86.600 us,2 B,,SP,55,Read Transaction,00 00*
0,1177,0:14.087.388,79.200 us,2 B,,SP,55,Write Transaction,00 00
0,1178,0:14.092.748,87.000 us,2 B,,SP,55,Read Transaction,00 08*
0,1179,0:14.098.114,79.100 us,2 B,,SP,55,Write Transaction,12 01
0,1180,0:14.103.463,1.182.800 ms,46 B,,SP,55,Read Transaction,00 8B FF A0 00 81 FC 2B 02 4E 98 02 4E 15 15 E0 67 15 DF 62 26 75 20 26 74 01 00 02 4E 64 00 00 00 00 00 00 00 00 00 00 00 00 00 00 01 03*
0,1181,0:14.106.138,79.200 us,2 B,,SP,55,Write Transaction,00 00
0,1182,0:14.111.492,86.600 us,2 B,,SP,55,Read Transaction,00 00*
0,1183,0:14.120.350,79.100 us,2 B,,SP,55,Write Transaction,00 00
0,1184,0:14.125.705,91.300 us,2 B,,SP,55,Read Transaction,00 00*
0,1185,0:14.135.474,79.200 us,2 B,,SP,55,Write Transaction,00 00
0,1186,0:14.140.826,86.700 us,2 B,,SP,55,Read Transaction,00 08*
0,1187,0:14.146.195,79.100 us,2 B,,SP,55,Write Transaction,12 01
0,1188,0:14.151.547,1.182.800 ms,46 B,,SP,55,Read Transaction,00 8C FF 9F 00 7E FC 31 02 4B 9B 02 4B 1A 15 E0 04 15 DE FE 26 75 31 26 74 0F 00 02 4E 64 00 00 00 00 00 00 00 00 00 00 00 00 00 00 01 03*
0,1189,0:14.153.130,79.000 us,2 B,,SP,55,Write Transaction,00 00
0,1190,0:14.158.479,86.600 us,2 B,,SP,55,Read Transaction,00 00*
0,1191,0:14.167.467,79.000 us,2 B,,SP,55,Write Transaction,00 00
0,1192,0:14.172.817,87.100 us,2 B,,SP,55,Read Transaction,00 08*
0,1193,0:14.178.184,79.100 us,2 B,,SP,55,Write Transaction,12 01
0,1194,0:14.183.540,1.184.400 ms,46 B,,SP,55,Read Transaction,00 8D FF A1 00 7A FC 33 02 4C 0A 02 4B 90 15 E0 FF 15 DF F9 26 76 19 26 74 F8 00 02 4E 64 00 00 00 00 00 00 00 00 00 00 00 00 00 00 01 03*
0,1195,0:14.186.248,79.100 us,2 B,,SP,55,Write Transaction,00 00
0,1196,0:14.191.598,86.700 us,2 B,,SP,55,Read Transaction,00 00*
0,1197,0:14.200.433,79.100 us,2 B,,SP,55,Write Transaction,00 00
0,1198,0:14.205.786,91.200 us,2 B,,SP,55,Read Transaction,00 00*
0,1199,0:14.215.323,79.100 us,2 B,,SP,55,Write Transaction,00 00
0,1200,0:14.220.673,86.600 us,2 B,,SP,55,Read Transaction,00 08*
0,1201,0:14.226.039,79.200 us,2 B,,SP,55,Write Transaction,12 01
0,1202,0:14.231.391,1.182.700 ms,46 B,,SP,55,Read Transaction,00 8E FF 9E 00 7A FC 2F 02 4E E9 02 4E 6C 15 E2 FB 15 E1 F2 26 77 56 26 76 37 00 02 4E 64 00 00 00 00 00 00 00 00 00 00 00 00 00 00 01 03*
0,1203,0:14.234.210,79.100 us,2 B,,SP,55,Write Transaction,00 00
0,1204,0:14.239.562,86.600 us,2 B,,SP,55,Read Transaction,00 00*
0,1205,0:14.247.531,79.100 us,2 B,,SP,55,Write Transaction,00 00
0,1206,0:14.252.881,87.100 us,2 B,,SP,55,Read Transaction,00 08*
0,1207,0:14.258.247,79.100 us,2 B,,SP,55,Write Transaction,12 01
0,1208,0:14.263.595,1.182.400 ms,46 B,,SP,55,Read Transaction,00 8F FF 9B 00 7E FC 37 02 50 61 02 4F E4 15 E3 57 15 E2 4F 26 77 B6 26 76 94 00 02 4E 64 00 00 00 00 00 00 00 00 00 00 00 00 00 00 01 03*
0,1209,0:14.267.467,79.200 us,2 B,,SP,55,Write Transaction,00 00
0,1210,0:14.272.820,86.600 us,2 B,,SP,55,Read Transaction,00 00*
0,1211,0:14.280.490,79.100 us,2 B,,SP,55,Write Transaction,00 00
0,1212,0:14.285.841,91.200 us,2 B,,SP,55,Read Transaction,00 00*
0,1213,0:14.295.398,79.100 us,2 B,,SP,55,Write Transaction,00 00
0,1214,0:14.300.753,86.700 us,2 B,,SP,55,Read Transaction,00 08*
0,1215,0:14.306.123,79.100 us,2 B,,SP,55,Write Transaction,12 01
0,1216,0:14.311.476,1.184.400 ms,46 B,,SP,55,Read Transaction,00 90 FF A3 00 7E FC 2F 02 51 FB 02 51 78 15 E4 77 15 E3 6D 26 78 91 26 77 6F 00 02 4E 64 00 00 00 00 00 00 00 00 00 00 00 00 00 00 01 03*
0,1217,0:14.313.074,79.200 us,2 B,,SP,55,Write Transaction,00 00
0,1218,0:14.318.428,86.600 us,2 B,,SP,55,Read Transaction,00 00*
0,1219,0:14.327.368,79.100 us,2 B,,SP,55,Write Transaction,00 00
0,1220,0:14.332.717,87.000 us,2 B,,SP,55,Read Transaction,00 08*
0,1221,0:14.338.081,79.000 us,2 B,,SP,55,Write Transaction,12 01
0,1222,0:14.343.432,1.182.700 ms,46 B,,SP,55,Read Transaction,00 91 FF 9F 00 7D FC 33 02 54 B1 02 54 38 15 E5 A9 15 E4 A3 26 79 78 26 78 59 00 02 4E 64 00 00 00 00 00 00 00 00 00 00 00 00 00 00 01 03*
0,1223,0:14.346.068,79.100 us,2 B,,SP,55,Write Transaction,00 00
0,1224,0:14.351.425,86.600 us,2 B,,SP,55,Read Transaction,00 00*
0,1225,0:14.360.337,79.100 us,2 B,,SP,55,Write Transaction,00 00
0,1226,0:14.365.688,91.100 us,2 B,,SP,55,Read Transaction,00 00*
0,1227,0:14.375.462,79.100 us,2 B,,SP,55,Write Transaction,00 00
0,1228,0:14.380.816,86.600 us,2 B,,SP,55,Read Transaction,00 08*
0,1229,0:14.386.183,79.100 us,2 B,,SP,55,Write Transaction,12 01
0,1230,0:14.391.535,1.184.500 ms,46 B,,SP,55,Read Transaction,00 92 FF A4 00 7C FC 30 02 57 48 02 56 C2 15 E7 14 15 E6 02 26 7A 86 26 79 61 00 02 4E 64 00 00 00 00 00 00 00 00 00 00 00 00 00 00 01 03*
0,1231,0:14.393.132,79.200 us,2 B,,SP,55,Write Transaction,00 00
0,1232,0:14.398.489,86.600 us,2 B,,SP,55,Read Transaction,00 00*
0,1233,0:14.407.443,79.100 us,2 B,,SP,55,Write Transaction,00 00
0,1234,0:14.412.794,87.100 us,2 B,,SP,55,Read Transaction,00 08*
0,1235,0:14.418.158,79.100 us,2 B,,SP,55,Write Transaction,12 01
0,1236,0:14.423.510,1.184.000 ms,46 B,,SP,55,Read Transaction,00 93 FF 9F 00 7C FC 33 02 5B 1E 02 5A 9E 15 E8 FE 15 E7 EF 26 7B BF 26 7A 9C 00 02 4E 64 00 00 00 00 00 00 00 00 00 00 00 00 00 00 01 03*
0,1237,0:14.427.382,79.100 us,2 B,,SP,55,Write Transaction,00 00
0,1238,0:14.432.732,86.600 us,2 B,,SP,55,Read Transaction,00 00*
0,1239,0:14.440.401,79.000 us,2 B,,SP,55,Write Transaction,00 00
0,1240,0:14.445.751,91.200 us,2 B,,SP,55,Read Transaction,00 00*
0,1241,0:14.455.543,79.100 us,2 B,,SP,55,Write Transaction,00 00
0,1242,0:14.460.896,86.600 us,2 B,,SP,55,Read Transaction,00 08*
0,1243,0:14.466.263,79.100 us,2 B,,SP,55,Write Transaction,12 01
0,1244,0:14.471.612,1.182.700 ms,46 B,,SP,55,Read Transaction,00 94 FF A2 00 78 FC 32 02 5E 7D 02 5E 01 15 EA 6C 15 E9 60 26 7C CF 26 7B AB 00 02 4E 64 00 00 00 00 00 00 00 00 00 00 00 00 00 00 01 03*
0,1245,0:14.474.433,79.100 us,2 B,,SP,55,Write Transaction,00 00
0,1246,0:14.479.783,86.600 us,2 B,,SP,55,Read Transaction,00 00*
0,1247,0:14.487.523,79.100 us,2 B,,SP,55,Write Transaction,00 00
0,1248,0:14.492.874,87.100 us,2 B,,SP,55,Read Transaction,00 08*
0,1249,0:14.498.240,79.100 us,2 B,,SP,55,Write Transaction,12 01
0,1250,0:14.503.594,1.184.500 ms,46 B,,SP,55,Read Transaction,00 95 FF A0 00 7E FC 30 02 62 6B 02 61 E8 15 EC 3F 15 EB 31 26 7D D1 26 7C B1 00 02 4E 64 00 00 00 00 00 00 00 00 00 00 00 00 00 00 01 03*
0,1251,0:14.506.242,79.100 us,2 B,,SP,55,Write Transaction,00 00
0,1252,0:14.511.595,98.900 us,2 B,,SP,55,Read Transaction,00 00*
0,1253,0:14.520.475,79.200 us,2 B,,SP,55,Write Transaction,00 00
0,1254,0:14.525.826,91.100 us,2 B,,SP,55,Read Transaction,00 00*
0,1255,0:14.535.365,79.200 us,2 B,,SP,55,Write Transaction,00 00
0,1256,0:14.540.719,86.700 us,2 B,,SP,55,Read Transaction,00 08*
0,1257,0:14.546.091,79.100 us,2 B,,SP,55,Write Transaction,12 01
0,1258,0:14.551.443,1.183.000 ms,46 B,,SP,55,Read Transaction,00 96 FF A2 00 7B FC 33 02 65 98 02 65 16 15 ED 4F 15 EC 44 26 7E AE 26 7D 8E 00 02 4E 64 00 00 00 00 00 00 00 00 00 00 00 00 00 00 01 03*
0,1259,0:14.553.081,79.000 us,2 B,,SP,55,Write Transaction,00 00
0,1260,0:14.558.430,86.600 us,2 B,,SP,55,Read Transaction,00 00*
0,1261,0:14.567.347,79.000 us,2 B,,SP,55,Write Transaction,00 00
0,1262,0:14.572.706,87.200 us,2 B,,SP,55,Read Transaction,00 08*
0,1263,0:14.578.074,79.000 us,2 B,,SP,55,Write Transaction,12 01
0,1264,0:14.583.424,1.182.400 ms,46 B,,SP,55,Read Transaction,00 97 FF 9F 00 7A FC 2C 02 68 5B 02 67 DE 15 EE 51 15 ED 46 26 7F 5B 26 7E 3C 00 02 4E 64 00 00 00 00 00 00 00 00 00 00 00 00 00 00 01 03*
0,1265,0:14.586.076,79.100 us,2 B,,SP,55,Write Transaction,00 00
0,1266,0:14.591.428,86.600 us,2 B,,SP,55,Read Transaction,00 00*
0,1267,0:14.600.312,79.100 us,2 B,,SP,55,Write Transaction,00 00
0,1268,0:14.605.663,91.200 us,2 B,,SP,55,Read Transaction,00 00*
0,1269,0:14.616.548,79.100 us,2 B,,SP,55,Write Transaction,00 00
0,1270,0:14.621.903,86.700 us,2 B,,SP,55,Read Transaction,00 08*
0,1271,0:14.627.277,79.200 us,2 B,,SP,55,Write Transaction,12 01
0,1272,0:14.632.628,1.182.600 ms,46 B,,SP,55,Read Transaction,00 98 FF A4 00 7B FC 34 02 6B 2F 02 6A B6 15 EF 5B 15 EE 51 26 80 1B 26 7E FD 00 02 4E 64 00 00 00 00 00 00 00 00 00 00 00 00 00 00 01 03*
0,1273,0:14.634.211,79.000 us,2 B,,SP,55,Write Transaction,00 00
0,1274,0:14.639.557,86.500 us,2 B,,SP,55,Read Transaction,00 00*
0,1275,0:14.648.411,79.200 us,2 B,,SP,55,Write Transaction,00 00
0,1276,0:14.653.765,87.100 us,2 B,,SP,55,Read Transaction,00 08*
0,1277,0:14.659.130,79.100 us,2 B,,SP,55,Write Transaction,12 01
0,1278,0:14.664.479,1.182.500 ms,46 B,,SP,55,Read Transaction,00 99 FF A5 00 7C FC 28 02 6F 3F 02 6E BE 15 F1 CF 15 F0 C1 26 81 BB 26 80 9C 00 02 4E 64 00 00 00 00 00 00 00 00 00 00 00 00 00 00 01 03*
0,1279,0:14.668.452,79.000 us,2 B,,SP,55,Write Transaction,00 00
0,1280,0:14.673.802,86.600 us,2 B,,SP,55,Read Transaction,00 00*
0,1281,0:14.681.355,79.000 us,2 B,,SP,55,Write Transaction,00 00
0,1282,0:14.686.707,91.100 us,2 B,,SP,55,Read Transaction,00 00*
0,1283,0:14.696.506,79.000 us,2 B,,SP,55,Write Transaction,00 00
0,1284,0:14.701.857,86.600 us,2 B,,SP,55,Read Transaction,00 08*
0,1285,0:14.707.222,79.100 us,2 B,,SP,55,Write Transaction,12 01
0,1286,0:14.712.573,1.182.400 ms,46 B,,SP,55,Read Transaction,00 9A FF A0 00 80 FC 36 02 72 B4 02 72 3C 15 F3 1E 15 F2 0D 26 82 D6 26 81 B6 00 02 4E 64 00 00 00 00 00 00 00 00 00 00 00 00 00 00 01 03*
0,1287,0:14.714.166,79.000 us,2 B,,SP,55,Write Transaction,00 00
0,1288,0:14.719.517,86.600 us,2 B,,SP,55,Read Transaction,00 00*
0,1289,0:14.728.485,79.100 us,2 B,,SP,55,Write Transaction,00 00
0,1290,0:14.733.835,87.100 us,2 B,,SP,55,Read Transaction,00 08*
0,1291,0:14.739.202,79.000 us,2 B,,SP,55,Write Transaction,12 01
0,1292,0:14.744.549,1.182.600 ms,46 B,,SP,55,Read Transaction,00 9B FF A6 00 8F FC 40 02 75 E7 02 75 61 15 F4 E2 15 F3 D2 26 84 38 26 83 14 00 02 4E 64 00 00 00 00 00 00 00 00 00 00 00 00 00 00 01 03*
0,1293,0:14.747.237,79.100 us,2 B,,SP,55,Write Transaction,00 00
0,1294,0:14.752.585,86.500 us,2 B,,SP,55,Read Transaction,00 00*
0,1295,0:14.761.437,79.100 us,2 B,,SP,55,Write Transaction,00 00
0,1296,0:14.766.790,91.200 us,2 B,,SP,55,Read Transaction,00 00*
0,1297,0:14.776.338,79.100 us,2 B,,SP,55,Write Transaction,00 00
0,1298,0:14.781.693,86.600 us,2 B,,SP,55,Read Transaction,00 08*
0,1299,0:14.787.058,79.100 us,2 B,,SP,55,Write Transaction,12 01
0,1300,0:14.792.411,1.182.700 ms,46 B,,SP,55,Read Transaction,00 9C FF A5 00 79 FC 22 02 7A 20 02 79 AD 15 F7 5A 15 F6 49 26 85 9E 26 84 7C 00 02 4E 64 00 00 00 00 00 00 00 00 00 00 00 00 00 00 01 03*
0,1301,0:14.794.004,79.100 us,2 B,,SP,55,Write Transaction,00 00
0,1302,0:14.799.356,86.600 us,2 B,,SP,55,Read Transaction,00 00*
0,1303,0:14.808.306,79.200 us,2 B,,SP,55,Write Transaction,00 00
0,1304,0:14.813.656,87.000 us,2 B,,SP,55,Read Transaction,00 08*
0,1305,0:14.819.022,79.100 us,2 B,,SP,55,Write Transaction,12 01
0,1306,0:14.824.372,1.182.700 ms,46 B,,SP,55,Read Transaction,00 9D FF 9D 00 7F FC 3C 02 7C B1 02 7C 3B 15 F7 24 15 F6 13 26 85 A0 26 84 74 00 02 4E 64 00 00 00 00 00 00 00 00 00 00 00 00 00 00 01 03*
0,1307,0:14.828.240,79.100 us,2 B,,SP,55,Write Transaction,00 00
0,1308,0:14.833.590,86.600 us,2 B,,SP,55,Read Transaction,00 00*
0,1309,0:14.841.523,79.100 us,2 B,,SP,55,Write Transaction,00 00
0,1310,0:14.846.874,91.300 us,2 B,,SP,55,Read Transaction,00 00*
0,1311,0:14.856.408,79.000 us,2 B,,SP,55,Write Transaction,00 00
0,1312,0:14.861.759,86.600 us,2 B,,SP,55,Read Transaction,00 08*
0,1313,0:14.867.122,79.100 us,2 B,,SP,55,Write Transaction,12 01
0,1314,0:14.872.475,1.182.700 ms,46 B,,SP,55,Read Transaction,00 9E FF A4 00 80 FC 29 02 7E E2 02 7E 66 15 F7 E8 15 F6 D2 26 86 40 26 85 21 00 02 4E 64 00 00 00 00 00 00 00 00 00 00 00 00 00 00 01 03*
0,1315,0:14.875.303,79.100 us,2 B,,SP,55,Write Transaction,00 00
0,1316,0:14.880.659,86.600 us,2 B,,SP,55,Read Transaction,00 00*
0,1317,0:14.888.382,79.100 us,2 B,,SP,55,Write Transaction,00 00
0,1318,0:14.893.731,87.100 us,2 B,,SP,55,Read Transaction,00 08*
0,1319,0:14.899.097,79.000 us,2 B,,SP,55,Write Transaction,12 01
0,1320,0:14.904.447,1.182.700 ms,46 B,,SP,55,Read Transaction,00 9F FF A1 00 7D FC 2E 02 81 C9 02 81 4A 15 F8 CC 15 F7 BF 26 86 9F 26 85 7E 00 02 4E 64 00 00 00 00 00 00 00 00 00 00 00 00 00 00 01 03*
0,1321,0:14.907.081,79.100 us,2 B,,SP,55,Write Transaction,00 00
0,1322,0:14.912.433,86.600 us,2 B,,SP,55,Read Transaction,00 00*
0,1323,0:14.921.356,79.000 us,2 B,,SP,55,Write Transaction,00 00
0,1324,0:14.926.707,91.500 us,2 B,,SP,55,Read Transaction,00 00*
0,1325,0:14.936.489,79.100 us,2 B,,SP,55,Write Transaction,00 00
0,1326,0:14.941.840,86.600 us,2 B,,SP,55,Read Transaction,00 08*
0,1327,0:14.947.207,79.000 us,2 B,,SP,55,Write Transaction,12 01
0,1328,0:14.952.556,1.182.700 ms,46 B,,SP,55,Read Transaction,00 A0 FF A2 00 7B FC 31 02 7B 38 02 7A C1 15 F3 B4 15 F2 A9 26 83 A3 26 82 84 00 02 4E 64 00 00 00 00 00 00 00 00 00 00 00 00 00 00 01 03*
0,1329,0:14.954.138,79.100 us,2 B,,SP,55,Write Transaction,00 00
0,1330,0:14.959.492,86.600 us,2 B,,SP,55,Read Transaction,00 00*
0,1331,0:14.968.471,79.000 us,2 B,,SP,55,Write Transaction,00 00
0,1332,0:14.973.821,87.100 us,2 B,,SP,55,Read Transaction,00 08*
0,1333,0:14.979.186,79.100 us,2 B,,SP,55,Write Transaction,12 01
0,1334,0:14.984.537,1.184.300 ms,46 B,,SP,55,Read Transaction,00 A1 FF 9F 00 7F FC 2F 02 6C 60 02 6B E0 15 ED 46 15 EC 38 26 80 85 26 7F 65 00 02 4E 64 00 00 00 00 00 00 00 00 00 00 00 00 00 00 01 03*
0,1335,0:14.987.185,79.100 us,2 B,,SP,55,Write Transaction,00 00
0,1336,0:14.992.536,86.600 us,2 B,,SP,55,Read Transaction,00 00*
0,1337,0:15.001.411,79.100 us,2 B,,SP,55,Write Transaction,00 00
0,1338,0:15.006.760,91.200 us,2 B,,SP,55,Read Transaction,00 00*
0,1339,0:15.016.319,79.100 us,2 B,,SP,55,Write Transaction,00 00
0,1340,0:15.021.670,86.600 us,2 B,,SP,55,Read Transaction,00 08*
0,1341,0:15.027.036,79.100 us,2 B,,SP,55,Write Transaction,12 01
0,1342,0:15.032.386,1.182.600 ms,46 B,,SP,55,Read Transaction,00 A2 FF A3 00 80 FC 2A 02 5F 50 02 5E CD 15 E9 9B 15 E8 92 26 7F 04 26 7D EC 00 02 4E 64 00 00 00 00 00 00 00 00 00 00 00 00 00 00 01 03*
0,1343,0:15.034.031,79.100 us,2 B,,SP,55,Write Transaction,00 00
0,1344,0:15.039.379,86.700 us,2 B,,SP,55,Read Transaction,00 00*
0,1345,0:15.048.289,79.100 us,2 B,,SP,55,Write Transaction,00 00
0,1346,0:15.053.640,87.100 us,2 B,,SP,55,Read Transaction,00 08*
0,1347,0:15.059.004,79.100 us,2 B,,SP,55,Write Transaction,12 01
0,1348,0:15.064.354,1.182.400 ms,46 B,,SP,55,Read Transaction,00 A3 FF A2 00 7B FC 2F 02 58 AB 02 58 38 15 E8 79 15 E7 76 26 7E D6 26 7D BD 00 02 4E 64 00 00 00 00 00 00 00 00 00 00 00 00 00 00 01 03*
0,1349,0:15.068.222,79.000 us,2 B,,SP,55,Write Transaction,00 00
0,1350,0:15.073.574,86.600 us,2 B,,SP,55,Read Transaction,00 00*
0,1351,0:15.081.491,79.000 us,2 B,,SP,55,Write Transaction,00 00
0,1352,0:15.086.843,91.100 us,2 B,,SP,55,Read Transaction,00 00*
0,1353,0:15.096.379,79.000 us,2 B,,SP,55,Write Transaction,00 00
0,1354,0:15.101.728,86.600 us,2 B,,SP,55,Read Transaction,00 08*
0,1355,0:15.107.093,79.000 us,2 B,,SP,55,Write Transaction,12 01
0,1356,0:15.112.444,1.182.600 ms,46 B,,SP,55,Read Transaction,00 A4 FF A1 00 79 FC 36 02 54 4D 02 53 CC 15 E7 BA 15 E6 B4 26 7E D9 26 7D C2 00 02 4E 64 00 00 00 00 00 00 00 00 00 00 00 00 00 00 01 03*
0,1357,0:15.114.038,79.100 us,2 B,,SP,55,Write Transaction,00 00
0,1358,0:15.119.386,86.600 us,2 B,,SP,55,Read Transaction,00 00*
0,1359,0:15.128.372,79.200 us,2 B,,SP,55,Write Transaction,00 00
0,1360,0:15.133.726,87.100 us,2 B,,SP,55,Read Transaction,00 08*
0,1361,0:15.139.093,79.200 us,2 B,,SP,55,Write Transaction,12 01
0,1362,0:15.144.449,1.182.600 ms,46 B,,SP,55,Read Transaction,00 A5 FF A2 00 7D FC 31 02 51 99 02 51 20 15 E7 DD 15 E6 DC 26 7F 40 26 7E 23 00 02 4E 64 00 00 00 00 00 00 00 00 00 00 00 00 00 00 01 03*
0,1363,0:15.147.080,79.000 us,2 B,,SP,55,Write Transaction,00 00
0,1364,0:15.152.468,86.600 us,2 B,,SP,55,Read Transaction,00 00*
0,1365,0:15.161.324,79.100 us,2 B,,SP,55,Write Transaction,00 00
0,1366,0:15.166.676,91.100 us,2 B,,SP,55,Read Transaction,00 00*
0,1367,0:15.176.457,79.100 us,2 B,,SP,55,Write Transaction,00 00
0,1368,0:15.181.805,86.700 us,2 B,,SP,55,Read Transaction,00 08*
0,1369,0:15.187.176,79.000 us,2 B,,SP,55,Write Transaction,12 01
0,1370,0:15.192.527,1.182.600 ms,46 B,,SP,55,Read Transaction,00 A6 FF A0 00 7C FC 2E 02 53 26 02 52 A7 15 E9 B6 15 E8 B3 26 80 8B 26 7F 6D 00 02 4E 64 00 00 00 00 00 00 00 00 00 00 00 00 00 00 01 03*
0,1371,0:15.194.120,79.000 us,2 B,,SP,55,Write Transaction,00 00
0,1372,0:15.199.469,86.600 us,2 B,,SP,55,Read Transaction,00 00*
0,1373,0:15.208.448,79.000 us,2 B,,SP,55,Write Transaction,00 00
0,1374,0:15.213.800,87.000 us,2 B,,SP,55,Read Transaction,00 08*
0,1375,0:15.219.167,79.100 us,2 B,,SP,55,Write Transaction,12 01
0,1376,0:15.224.516,1.182.700 ms,46 B,,SP,55,Read Transaction,00 A7 FF A4 00 7E FC 2E 02 56 FB 02 56 86 15 EB AC 15 EA A6 26 81 D7 26 80 BC 00 02 4E 64 27 18 19 00 00 00 00 00 00 00 00 00 00 00 01 03*
0,1377,0:15.228.490,79.100 us,2 B,,SP,55,Write Transaction,00 00
0,1378,0:15.233.839,86.500 us,2 B,,SP,55,Read Transaction,00 00*
0,1379,0:15.241.392,79.000 us,2 B,,SP,55,Write Transaction,00 00
0,1380,0:15.246.744,91.200 us,2 B,,SP,55,Read Transaction,00 00*
0,1381,0:15.256.285,79.000 us,2 B,,SP,55,Write Transaction,00 00
0,1382,0:15.261.637,86.600 us,2 B,,SP,55,Read Transaction,00 08*
0,1383,0:15.267.003,79.200 us,2 B,,SP,55,Write Transaction,12 01
0,1384,0:15.272.361,1.184.300 ms,46 B,,SP,55,Read Transaction,00 A8 FF A0 00 7B FC 31 02 59 94 02 59 17 15 EC FB 15 EB EE 26 82 B4 26 81 95 00 02 4E 64 00 00 00 00 00 00 00 00 00 00 00 00 00 00 01 03*
0,1385,0:15.275.194,79.100 us,2 B,,SP,55,Write Transaction,00 00
0,1386,0:15.280.550,86.600 us,2 B,,SP,55,Read Transaction,00 00*
0,1387,0:15.288.277,79.100 us,2 B,,SP,55,Write Transaction,00 00
0,1388,0:15.293.624,87.100 us,2 B,,SP,55,Read Transaction,00 08*
0,1389,0:15.298.993,79.200 us,2 B,,SP,55,Write Transaction,12 01
0,1390,0:15.304.348,1.184.300 ms,46 B,,SP,55,Read Transaction,00 A9 FF A6 00 79 FC 27 02 5B CE 02 5B 4F 15 EE 25 15 ED 19 26 83 9B 26 82 7C 00 02 4E 64 00 00 00 00 00 00 00 00 00 00 00 00 00 00 01 03*
0,1391,0:15.307.040,79.200 us,2 B,,SP,55,Write Transaction,00 00
0,1392,0:15.312.397,86.600 us,2 B,,SP,55,Read Transaction,00 00*
0,1393,0:15.321.481,79.100 us,2 B,,SP,55,Write Transaction,00 00
0,1394,0:15.326.834,91.100 us,2 B,,SP,55,Read Transaction,00 00*
0,1395,0:15.336.366,79.100 us,2 B,,SP,55,Write Transaction,00 00
0,1396,0:15.341.717,86.600 us,2 B,,SP,55,Read Transaction,00 08*
0,1397,0:15.347.082,79.100 us,2 B,,SP,55,Write Transaction,12 01
0,1398,0:15.352.431,1.182.700 ms,46 B,,SP,55,Read Transaction,00 AA FF A1 00 79 FC 30 02 5E 64 02 5D E7 15 EF 42 15 EE 38 26 84 83 26 83 6A 00 02 4E 64 00 00 00 00 00 00 00 00 00 00 00 00 00 00 01 03*
0,1399,0:15.354.015,79.100 us,2 B,,SP,55,Write Transaction,00 00
0,1400,0:15.359.366,86.700 us,2 B,,SP,55,Read Transaction,00 00*
0,1401,0:15.368.350,79.100 us,2 B,,SP,55,Write Transaction,00 00
0,1402,0:15.373.698,87.100 us,2 B,,SP,55,Read Transaction,00 08*
0,1403,0:15.379.066,79.000 us,2 B,,SP,55,Write Transaction,12 01
0,1404,0:15.384.418,1.182.500 ms,46 B,,SP,55,Read Transaction,00 AB FF A3 00 7C FC 31 02 60 FE 02 60 84 15 F0 0A 15 EF 03 26 85 1E 26 83 FC 00 02 4E 64 00 00 00 00 00 00 00 00 00 00 00 00 00 00 01 03*
0,1405,0:15.387.064,79.100 us,2 B,,SP,55,Write Transaction,00 00
0,1406,0:15.392.414,86.600 us,2 B,,SP,55,Read Transaction,00 00*
0,1407,0:15.401.334,79.100 us,2 B,,SP,55,Write Transaction,00 00
0,1408,0:15.406.686,91.200 us,2 B,,SP,55,Read Transaction,00 00*
0,1409,0:15.416.444,79.100 us,2 B,,SP,55,Write Transaction,00 00
0,1410,0:15.421.796,86.600 us,2 B,,SP,55,Read Transaction,00 08*
0,1411,0:15.427.159,79.000 us,2 B,,SP,55,Write Transaction,12 01
0,1412,0:15.432.510,1.183.200 ms,46 B,,SP,55,Read Transaction,00 AC FF A8 00 76 FC 31 02 63 55 02 62 D6 15 F0 AB 15 EF 9E 26 85 97 26 84 74 00 02 4E 64 00 00 00 00 00 00 00 00 00 00 00 00 00 00 01 03*
0,1413,0:15.434.095,79.100 us,2 B,,SP,55,Write Transaction,00 00
0,1414,0:15.439.452,86.700 us,2 B,,SP,55,Read Transaction,00 00*
0,1415,0:15.448.426,79.100 us,2 B,,SP,55,Write Transaction,00 00
0,1416,0:15.453.776,87.100 us,2 B,,SP,55,Read Transaction,00 08*
0,1417,0:15.459.143,79.100 us,2 B,,SP,55,Write Transaction,12 01
0,1418,0:15.464.493,1.182.800 ms,46 B,,SP,55,Read Transaction,00 AD FF A3 00 7F FC 30 02 65 9D 02 65 21 15 F1 F1 15 F0 E3 26 86 7F 26 85 60 00 02 4E 64 00 00 00 00 00 00 00 00 00 00 00 00 00 00 01 03*
0,1419,0:15.467.313,79.100 us,2 B,,SP,55,Write Transaction,00 00
0,1420,0:15.472.664,86.600 us,2 B,,SP,55,Read Transaction,00 00*
0,1421,0:15.480.396,79.100 us,2 B,,SP,55,Write Transaction,00 00
0,1422,0:15.485.745,91.200 us,2 B,,SP,55,Read Transaction,00 00*
0,1423,0:15.495.295,79.100 us,2 B,,SP,55,Write Transaction,00 00
0,1424,0:15.500.647,86.600 us,2 B,,SP,55,Read Transaction,00 08*
0,1425,0:15.506.011,79.100 us,2 B,,SP,55,Write Transaction,12 01
0,1426,0:15.511.363,1.182.600 ms,46 B,,SP,55,Read Transaction,00 AE FF A4 00 80 FC 31 02 68 C1 02 68 39 15 F3 36 15 F2 24 26 87 5F 26 86 3B 00 02 4E 64 00 00 00 00 00 00 00 00 00 00 00 00 00 00 01 03*
0,1427,0:15.514.009,79.200 us,2 B,,SP,55,Write Transaction,00 00
0,1428,0:15.519.370,86.700 us,2 B,,SP,55,Read Transaction,00 00*
0,1429,0:15.528.492,79.100 us,2 B,,SP,55,Write Transaction,00 00
0,1430,0:15.533.844,87.000 us,2 B,,SP,55,Read Transaction,00 08*
0,1431,0:15.539.213,79.200 us,2 B,,SP,55,Write Transaction,12 01
0,1432,0:15.544.570,1.184.500 ms,46 B,,SP,55,Read Transaction,00 AF FF A8 00 78 FC 30 02 6B F7 02 6B 81 15 F4 AF 15 F3 9F 26 88 77 26 87 51 00 02 4E 64 00 00 00 00 00 00 00 00 00 00 00 00 00 00 01 03*
0,1433,0:15.546.156,79.200 us,2 B,,SP,55,Write Transaction,00 00
0,1434,0:15.551.513,86.600 us,2 B,,SP,55,Read Transaction,00 00*
0,1435,0:15.560.478,79.100 us,2 B,,SP,55,Write Transaction,00 00
0,1436,0:15.565.828,91.200 us,2 B,,SP,55,Read Transaction,00 00*
0,1437,0:15.575.378,79.000 us,2 B,,SP,55,Write Transaction,00 00
0,1438,0:15.580.729,86.600 us,2 B,,SP,55,Read Transaction,00 08*
0,1439,0:15.586.096,79.100 us,2 B,,SP,55,Write Transaction,12 01
0,1440,0:15.591.445,1.182.600 ms,46 B,,SP,55,Read Transaction,00 B0 FF A9 00 7D FC 30 02 6E A6 02 6E 2F 15 F5 67 15 F4 54 26 88 EC 26 87 C5 00 02 4E 64 00 00 00 00 00 00 00 00 00 00 00 00 00 00 01 03*
0,1441,0:15.594.205,79.100 us,2 B,,SP,55,Write Transaction,00 00
0,1442,0:15.599.556,86.700 us,2 B,,SP,55,Read Transaction,00 00*
0,1443,0:15.608.339,79.100 us,2 B,,SP,55,Write Transaction,00 00
0,1444,0:15.613.691,87.000 us,2 B,,SP,55,Read Transaction,00 08*
0,1445,0:15.619.056,79.100 us,2 B,,SP,55,Write Transaction,12 01
0,1446,0:15.624.408,1.182.800 ms,46 B,,SP,55,Read Transaction,00 B1 FF A4 00 7E FC 31 02 70 0B 02 6F 8E 15 F5 69 15 F4 57 26 89 22 26 88 03 00 02 4E 64 00 00 00 00 00 00 00 00 00 00 00 00 00 00 01 03*
0,1447,0:15.627.228,79.100 us,2 B,,SP,55,Write Transaction,00 00
0,1448,0:15.632.579,86.500 us,2 B,,SP,55,Read Transaction,00 00*
0,1449,0:15.640.312,79.100 us,2 B,,SP,55,Write Transaction,00 00
0,1450,0:15.645.663,91.200 us,2 B,,SP,55,Read Transaction,00 00*
0,1451,0:15.655.445,79.000 us,2 B,,SP,55,Write Transaction,00 00
0,1452,0:15.660.795,86.700 us,2 B,,SP,55,Read Transaction,00 08*
0,1453,0:15.666.162,79.100 us,2 B,,SP,55,Write Transaction,12 01
0,1454,0:15.671.512,1.182.700 ms,46 B,,SP,55,Read Transaction,00 B2 FF A1 00 81 FC 2F 02 72 0D 02 71 99 15 F6 3B 15 F5 2D 26 89 B3 26 88 90 00 02 4E 64 00 00 00 00 00 00 00 00 00 00 00 00 00 00 01 03*
0,1455,0:15.675.445,79.100 us,2 B,,SP,55,Write Transaction,00 00
0,1456,0:15.680.795,87.300 us,2 B,,SP,55,Read Transaction,00 00*
0,1457,0:15.688.395,79.000 us,2 B,,SP,55,Write Transaction,00 00
0,1458,0:15.693.748,87.100 us,2 B,,SP,55,Read Transaction,00 08*
0,1459,0:15.699.115,79.000 us,2 B,,SP,55,Write Transaction,12 01
0,1460,0:15.704.464,1.182.600 ms,46 B,,SP,55,Read Transaction,00 B3 FF A5 00 82 FC 36 02 74 71 02 73 F2 15 F7 49 15 F6 38 26 8A 53 26 89 35 00 02 4E 64 00 00 00 00 00 00 00 00 00 00 00 00 00 00 01 03*
0,1461,0:15.706.048,79.100 us,2 B,,SP,55,Write Transaction,00 00
0,1462,0:15.711.399,86.600 us,2 B,,SP,55,Read Transaction,00 00*
0,1463,0:15.720.393,79.200 us,2 B,,SP,55,Write Transaction,00 00
0,1464,0:15.725.748,91.200 us,2 B,,SP,55,Read Transaction,00 00*
0,1465,0:15.735.279,79.100 us,2 B,,SP,55,Write Transaction,00 00
0,1466,0:15.740.629,86.700 us,2 B,,SP,55,Read Transaction,00 08*
0,1467,0:15.745.996,79.100 us,2 B,,SP,55,Write Transaction,12 01
0,1468,0:15.751.345,1.182.700 ms,46 B,,SP,55,Read Transaction,00 B4 FF A1 00 7D FC 2E 02 76 D1 02 76 5A 15 F8 2B 15 F7 19 26 8A E5 26 89 C3 00 02 4E 64 00 00 00 00 00 00 00 00 00 00 00 00 00 00 01 03*
0,1469,0:15.753.980,79.100 us,2 B,,SP,55,Write Transaction,00 00
0,1470,0:15.759.330,86.700 us,2 B,,SP,55,Read Transaction,00 00*
0,1471,0:15.768.483,79.000 us,2 B,,SP,55,Write Transaction,00 00
0,1472,0:15.773.837,87.100 us,2 B,,SP,55,Read Transaction,00 08*
0,1473,0:15.779.204,79.100 us,2 B,,SP,55,Write Transaction,12 01
0,1474,0:15.784.554,1.182.800 ms,46 B,,SP,55,Read Transaction,00 B5 FF A1 00 7D FC 2E 02 79 4A 02 78 D3 15 F9 1E 15 F8 0C 26 8B 8F 26 8A 71 00 02 4E 64 00 00 00 00 00 00 00 00 00 00 00 00 00 00 01 03*
0,1475,0:15.786.149,79.100 us,2 B,,SP,55,Write Transaction,00 00
0,1476,0:15.791.502,86.600 us,2 B,,SP,55,Read Transaction,00 00*
0,1477,0:15.800.471,79.000 us,2 B,,SP,55,Write Transaction,00 00
0,1478,0:15.805.822,91.100 us,2 B,,SP,55,Read Transaction,00 00*
0,1479,0:15.815.363,79.100 us,2 B,,SP,55,Write Transaction,00 00
0,1480,0:15.820.718,86.600 us,2 B,,SP,55,Read Transaction,00 08*
0,1481,0:15.826.083,79.000 us,2 B,,SP,55,Write Transaction,12 01
0,1482,0:15.831.436,1.182.600 ms,46 B,,SP,55,Read Transaction,00 B6 FF A9 00 78 FC 33 02 7B F1 02 7B 75 15 FA 66 15 F9 55 26 8C 6F 26 8B 46 00 02 4E 64 00 00 00 00 00 00 00 00 00 00 00 00 00 00 01 03*
0,1483,0:15.834.069,79.100 us,2 B,,SP,55,Write Transaction,00 00
0,1484,0:15.839.424,86.600 us,2 B,,SP,55,Read Transaction,00 00*
0,1485,0:15.848.322,79.100 us,2 B,,SP,55,Write Transaction,00 00
0,1486,0:15.853.676,87.200 us,2 B,,SP,55,Read Transaction,00 08*
0,1487,0:15.859.044,79.100 us,2 B,,SP,55,Write Transaction,12 01
0,1488,0:15.864.394,1.182.600 ms,46 B,,SP,55,Read Transaction,00 B7 FF A6 00 82 FC 2C 02 7F 60 02 7E DF 15 FC 41 15 FB 34 26 8D 96 26 8C 77 00 02 4E 64 00 00 00 00 00 00 00 00 00 00 00 00 00 00 01 03*
0,1489,0:15.867.266,79.100 us,2 B,,SP,55,Write Transaction,00 00
0,1490,0:15.872.615,86.700 us,2 B,,SP,55,Read Transaction,00 00*
0,1491,0:15.880.290,79.200 us,2 B,,SP,55,Write Transaction,00 00
0,1492,0:15.885.642,91.200 us,2 B,,SP,55,Read Transaction,00 00*
0,1493,0:15.895.436,79.100 us,2 B,,SP,55,Write Transaction,00 00
0,1494,0:15.900.793,86.600 us,2 B,,SP,55,Read Transaction,00 08*
0,1495,0:15.906.157,79.100 us,2 B,,SP,55,Write Transaction,12 01
0,1496,0:15.911.507,1.182.600 ms,46 B,,SP,55,Read Transaction,00 B8 FF 9F 00 78 FC 32 02 7F 7F 02 7F 08 15 FA A6 15 F9 91 26 8C 79 26 8B 56 00 02 4E 64 00 00 00 00 00 00 00 00 00 00 00 00 00 00 01 03*
0,1497,0:15.915.386,79.100 us,2 B,,SP,55,Write Transaction,00 00
0,1498,0:15.920.738,87.400 us,2 B,,SP,55,Read Transaction,00 00*
0,1499,0:15.928.385,79.200 us,2 B,,SP,55,Write Transaction,00 00
0,1500,0:15.933.736,87.200 us,2 B,,SP,55,Read Transaction,00 08*
0,1501,0:15.939.108,79.100 us,2 B,,SP,55,Write Transaction,12 01
0,1502,0:15.944.459,1.182.600 ms,46 B,,SP,55,Read Transaction,00 B9 FF A7 00 81 FC 2F 02 75 E8 02 75 6E 15 F5 7E 15 F4 6E 26 89 9F 26 88 7E 00 02 4E 64 00 00 00 00 00 00 00 00 00 00 00 00 00 00 01 03*
0,1503,0:15.946.042,79.100 us,2 B,,SP,55,Write Transaction,00 00
0,1504,0:15.951.391,86.600 us,2 B,,SP,55,Read Transaction,00 00*
0,1505,0:15.960.380,79.000 us,2 B,,SP,55,Write Transaction,00 00
0,1506,0:15.965.732,91.300 us,2 B,,SP,55,Read Transaction,00 00*
0,1507,0:15.975.255,79.100 us,2 B,,SP,55,Write Transaction,00 00
0,1508,0:15.980.611,86.600 us,2 B,,SP,55,Read Transaction,00 08*
0,1509,0:15.985.974,79.100 us,2 B,,SP,55,Write Transaction,12 01
0,1510,0:15.991.323,1.183.300 ms,46 B,,SP,55,Read Transaction,00 BA FF A2 00 7E FC 34 02 67 99 02 67 15 15 F0 AF 15 EF 9F 26 87 A3 26 86 7E 00 02 4E 64 00 00 00 00 00 00 00 00 00 00 00 00 00 00 01 03*
0,1511,0:15.993.969,79.100 us,2 B,,SP,55,Write Transaction,00 00
0,1512,0:15.999.321,86.600 us,2 B,,SP,55,Read Transaction,00 00*
0,1513,0:16.008.466,79.100 us,2 B,,SP,55,Write Transaction,00 00
0,1514,0:16.013.817,87.100 us,2 B,,SP,55,Read Transaction,00 08*
0,1515,0:16.019.183,79.100 us,2 B,,SP,55,Write Transaction,12 01
0,1516,0:16.024.533,1.182.600 ms,46 B,,SP,55,Read Transaction,00 BB FF A3 00 7E FC 30 02 5E 0D 02 5D 8B 15 EE 51 15 ED 3C 26 86 E7 26 85 BE 00 02 4E 64 00 00 00 00 00 00 00 00 00 00 00 00 00 00 01 03*
0,1517,0:16.027.352,79.100 us,2 B,,SP,55,Write Transaction,00 00
0,1518,0:16.032.707,86.500 us,2 B,,SP,55,Read Transaction,00 00*
0,1519,0:16.040.436,79.100 us,2 B,,SP,55,Write Transaction,00 00
0,1520,0:16.045.786,91.200 us,2 B,,SP,55,Read Transaction,00 00*
0,1521,0:16.055.331,79.200 us,2 B,,SP,55,Write Transaction,00 00
0,1522,0:16.060.689,86.600 us,2 B,,SP,55,Read Transaction,00 08*
0,1523,0:16.066.061,79.100 us,2 B,,SP,55,Write Transaction,12 01
0,1524,0:16.071.414,1.182.700 ms,46 B,,SP,55,Read Transaction,00 BC FF A2 00 7B FC 33 02 59 4D 02 58 CA 15 ED 99 15 EC 8A 26 86 C1 26 85 9A 00 02 4E 64 00 00 00 00 00 00 00 00 00 00 00 00 00 00 01 03*
0,1525,0:16.075.294,79.100 us,2 B,,SP,55,Write Transaction,00 00
0,1526,0:16.080.645,87.300 us,2 B,,SP,55,Read Transaction,00 00*
0,1527,0:16.088.288,79.000 us,2 B,,SP,55,Write Transaction,00 00
0,1528,0:16.093.646,87.100 us,2 B,,SP,55,Read Transaction,00 08*
0,1529,0:16.099.015,79.100 us,2 B,,SP,55,Write Transaction,12 01
0,1530,0:16.104.370,1.184.300 ms,46 B,,SP,55,Read Transaction,00 BD FF 9E 00 80 FC 38 02 56 32 02 55 AF 15 ED 22 15 EC 13 26 86 DB 26 85 B4 00 02 4E 64 00 00 00 00 00 00 00 00 00 00 00 00 00 00 01 03*
0,1531,0:16.105.966,79.200 us,2 B,,SP,55,Write Transaction,00 00
0,1532,0:16.111.317,86.600 us,2 B,,SP,55,Read Transaction,00 00*
0,1533,0:16.120.282,79.100 us,2 B,,SP,55,Write Transaction,00 00
0,1534,0:16.125.632,91.100 us,2 B,,SP,55,Read Transaction,00 00*
0,1535,0:16.135.407,79.000 us,2 B,,SP,55,Write Transaction,00 00
0,1536,0:16.140.759,86.700 us,2 B,,SP,55,Read Transaction,00 08*
0,1537,0:16.146.126,79.100 us,2 B,,SP,55,Write Transaction,12 01
0,1538,0:16.151.476,1.182.700 ms,46 B,,SP,55,Read Transaction,00 BE FF 9E 00 7F FC 2E 02 55 C8 02 55 3C 15 ED E2 15 EC D7 26 87 80 26 86 5F 00 02 4E 64 00 00 00 00 00 00 00 00 00 00 00 00 00 00 01 03*
0,1539,0:16.154.214,79.100 us,2 B,,SP,55,Write Transaction,00 00
0,1540,0:16.159.565,86.600 us,2 B,,SP,55,Read Transaction,00 00*
0,1541,0:16.168.361,79.000 us,2 B,,SP,55,Write Transaction,00 00
0,1542,0:16.173.716,87.000 us,2 B,,SP,55,Read Transaction,00 08*
0,1543,0:16.179.082,79.000 us,2 B,,SP,55,Write Transaction,12 01
0,1544,0:16.184.433,1.182.600 ms,46 B,,SP,55,Read Transaction,00 BF FF 9E 00 7C FC 32 02 58 EC 02 58 6F 15 EF EE 15 EE E1 26 88 B9 26 87 94 00 02 4E 64 00 00 00 00 00 00 00 00 00 00 00 00 00 00 01 03*
0,1545,0:16.186.029,79.100 us,2 B,,SP,55,Write Transaction,00 00
0,1546,0:16.191.380,86.600 us,2 B,,SP,55,Read Transaction,00 00*
0,1547,0:16.200.349,79.100 us,2 B,,SP,55,Write Transaction,00 00
0,1548,0:16.205.698,91.200 us,2 B,,SP,55,Read Transaction,00 00*
0,1549,0:16.215.241,79.000 us,2 B,,SP,55,Write Transaction,00 00
0,1550,0:16.220.591,86.600 us,2 B,,SP,55,Read Transaction,00 08*
0,1551,0:16.225.958,79.100 us,2 B,,SP,55,Write Transaction,12 01
0,1552,0:16.231.309,1.182.600 ms,46 B,,SP,55,Read Transaction,00 C0 FF A1 00 7D FC 2F 02 5B DD 02 5B 58 15 F1 43 15 F0 31 26 89 92 26 88 6D 00 02 4E 64 00 00 00 00 00 00 00 00 00 00 00 00 00 00 01 03*
0,1553,0:16.234.003,79.000 us,2 B,,SP,55,Write Transaction,00 00
0,1554,0:16.239.352,86.600 us,2 B,,SP,55,Read Transaction,00 00*
0,1555,0:16.248.447,79.100 us,2 B,,SP,55,Write Transaction,00 00
0,1556,0:16.253.798,87.000 us,2 B,,SP,55,Read Transaction,00 08*
0,1557,0:16.259.164,79.100 us,2 B,,SP,55,Write Transaction,12 01
0,1558,0:16.264.516,1.182.700 ms,46 B,,SP,55,Read Transaction,00 C1 FF A3 00 7C FC 37 02 5C F2 02 5C 71 15 F1 B3 15 F0 9F 26 89 EA 26 88 C9 00 02 4E 64 27 5A 32 00 00 00 00 00 00 00 00 00 00 00 01 03*
0,1559,0:16.267.343,79.000 us,2 B,,SP,55,Write Transaction,00 00
0,1560,0:16.272.695,86.600 us,2 B,,SP,55,Read Transaction,00 00*
0,1561,0:16.280.419,79.000 us,2 B,,SP,55,Write Transaction,00 00
0,1562,0:16.285.774,91.100 us,2 B,,SP,55,Read Transaction,00 00*
0,1563,0:16.295.310,79.100 us,2 B,,SP,55,Write Transaction,00 00
0,1564,0:16.300.659,86.600 us,2 B,,SP,55,Read Transaction,00 08*
0,1565,0:16.306.025,79.100 us,2 B,,SP,55,Write Transaction,12 01
0,1566,0:16.311.374,1.182.800 ms,46 B,,SP,55,Read Transaction,00 C2 FF A5 00 7C FC 2F 02 5F 22 02 5E 9B 15 F3 15 15 F2 0A 26 8A FD 26 89 DC 00 02 4E 64 00 00 00 00 00 00 00 00 00 00 00 00 00 00 01 03*
0,1567,0:16.315.254,79.000 us,2 B,,SP,55,Write Transaction,00 00
0,1568,0:16.320.604,88.200 us,2 B,,SP,55,Read Transaction,00 00*
0,1569,0:16.328.280,79.000 us,2 B,,SP,55,Write Transaction,00 00
0,1570,0:16.333.633,87.000 us,2 B,,SP,55,Read Transaction,00 08*
0,1571,0:16.339.000,79.000 us,2 B,,SP,55,Write Transaction,12 01
0,1572,0:16.344.350,1.182.700 ms,46 B,,SP,55,Read Transaction,00 C3 FF A3 00 7D FC 2C 02 62 E1 02 62 61 15 F5 63 15 F4 50 26 8C 82 26 8B 61 00 02 4E 64 00 00 00 00 00 00 00 00 00 00 00 00 00 00 01 03*
0,1573,0:16.345.935,79.000 us,2 B,,SP,55,Write Transaction,00 00
0,1574,0:16.351.286,86.600 us,2 B,,SP,55,Read Transaction,00 00*
0,1575,0:16.360.267,79.100 us,2 B,,SP,55,Write Transaction,00 00
0,1576,0:16.365.619,91.100 us,2 B,,SP,55,Read Transaction,00 00*
0,1577,0:16.375.386,79.100 us,2 B,,SP,55,Write Transaction,00 00
0,1578,0:16.380.732,86.500 us,2 B,,SP,55,Read Transaction,00 08*
0,1579,0:16.386.098,79.100 us,2 B,,SP,55,Write Transaction,12 01
0,1580,0:16.391.450,1.182.800 ms,46 B,,SP,55,Read Transaction,00 C4 FF A4 00 80 FC 33 02 67 1F 02 66 9C 15 F7 44 15 F6 33 26 8D C5 26 8C A2 00 02 4E 64 00 00 00 00 00 00 00 00 00 00 00 00 00 00 01 03*
0,1581,0:16.394.093,79.100 us,2 B,,SP,55,Write Transaction,00 00
0,1582,0:16.399.447,86.600 us,2 B,,SP,55,Read Transaction,00 00*
0,1583,0:16.408.359,79.000 us,2 B,,SP,55,Write Transaction,00 00
0,1584,0:16.413.710,87.100 us,2 B,,SP,55,Read Transaction,00 08*
0,1585,0:16.419.076,79.100 us,2 B,,SP,55,Write Transaction,12 01
0,1586,0:16.424.426,1.182.800 ms,46 B,,SP,55,Read Transaction,00 C5 FF A3 00 7E FC 2F 02 6B 7D 02 6A FB 15 F9 4F 15 F8 3F 26 8F 1C 26 8D F3 00 02 4E 64 00 00 00 00 00 00 00 00 00 00 00 00 00 00 01 03*
0,1587,0:16.427.299,79.100 us,2 B,,SP,55,Write Transaction,00 00
0,1588,0:16.432.651,86.700 us,2 B,,SP,55,Read Transaction,00 00*
0,1589,0:16.440.342,79.200 us,2 B,,SP,55,Write Transaction,00 00
0,1590,0:16.445.697,90.800 us,2 B,,SP,55,Read Transaction,00 00*
0,1591,0:16.455.466,79.100 us,2 B,,SP,55,Write Transaction,00 00
0,1592,0:16.460.818,86.600 us,2 B,,SP,55,Read Transaction,00 08*
0,1593,0:16.466.183,79.000 us,2 B,,SP,55,Write Transaction,12 01
0,1594,0:16.471.532,1.182.700 ms,46 B,,SP,55,Read Transaction,00 C6 FF A8 00 7D FC 2F 02 6F C8 02 6F 4B 15 FB 49 15 FA 3A 26 90 68 26 8F 44 00 02 4E 64 00 00 00 00 00 00 00 00 00 00 00 00 00 00 01 03*
0,1595,0:16.475.415,79.100 us,2 B,,SP,55,Write Transaction,00 00
0,1596,0:16.480.767,90.900 us,2 B,,SP,55,Read Transaction,00 00*
0,1597,0:16.488.436,79.100 us,2 B,,SP,55,Write Transaction,00 00
0,1598,0:16.493.786,86.600 us,2 B,,SP,55,Read Transaction,00 08*
0,1599,0:16.499.151,79.000 us,2 B,,SP,55,Write Transaction,12 01
0,1600,0:16.504.503,1.182.700 ms,46 B,,SP,55,Read Transaction,00 C7 FF A7 00 7A FC 2F 02 74 89 02 74 0C 15 FD 89 15 FC 77 26 91 E6 26 90 BE 00 02 4E 64 00 00 00 00 00 00 00 00 00 00 00 00 00 00 01 03*
0,1601,0:16.506.088,79.100 us,2 B,,SP,55,Write Transaction,00 00
0,1602,0:16.511.438,86.600 us,2 B,,SP,55,Read Transaction,00 00*
0,1603,0:16.520.404,79.100 us,2 B,,SP,55,Write Transaction,00 00
0,1604,0:16.525.758,89.300 us,2 B,,SP,55,Read Transaction,00 00*
0,1605,0:16.535.293,79.000 us,2 B,,SP,55,Write Transaction,00 00
0,1606,0:16.540.644,86.600 us,2 B,,SP,55,Read Transaction,00 08*
0,1607,0:16.546.011,79.100 us,2 B,,SP,55,Write Transaction,12 01
0,1608,0:16.551.361,1.182.800 ms,46 B,,SP,55,Read Transaction,00 C8 FF A5 00 7D FC 2D 02 79 08 02 78 90 15 FF A4 15 FE 92 26 93 49 26 92 26 00 02 4E 64 00 00 00 00 00 00 00 00 00 00 00 00 00 00 01 03*
0,1609,0:16.553.996,79.100 us,2 B,,SP,55,Write Transaction,00 00
0,1610,0:16.559.348,86.600 us,2 B,,SP,55,Read Transaction,00 00*
0,1611,0:16.568.250,79.000 us,2 B,,SP,55,Write Transaction,00 00
0,1612,0:16.573.599,87.100 us,2 B,,SP,55,Read Transaction,00 08*
0,1613,0:16.578.969,79.100 us,2 B,,SP,55,Write Transaction,12 01
0,1614,0:16.584.321,1.182.700 ms,46 B,,SP,55,Read Transaction,00 C9 FF A4 00 7C FC 30 02 7D 2D 02 7C AD 16 01 89 16 00 7B 26 94 9D 26 93 7B 00 02 4E 64 00 00 00 00 00 00 00 00 00 00 00 00 00 00 01 03*
0,1615,0:16.585.915,79.000 us,2 B,,SP,55,Write Transaction,00 00
0,1616,0:16.591.266,86.600 us,2 B,,SP,55,Read Transaction,00 00*
0,1617,0:16.600.240,79.100 us,2 B,,SP,55,Write Transaction,00 00
0,1618,0:16.605.591,89.500 us,2 B,,SP,55,Read Transaction,00 00*
0,1619,0:16.615.364,79.100 us,2 B,,SP,55,Write Transaction,00 00
0,1620,0:16.620.716,86.600 us,2 B,,SP,55,Read Transaction,00 08*
0,1621,0:16.626.080,79.000 us,2 B,,SP,55,Write Transaction,12 01
0,1622,0:16.631.432,1.182.800 ms,46 B,,SP,55,Read Transaction,00 CA FF A5 00 7A FC 30 02 81 7B 02 80 F6 16 03 67 16 02 57 26 95 E6 26 94 C2 00 02 4E 64 00 00 00 00 00 00 00 00 00 00 00 00 00 00 01 03*
0,1623,0:16.634.067,79.100 us,2 B,,SP,55,Write Transaction,00 00
0,1624,0:16.639.419,87.200 us,2 B,,SP,55,Read Transaction,00 00*
0,1625,0:16.648.331,79.100 us,2 B,,SP,55,Write Transaction,00 00
0,1626,0:16.653.682,87.100 us,2 B,,SP,55,Read Transaction,00 08*
0,1627,0:16.659.047,79.000 us,2 B,,SP,55,Write Transaction,12 01
0,1628,0:16.664.399,1.184.500 ms,46 B,,SP,55,Read Transaction,00 CB FF A6 00 7C FC 33 02 85 38 02 84 BC 16 04 DC 16 03 C7 26 96 FD 26 95 D9 00 02 4E 64 00 00 00 00 00 00 00 00 00 00 00 00 00 00 01 03*
0,1629,0:16.667.223,79.200 us,2 B,,SP,55,Write Transaction,00 00
0,1630,0:16.672.579,86.600 us,2 B,,SP,55,Read Transaction,00 00*
0,1631,0:16.680.321,79.100 us,2 B,,SP,55,Write Transaction,00 00
0,1632,0:16.685.670,88.800 us,2 B,,SP,55,Read Transaction,00 00*
0,1633,0:16.695.455,79.100 us,2 B,,SP,55,Write Transaction,00 00
0,1634,0:16.700.806,86.600 us,2 B,,SP,55,Read Transaction,00 08*
0,1635,0:16.706.173,79.100 us,2 B,,SP,55,Write Transaction,12 01
0,1636,0:16.711.522,1.182.800 ms,46 B,,SP,55,Read Transaction,00 CC FF A4 00 7D FC 32 02 88 6D 02 87 EB 16 06 3F 16 05 33 26 97 F3 26 96 CE 00 02 4E 64 00 00 00 00 00 00 00 00 00 00 00 00 00 00 01 03*
0,1637,0:16.715.509,79.100 us,2 B,,SP,55,Write Transaction,00 00
0,1638,0:16.720.863,91.300 us,2 B,,SP,55,Read Transaction,00 00*
0,1639,0:16.729.386,79.200 us,2 B,,SP,55,Write Transaction,00 00
0,1640,0:16.734.739,86.600 us,2 B,,SP,55,Read Transaction,00 08*
0,1641,0:16.740.142,79.100 us,2 B,,SP,55,Write Transaction,12 01
0,1642,0:16.745.494,1.182.700 ms,46 B,,SP,55,Read Transaction,00 CD FF A7 00 79 FC 30 02 8B B9 02 8B 36 16 07 9F 16 06 8E 26 98 DA 26 97 BD 00 02 4E 64 00 00 00 00 00 00 00 00 00 00 00 00 00 00 01 03*
0,1643,0:16.747.078,79.000 us,2 B,,SP,55,Write Transaction,00 00
0,1644,0:16.752.431,86.700 us,2 B,,SP,55,Read Transaction,00 00*
0,1645,0:16.761.361,79.100 us,2 B,,SP,55,Write Transaction,00 00
0,1646,0:16.766.711,87.100 us,2 B,,SP,55,Read Transaction,00 08*
0,1647,0:16.772.080,79.200 us,2 B,,SP,55,Write Transaction,12 01
0,1648,0:16.777.433,1.182.900 ms,46 B,,SP,55,Read Transaction,00 CE FF A3 00 7B FC 36 02 8E FD 02 8E 7C 16 08 A8 16 07 9B 26 99 82 26 98 62 00 02 4E 64 00 00 00 00 00 00 00 00 00 00 00 00 00 00 01 03*
0,1649,0:16.781.313,79.100 us,2 B,,SP,55,Write Transaction,00 00
0,1650,0:16.786.664,86.600 us,2 B,,SP,55,Read Transaction,00 00*
0,1651,0:16.794.327,79.100 us,2 B,,SP,55,Write Transaction,00 00
0,1652,0:16.799.678,87.300 us,2 B,,SP,55,Read Transaction,00 00*
0,1653,0:16.809.468,79.000 us,2 B,,SP,55,Write Transaction,00 00
0,1654,0:16.814.821,87.100 us,2 B,,SP,55,Read Transaction,00 08*
0,1655,0:16.820.188,79.000 us,2 B,,SP,55,Write Transaction,12 01
0,1656,0:16.825.539,1.182.800 ms,46 B,,SP,55,Read Transaction,00 CF FF A7 00 7B FC 2B 02 92 B9 02 92 30 16 0A 90 16 09 81 26 9A D5 26 99 B4 00 02 4E 64 00 00 00 00 00 00 00 00 00 00 00 00 00 00 01 03*
0,1657,0:16.828.361,79.100 us,2 B,,SP,55,Write Transaction,00 00
0,1658,0:16.833.712,86.500 us,2 B,,SP,55,Read Transaction,00 00*
0,1659,0:16.841.445,79.100 us,2 B,,SP,55,Write Transaction,00 00
0,1660,0:16.846.797,87.100 us,2 B,,SP,55,Read Transaction,00 08*
0,1661,0:16.852.162,79.100 us,2 B,,SP,55,Write Transaction,12 01
0,1662,0:16.857.514,1.183.000 ms,46 B,,SP,55,Read Transaction,00 D0 FF A5 00 7E FC 31 02 95 09 02 94 83 16 0A E4 16 09 D5 26 9A BA 26 99 99 00 02 4E 64 00 00 00 00 00 00 00 00 00 00 00 00 00 00 01 03*
0,1663,0:16.859.094,79.100 us,2 B,,SP,55,Write Transaction,00 00
0,1664,0:16.864.451,86.600 us,2 B,,SP,55,Read Transaction,00 00*
0,1665,0:16.873.422,79.100 us,2 B,,SP,55,Write Transaction,00 00
0,1666,0:16.878.773,86.800 us,2 B,,SP,55,Read Transaction,00 00*
0,1667,0:16.888.322,79.100 us,2 B,,SP,55,Write Transaction,00 00
0,1668,0:16.893.673,87.100 us,2 B,,SP,55,Read Transaction,00 08*
0,1669,0:16.899.041,79.100 us,2 B,,SP,55,Write Transaction,12 01
0,1670,0:16.904.396,1.184.300 ms,46 B,,SP,55,Read Transaction,00 D1 FF A6 00 7F FC 30 02 8C D0 02 8C 48 16 05 38 16 04 27 26 97 C2 26 96 9B 00 02 4E 64 00 00 00 00 00 00 00 00 00 00 00 00 00 00 01 03*
0,1671,0:16.907.151,79.200 us,2 B,,SP,55,Write Transaction,00 00
0,1672,0:16.912.508,86.700 us,2 B,,SP,55,Read Transaction,00 00*
0,1673,0:16.921.264,79.100 us,2 B,,SP,55,Write Transaction,00 00
0,1674,0:16.926.616,88.400 us,2 B,,SP,55,Read Transaction,00 00*
0,1675,0:16.936.419,79.000 us,2 B,,SP,55,Write Transaction,00 00
0,1676,0:16.941.771,86.600 us,2 B,,SP,55,Read Transaction,00 08*
0,1677,0:16.947.136,79.000 us,2 B,,SP,55,Write Transaction,12 01
0,1678,0:16.952.487,1.182.600 ms,46 B,,SP,55,Read Transaction,00 D2 FF AA 00 7B FC 31 02 7F D5 02 7F 4C 16 00 30 15 FF 22 26 95 96 26 94 76 00 02 4E 64 00 00 00 00 00 00 00 00 00 00 00 00 00 00 01 03*
0,1679,0:16.954.070,79.100 us,2 B,,SP,55,Write Transaction,00 00
0,1680,0:16.959.423,87.400 us,2 B,,SP,55,Read Transaction,00 00*
0,1681,0:16.968.380,79.100 us,2 B,,SP,55,Write Transaction,00 00
0,1682,0:16.973.729,87.100 us,2 B,,SP,55,Read Transaction,00 08*
0,1683,0:16.979.096,79.100 us,2 B,,SP,55,Write Transaction,12 01
0,1684,0:16.984.445,1.182.600 ms,46 B,,SP,55,Read Transaction,00 D3 FF A7 00 7B FC 33 02 76 23 02 75 A3 15 FD BF 15 FC AE 26 94 D6 26 93 B7 00 02 4E 64 00 00 00 00 00 00 00 00 00 00 00 00 00 00 01 03*
0,1685,0:16.987.144,79.100 us,2 B,,SP,55,Write Transaction,00 00
0,1686,0:16.992.494,86.700 us,2 B,,SP,55,Read Transaction,00 00*
0,1687,0:17.001.347,79.100 us,2 B,,SP,55,Write Transaction,00 00
0,1688,0:17.006.700,87.000 us,2 B,,SP,55,Read Transaction,00 08*
0,1689,0:17.012.068,79.000 us,2 B,,SP,55,Write Transaction,12 01
0,1690,0:17.017.423,1.182.700 ms,46 B,,SP,55,Read Transaction,00 D4 FF A6 00 7F FC 30 02 70 F3 02 70 7B 15 FC B8 15 FB A9 26 94 BB 26 93 99 00 02 4E 64 00 00 00 00 00 00 00 00 00 00 00 00 00 00 01 03*
0,1691,0:17.020.243,79.100 us,2 B,,SP,55,Write Transaction,00 00
0,1692,0:17.025.594,86.700 us,2 B,,SP,55,Read Transaction,00 00*
0,1693,0:17.033.338,79.200 us,2 B,,SP,55,Write Transaction,00 00
0,1694,0:17.038.697,86.800 us,2 B,,SP,55,Read Transaction,00 00*
0,1695,0:17.048.219,79.100 us,2 B,,SP,55,Write Transaction,00 00
0,1696,0:17.053.569,87.100 us,2 B,,SP,55,Read Transaction,00 08*
0,1697,0:17.058.939,79.000 us,2 B,,SP,55,Write Transaction,12 01
0,1698,0:17.064.291,1.182.700 ms,46 B,,SP,55,Read Transaction,00 D5 FF A5 00 7D FC 30 02 6D C6 02 6D 4B 15 FC 68 15 FB 5A 26 94 EE 26 93 CA 00 02 4E 64 00 00 00 00 00 00 00 00 00 00 00 00 00 00 01 03*
0,1699,0:17.068.159,79.000 us,2 B,,SP,55,Write Transaction,00 00
0,1700,0:17.073.509,86.600 us,2 B,,SP,55,Read Transaction,00 00*
0,1701,0:17.081.438,79.000 us,2 B,,SP,55,Write Transaction,00 00
0,1702,0:17.086.790,87.100 us,2 B,,SP,55,Read Transaction,00 08*
0,1703,0:17.092.156,79.100 us,2 B,,SP,55,Write Transaction,12 01
0,1704,0:17.097.506,1.190.300 ms,46 B,,SP,55,Read Transaction,00 D6 FF A3 00 7E FC 2F 02 6B 82 02 6B 03 15 FC 37 15 FB 29 26 95 43 26 94 1D 00 02 4E 64 00 00 00 00 00 00 00 00 00 00 00 00 00 00 01 03*
0,1705,0:17.099.110,79.000 us,2 B,,SP,55,Write Transaction,00 00
0,1706,0:17.104.461,86.600 us,2 B,,SP,55,Read Transaction,00 00*
0,1707,0:17.114.225,79.100 us,2 B,,SP,55,Write Transaction,00 00
0,1708,0:17.119.577,89.200 us,2 B,,SP,55,Read Transaction,00 00*
0,1709,0:17.128.300,79.100 us,2 B,,SP,55,Write Transaction,00 00
0,1710,0:17.133.650,87.100 us,2 B,,SP,55,Read Transaction,00 08*
0,1711,0:17.139.024,79.200 us,2 B,,SP,55,Write Transaction,12 01
0,1712,0:17.144.383,1.182.900 ms,46 B,,SP,55,Read Transaction,00 D7 FF A7 00 7C FC 32 02 6C 56 02 6B D5 15 FD 8B 15 FC 7A 26 96 47 26 95 27 00 02 4E 64 00 00 00 00 00 00 00 00 00 00 00 00 00 00 01 03*
0,1713,0:17.147.017,79.100 us,2 B,,SP,55,Write Transaction,00 00
0,1714,0:17.152.368,86.600 us,2 B,,SP,55,Read Transaction,00 00*
0,1715,0:17.161.252,79.100 us,2 B,,SP,55,Write Transaction,00 00
0,1716,0:17.166.601,87.100 us,2 B,,SP,55,Read Transaction,00 08*
0,1717,0:17.171.968,79.100 us,2 B,,SP,55,Write Transaction,12 01
0,1718,0:17.177.318,1.182.600 ms,46 B,,SP,55,Read Transaction,00 D8 FF A3 00 7D FC 2E 02 6F D4 02 6F 64 15 FF 6B 15 FE 61 26 97 73 26 96 56 00 02 4E 64 00 00 00 00 00 00 00 00 00 00 00 00 00 00 01 03*
0,1719,0:17.180.201,79.100 us,2 B,,SP,55,Write Transaction,00 00
0,1720,0:17.185.551,86.600 us,2 B,,SP,55,Read Transaction,00 00*
0,1721,0:17.193.224,79.100 us,2 B,,SP,55,Write Transaction,00 00
0,1722,0:17.198.575,87.200 us,2 B,,SP,55,Read Transaction,00 00*
0,1723,0:17.208.375,79.000 us,2 B,,SP,55,Write Transaction,00 00
0,1724,0:17.213.733,87.000 us,2 B,,SP,55,Read Transaction,00 08*
0,1725,0:17.219.098,79.000 us,2 B,,SP,55,Write Transaction,12 01
0,1726,0:17.224.448,1.182.100 ms,46 B,,SP,55,Read Transaction,00 D9 FF A3 00 7B FC 33 02 72 13 02 71 96 16 00 21 15 FF 17 26 97 F0 26 96 D2 00 02 4E 64 00 00 00 00 00 00 00 00 00 00 00 00 00 00 01 03*
0,1727,0:17.228.315,79.000 us,2 B,,SP,55,Write Transaction,00 00
0,1728,0:17.233.685,86.600 us,2 B,,SP,55,Read Transaction,00 00*
0,1729,0:17.241.328,79.100 us,2 B,,SP,55,Write Transaction,00 00
0,1730,0:17.246.678,87.000 us,2 B,,SP,55,Read Transaction,00 08*
0,1731,0:17.252.049,79.100 us,2 B,,SP,55,Write Transaction,12 01
0,1732,0:17.257.402,1.182.700 ms,46 B,,SP,55,Read Transaction,00 DA FF A4 00 7F FC 30 02 73 C9 02 73 4E 16 00 D8 15 FF CD 26 98 80 26 97 62 00 02 4E 64 27 67 64 00 00 00 00 00 00 00 00 00 00 00 01 03*
0,1733,0:17.258.985,79.100 us,2 B,,SP,55,Write Transaction,00 00
0,1734,0:17.264.338,86.600 us,2 B,,SP,55,Read Transaction,00 00*
0,1735,0:17.273.307,79.100 us,2 B,,SP,55,Write Transaction,00 00
0,1736,0:17.278.658,87.200 us,2 B,,SP,55,Read Transaction,00 00*
0,1737,0:17.288.206,79.100 us,2 B,,SP,55,Write Transaction,00 00
0,1738,0:17.293.557,87.100 us,2 B,,SP,55,Read Transaction,00 08*
0,1739,0:17.298.922,79.100 us,2 B,,SP,55,Write Transaction,12 01
0,1740,0:17.304.273,1.182.600 ms,46 B,,SP,55,Read Transaction,00 DB FF A7 00 7C FC 2F 02 76 11 02 75 98 16 01 EA 16 00 DB 26 99 59 26 98 34 00 02 4E 64 00 00 00 00 00 00 00 00 00 00 00 00 00 00 01 03*
0,1741,0:17.306.917,79.100 us,2 B,,SP,55,Write Transaction,00 00
0,1742,0:17.312.273,86.700 us,2 B,,SP,55,Read Transaction,00 00*
0,1743,0:17.321.395,79.200 us,2 B,,SP,55,Write Transaction,00 00
0,1744,0:17.326.753,87.100 us,2 B,,SP,55,Read Transaction,00 08*
0,1745,0:17.332.126,79.200 us,2 B,,SP,55,Write Transaction,12 01
0,1746,0:17.337.483,1.182.800 ms,46 B,,SP,55,Read Transaction,00 DC FF A9 00 7A FC 2D 02 79 58 02 78 DC 16 03 C5 16 02 B6 26 9A 95 26 99 71 00 02 4E 64 00 00 00 00 00 00 00 00 00 00 00 00 00 00 01 03*
0,1747,0:17.339.066,79.100 us,2 B,,SP,55,Write Transaction,00 00
0,1748,0:17.344.418,86.600 us,2 B,,SP,55,Read Transaction,00 00*
0,1749,0:17.353.389,79.200 us,2 B,,SP,55,Write Transaction,00 00
0,1750,0:17.358.739,87.300 us,2 B,,SP,55,Read Transaction,00 00*
0,1751,0:17.368.276,79.000 us,2 B,,SP,55,Write Transaction,00 00
0,1752,0:17.373.627,87.100 us,2 B,,SP,55,Read Transaction,00 08*
0,1753,0:17.378.994,79.100 us,2 B,,SP,55,Write Transaction,12 01
0,1754,0:17.384.346,1.182.700 ms,46 B,,SP,55,Read Transaction,00 DD FF A8 00 7A FC 33 02 7D 5F 02 7C E2 16 05 D2 16 04 C6 26 9B E8 26 9A C0 00 02 4E 64 00 00 00 00 00 00 00 00 00 00 00 00 00 00 01 03*
0,1755,0:17.386.989,79.000 us,2 B,,SP,55,Write Transaction,00 00
0,1756,0:17.392.347,86.600 us,2 B,,SP,55,Read Transaction,00 00*
0,1757,0:17.401.240,79.000 us,2 B,,SP,55,Write Transaction,00 00
0,1758,0:17.406.591,87.100 us,2 B,,SP,55,Read Transaction,00 08*
0,1759,0:17.411.956,79.100 us,2 B,,SP,55,Write Transaction,12 01
0,1760,0:17.417.305,1.182.700 ms,46 B,,SP,55,Read Transaction,00 DE FF A7 00 80 FC 2D 02 81 C4 02 81 46 16 07 C7 16 06 B8 26 9D 36 26 9C 0C 00 02 4E 64 00 00 00 00 00 00 00 00 00 00 00 00 00 00 01 03*
0,1761,0:17.420.123,79.000 us,2 B,,SP,55,Write Transaction,00 00
0,1762,0:17.425.476,86.500 us,2 B,,SP,55,Read Transaction,00 00*
0,1763,0:17.433.226,79.100 us,2 B,,SP,55,Write Transaction,00 00
0,1764,0:17.438.575,87.300 us,2 B,,SP,55,Read Transaction,00 00*
0,1765,0:17.448.340,79.100 us,2 B,,SP,55,Write Transaction,00 00
0,1766,0:17.453.691,87.100 us,2 B,,SP,55,Read Transaction,00 08*
0,1767,0:17.459.059,79.200 us,2 B,,SP,55,Write Transaction,12 01
0,1768,0:17.464.410,1.182.500 ms,46 B,,SP,55,Read Transaction,00 DF FF A6 00 82 FC 32 02 85 A7 02 85 29 16 09 56 16 08 46 26 9E 38 26 9D 16 00 02 4E 64 00 00 00 00 00 00 00 00 00 00 00 00 00 00 01 03*
0,1769,0:17.468.434,79.100 us,2 B,,SP,55,Write Transaction,00 00
0,1770,0:17.473.784,86.600 us,2 B,,SP,55,Read Transaction,00 00*
0,1771,0:17.481.311,79.100 us,2 B,,SP,55,Write Transaction,00 00
0,1772,0:17.486.663,87.000 us,2 B,,SP,55,Read Transaction,00 08*
0,1773,0:17.492.029,79.100 us,2 B,,SP,55,Write Transaction,12 01
0,1774,0:17.497.382,1.184.400 ms,46 B,,SP,55,Read Transaction,00 E0 FF A6 00 79 FC 2F 02 88 E3 02 88 5B 16 0A 8D 16 09 7C 26 9E FE 26 9D DA 00 02 4E 64 00 00 00 00 00 00 00 00 00 00 00 00 00 00 01 03*
0,1775,0:17.498.980,79.200 us,2 B,,SP,55,Write Transaction,00 00
0,1776,0:17.504.332,86.500 us,2 B,,SP,55,Read Transaction,00 00*
0,1777,0:17.513.869,79.100 us,2 B,,SP,55,Write Transaction,00 00
0,1778,0:17.519.255,91.000 us,2 B,,SP,55,Read Transaction,00 00*
0,1779,0:17.528.433,79.100 us,2 B,,SP,55,Write Transaction,00 00
0,1780,0:17.533.784,86.900 us,2 B,,SP,55,Read Transaction,00 08*
0,1781,0:17.539.152,79.100 us,2 B,,SP,55,Write Transaction,12 01
0,1782,0:17.544.503,1.184.300 ms,46 B,,SP,55,Read Transaction,00 E1 FF A3 00 7E FC 2F 02 8C 34 02 8B AB 16 0B BB 16 0A A8 26 9F D2 26 9E B0 00 02 4E 64 00 00 00 00 00 00 00 00 00 00 00 00 00 00 01 03*
0,1783,0:17.547.196,79.000 us,2 B,,SP,55,Write Transaction,00 00
0,1784,0:17.552.546,86.600 us,2 B,,SP,55,Read Transaction,00 00*
0,1785,0:17.561.374,79.200 us,2 B,,SP,55,Write Transaction,00 00
0,1786,0:17.566.728,87.000 us,2 B,,SP,55,Read Transaction,00 08*
0,1787,0:17.572.094,79.100 us,2 B,,SP,55,Write Transaction,12 01
0,1788,0:17.577.443,1.182.500 ms,46 B,,SP,55,Read Transaction,00 E2 FF A4 00 7C FC 33 02 8E D5 02 8E 4C 16 0C 82 16 0B 73 26 A0 62 26 9F 3F 00 02 4E 64 00 00 00 00 00 00 00 00 00 00 00 00 00 00 01 03*
0,1789,0:17.580.283,79.100 us,2 B,,SP,55,Write Transaction,00 00
0,1790,0:17.585.632,86.600 us,2 B,,SP,55,Read Transaction,00 00*
0,1791,0:17.593.362,79.100 us,2 B,,SP,55,Write Transaction,00 00
0,1792,0:17.598.714,87.300 us,2 B,,SP,55,Read Transaction,00 00*
0,1793,0:17.608.274,79.100 us,2 B,,SP,55,Write Transaction,00 00
0,1794,0:17.613.622,87.100 us,2 B,,SP,55,Read Transaction,00 08*
0,1795,0:17.618.987,79.100 us,2 B,,SP,55,Write Transaction,12 01
0,1796,0:17.624.339,1.182.700 ms,46 B,,SP,55,Read Transaction,00 E3 FF A6 00 7A FC 2B 02 91 88 02 91 06 16 0D 8F 16 0C 80 26 A1 29 26 A0 08 00 02 4E 64 00 00 00 00 00 00 00 00 00 00 00 00 00 00 01 03*
0,1797,0:17.628.207,79.100 us,2 B,,SP,55,Write Transaction,00 00
0,1798,0:17.633.564,86.700 us,2 B,,SP,55,Read Transaction,00 00*
0,1799,0:17.641.206,79.100 us,2 B,,SP,55,Write Transaction,00 00
0,1800,0:17.646.558,87.100 us,2 B,,SP,55,Read Transaction,00 08*
0,1801,0:17.651.927,79.100 us,2 B,,SP,55,Write Transaction,12 01
0,1802,0:17.657.277,1.182.400 ms,46 B,,SP,55,Read Transaction,00 E4 FF A2 00 7E FC 2B 02 94 95 02 94 08 16 0E E9 16 0D D6 26 A2 17 26 A0 F6 00 02 44 64 00 00 00 00 00 00 00 00 00 00 00 00 00 00 01 03*
0,1803,0:17.658.860,79.100 us,2 B,,SP,55,Write Transaction,00 00
0,1804,0:17.664.213,86.600 us,2 B,,SP,55,Read Transaction,00 00*
0,1805,0:17.673.193,79.100 us,2 B,,SP,55,Write Transaction,00 00
0,1806,0:17.678.548,87.300 us,2 B,,SP,55,Read Transaction,00 00*
0,1807,0:17.688.328,79.200 us,2 B,,SP,55,Write Transaction,00 00
0,1808,0:17.693.678,98.700 us,2 B,,SP,55,Read Transaction,00 08*
0,1809,0:17.699.063,79.100 us,2 B,,SP,55,Write Transaction,12 01
0,1810,0:17.704.414,1.182.700 ms,46 B,,SP,55,Read Transaction,00 E5 FF A1 00 7C FC 34 02 96 C3 02 96 3A 16 0F 73 16 0E 5D 26 A2 6F 26 A1 4A 00 02 44 64 00 00 00 00 00 00 00 00 00 00 00 00 00 00 01 03*
0,1811,0:17.707.060,79.100 us,2 B,,SP,55,Write Transaction,00 00
0,1812,0:17.712.415,86.600 us,2 B,,SP,55,Read Transaction,00 00*
0,1813,0:17.721.280,79.100 us,2 B,,SP,55,Write Transaction,00 00
0,1814,0:17.726.630,87.200 us,2 B,,SP,55,Read Transaction,00 08*
0,1815,0:17.732.004,79.200 us,2 B,,SP,55,Write Transaction,12 01
0,1816,0:17.737.355,1.183.600 ms,46 B,,SP,55,Read Transaction,00 E6 FF A7 00 7C FC 2F 02 99 14 02 98 8D 16 10 3A 16 0F 28 26 A2 FB 26 A1 D7 00 02 44 64 00 00 00 00 00 00 00 00 00 00 00 00 00 00 01 03*
0,1817,0:17.738.995,79.100 us,2 B,,SP,55,Write Transaction,00 00
0,1818,0:17.744.346,86.600 us,2 B,,SP,55,Read Transaction,00 00*
0,1819,0:17.753.276,79.100 us,2 B,,SP,55,Write Transaction,00 00
0,1820,0:17.758.629,88.400 us,2 B,,SP,55,Read Transaction,00 00*
0,1821,0:17.768.410,79.100 us,2 B,,SP,55,Write Transaction,00 00
0,1822,0:17.773.760,87.000 us,2 B,,SP,55,Read Transaction,00 08*
0,1823,0:17.779.126,79.100 us,2 B,,SP,55,Write Transaction,12 01
0,1824,0:17.784.476,1.182.700 ms,46 B,,SP,55,Read Transaction,00 E7 FF A5 00 81 FC 30 02 9B 82 02 9A F8 16 11 29 16 10 19 26 A3 9D 26 A2 77 00 02 44 64 00 00 00 00 00 00 00 00 00 00 00 00 00 00 01 03*
0,1825,0:17.787.121,79.100 us,2 B,,SP,55,Write Transaction,00 00
0,1826,0:17.792.472,86.700 us,2 B,,SP,55,Read Transaction,00 00*
0,1827,0:17.801.376,79.100 us,2 B,,SP,55,Write Transaction,00 00
0,1828,0:17.806.725,87.100 us,2 B,,SP,55,Read Transaction,00 08*
0,1829,0:17.812.092,79.100 us,2 B,,SP,55,Write Transaction,12 01
0,1830,0:17.817.444,1.182.800 ms,46 B,,SP,55,Read Transaction,00 E8 FF A6 00 80 FC 31 02 9E 2B 02 9D A3 16 12 5D 16 11 4C 26 A4 5B 26 A3 34 00 02 44 64 00 00 00 00 00 00 00 00 00 00 00 00 00 00 01 03*
0,1831,0:17.820.263,79.000 us,2 B,,SP,55,Write Transaction,00 00
0,1832,0:17.825.615,86.600 us,2 B,,SP,55,Read Transaction,00 00*
0,1833,0:17.833.336,79.000 us,2 B,,SP,55,Write Transaction,00 00
0,1834,0:17.838.688,89.900 us,2 B,,SP,55,Read Transaction,00 00*
0,1835,0:17.848.240,79.100 us,2 B,,SP,55,Write Transaction,00 00
0,1836,0:17.853.593,87.000 us,2 B,,SP,55,Read Transaction,00 08*
0,1837,0:17.858.957,79.000 us,2 B,,SP,55,Write Transaction,12 01
0,1838,0:17.864.307,1.182.600 ms,46 B,,SP,55,Read Transaction,00 E9 FF A7 00 7D FC 30 02 9B C4 02 9B 3A 16 0F 87 16 0E 72 26 A2 61 26 A1 3C 00 02 44 64 00 00 00 00 00 00 00 00 00 00 00 00 00 00 01 03*
0,1839,0:17.868.176,79.000 us,2 B,,SP,55,Write Transaction,00 00
0,1840,0:17.873.528,86.600 us,2 B,,SP,55,Read Transaction,00 00*
0,1841,0:17.881.190,79.100 us,2 B,,SP,55,Write Transaction,00 00
0,1842,0:17.886.563,87.100 us,2 B,,SP,55,Read Transaction,00 08*
0,1843,0:17.891.937,79.200 us,2 B,,SP,55,Write Transaction,12 01
0,1844,0:17.897.290,1.182.600 ms,46 B,,SP,55,Read Transaction,00 EA FF A2 00 7E FC 31 02 8E C3 02 8E 40 16 09 87 16 08 74 26 9F 62 26 9E 3F 00 02 44 64 00 00 00 00 00 00 00 00 00 00 00 00 00 00 01 03*
0,1845,0:17.898.885,79.000 us,2 B,,SP,55,Write Transaction,00 00
0,1846,0:17.904.305,86.500 us,2 B,,SP,55,Read Transaction,00 00*
0,1847,0:17.913.547,79.100 us,2 B,,SP,55,Write Transaction,00 00
0,1848,0:17.918.897,90.700 us,2 B,,SP,55,Read Transaction,00 00*
0,1849,0:17.928.313,79.100 us,2 B,,SP,55,Write Transaction,00 00
0,1850,0:17.933.664,87.000 us,2 B,,SP,55,Read Transaction,00 08*
0,1851,0:17.939.051,79.100 us,2 B,,SP,55,Write Transaction,12 01
0,1852,0:17.944.401,1.182.700 ms,46 B,,SP,55,Read Transaction,00 EB FF A7 00 7E FC 30 02 80 5D 02 7F DB 16 05 3D 16 04 2E 26 9D 9C 26 9C 74 00 02 44 64 00 00 00 00 00 00 00 00 00 00 00 00 00 00 01 03*
0,1853,0:17.947.034,79.100 us,2 B,,SP,55,Write Transaction,00 00
0,1854,0:17.952.386,86.700 us,2 B,,SP,55,Read Transaction,00 00*
0,1855,0:17.961.276,79.100 us,2 B,,SP,55,Write Transaction,00 00
0,1856,0:17.966.628,87.100 us,2 B,,SP,55,Read Transaction,00 08*
0,1857,0:17.971.996,79.000 us,2 B,,SP,55,Write Transaction,12 01
0,1858,0:17.977.352,1.184.400 ms,46 B,,SP,55,Read Transaction,00 EC FF A4 00 7E FC 30 02 76 5F 02 75 EF 16 02 CB 16 01 B7 26 9C AC 26 9B 85 00 02 44 64 00 00 00 00 00 00 00 00 00 00 00 00 00 00 01 03*
0,1859,0:17.980.185,79.100 us,2 B,,SP,55,Write Transaction,00 00
0,1860,0:17.985.538,86.600 us,2 B,,SP,55,Read Transaction,00 00*
0,1861,0:17.993.256,79.100 us,2 B,,SP,55,Write Transaction,00 00
0,1862,0:17.998.606,91.000 us,2 B,,SP,55,Read Transaction,00 00*
0,1863,0:18.008.383,79.200 us,2 B,,SP,55,Write Transaction,00 00
0,1864,0:18.013.738,87.000 us,2 B,,SP,55,Read Transaction,00 08*
0,1865,0:18.019.104,79.100 us,2 B,,SP,55,Write Transaction,12 01
0,1866,0:18.024.454,1.182.800 ms,46 B,,SP,55,Read Transaction,00 ED FF A5 00 7C FC 2E 02 70 3A 02 6F C0 16 01 BC 16 00 A7 26 9C 55 26 9B 2F 00 02 44 64 00 00 00 00 00 00 00 00 00 00 00 00 00 00 01 03*
0,1867,0:18.028.429,79.100 us,2 B,,SP,55,Write Transaction,00 00
0,1868,0:18.033.781,86.600 us,2 B,,SP,55,Read Transaction,00 00*
0,1869,0:18.042.323,79.100 us,2 B,,SP,55,Write Transaction,00 00
0,1870,0:18.047.677,87.100 us,2 B,,SP,55,Read Transaction,00 08*
0,1871,0:18.053.077,79.100 us,2 B,,SP,55,Write Transaction,12 01
0,1872,0:18.058.430,1.182.700 ms,46 B,,SP,55,Read Transaction,00 EE FF A7 00 80 FC 2E 02 6B 96 02 6B 17 16 01 05 15 FF F6 26 9C 2F 26 9B 0B 00 02 44 64 00 00 00 00 00 00 00 00 00 00 00 00 00 00 01 03*
0,1873,0:18.060.014,79.200 us,2 B,,SP,55,Write Transaction,00 00
0,1874,0:18.065.370,86.500 us,2 B,,SP,55,Read Transaction,00 00*
0,1875,0:18.074.298,79.000 us,2 B,,SP,55,Write Transaction,00 00
0,1876,0:18.079.651,91.100 us,2 B,,SP,55,Read Transaction,00 00*
0,1877,0:18.089.205,79.100 us,2 B,,SP,55,Write Transaction,00 00
0,1878,0:18.094.556,86.700 us,2 B,,SP,55,Read Transaction,00 08*
0,1879,0:18.099.925,79.100 us,2 B,,SP,55,Write Transaction,12 01
0,1880,0:18.105.322,1.182.600 ms,46 B,,SP,55,Read Transaction,00 EF FF A5 00 79 FC 32 02 68 89 02 68 0B 16 00 73 15 FF 5F 26 9C 15 26 9A F2 00 02 44 64 00 00 00 00 00 00 00 00 00 00 00 00 00 00 01 03*
0,1881,0:18.107.968,79.100 us,2 B,,SP,55,Write Transaction,00 00
0,1882,0:18.113.324,86.700 us,2 B,,SP,55,Read Transaction,00 00*
0,1883,0:18.122.403,79.100 us,2 B,,SP,55,Write Transaction,00 00
0,1884,0:18.127.755,87.000 us,2 B,,SP,55,Read Transaction,00 08*
0,1885,0:18.133.121,79.100 us,2 B,,SP,55,Write Transaction,12 01
0,1886,0:18.138.472,1.182.700 ms,46 B,,SP,55,Read Transaction,00 F0 FF A8 00 7C FC 35 02 69 95 02 69 18 16 02 0F 16 00 FF 26 9D 3B 26 9C 18 00 02 44 64 00 00 00 00 00 00 00 00 00 00 00 00 00 00 01 03*
0,1887,0:18.140.056,79.000 us,2 B,,SP,55,Write Transaction,00 00
0,1888,0:18.145.409,86.600 us,2 B,,SP,55,Read Transaction,00 00*
0,1889,0:18.154.373,79.100 us,2 B,,SP,55,Write Transaction,00 00
0,1890,0:18.159.725,91.100 us,2 B,,SP,55,Read Transaction,00 00*
0,1891,0:18.169.261,79.000 us,2 B,,SP,55,Write Transaction,00 00
0,1892,0:18.174.614,86.600 us,2 B,,SP,55,Read Transaction,00 08*
0,1893,0:18.179.979,79.000 us,2 B,,SP,55,Write Transaction,12 01
0,1894,0:18.185.331,1.182.700 ms,46 B,,SP,55,Read Transaction,00 F1 FF A6 00 82 FC 30 02 6C B3 02 6C 36 16 03 9B 16 02 84 26 9E 25 26 9C FA 00 02 44 64 00 00 00 00 00 00 00 00 00 00 00 00 00 00 01 03*
0,1895,0:18.187.975,79.100 us,2 B,,SP,55,Write Transaction,00 00
0,1896,0:18.193.326,86.700 us,2 B,,SP,55,Read Transaction,00 00*
0,1897,0:18.202.236,79.000 us,2 B,,SP,55,Write Transaction,00 00
0,1898,0:18.207.584,87.000 us,2 B,,SP,55,Read Transaction,00 08*
0,1899,0:18.212.951,79.100 us,2 B,,SP,55,Write Transaction,12 01
0,1900,0:18.218.301,1.184.100 ms,46 B,,SP,55,Read Transaction,00 F2 FF A2 00 7A FC 31 02 6E BB 02 6E 3E 16 04 80 16 03 6F 26 9E A6 26 9D 7F 00 02 44 64 26 90 64 00 00 00 00 00 00 00 00 00 00 00 01 03*
0,1901,0:18.221.176,79.200 us,2 B,,SP,55,Write Transaction,00 00
0,1902,0:18.226.524,86.600 us,2 B,,SP,55,Read Transaction,00 00*
0,1903,0:18.234.220,79.000 us,2 B,,SP,55,Write Transaction,00 00
0,1904,0:18.239.572,91.100 us,2 B,,SP,55,Read Transaction,00 00*
0,1905,0:18.249.346,79.100 us,2 B,,SP,55,Write Transaction,00 00
0,1906,0:18.254.697,86.600 us,2 B,,SP,55,Read Transaction,00 08*
0,1907,0:18.260.067,79.200 us,2 B,,SP,55,Write Transaction,12 01
0,1908,0:18.265.420,1.183.200 ms,46 B,,SP,55,Read Transaction,00 F3 FF A6 00 7A FC 37 02 70 48 02 6F C7 16 05 31 16 04 1E 26 9F 4B 26 9E 22 00 02 4E 64 00 00 00 00 00 00 00 00 00 00 00 00 00 00 01 03*
0,1909,0:18.268.237,79.100 us,2 B,,SP,55,Write Transaction,00 00
0,1910,0:18.273.589,86.700 us,2 B,,SP,55,Read Transaction,00 00*
0,1911,0:18.281.321,79.100 us,2 B,,SP,55,Write Transaction,00 00
0,1912,0:18.286.671,87.100 us,2 B,,SP,55,Read Transaction,00 08*
0,1913,0:18.292.037,79.000 us,2 B,,SP,55,Write Transaction,12 01
0,1914,0:18.297.386,1.182.700 ms,46 B,,SP,55,Read Transaction,00 F4 FF A6 00 7A FC 30 02 72 B7 02 72 3D 16 06 62 16 05 4D 26 A0 11 26 9E E6 00 02 4E 64 00 00 00 00 00 00 00 00 00 00 00 00 00 00 01 03*
0,1915,0:18.300.084,79.100 us,2 B,,SP,55,Write Transaction,00 00
0,1916,0:18.305.436,86.600 us,2 B,,SP,55,Read Transaction,00 00*
0,1917,0:18.314.289,79.100 us,2 B,,SP,55,Write Transaction,00 00
0,1918,0:18.319.641,91.200 us,2 B,,SP,55,Read Transaction,00 00*
0,1919,0:18.329.175,79.000 us,2 B,,SP,55,Write Transaction,00 00
0,1920,0:18.334.525,86.600 us,2 B,,SP,55,Read Transaction,00 08*
0,1921,0:18.339.893,79.100 us,2 B,,SP,55,Write Transaction,12 01
0,1922,0:18.345.243,1.182.600 ms,46 B,,SP,55,Read Transaction,00 F5 FF A5 00 7E FC 32 02 76 06 02 75 8A 16 07 E9 16 06 D4 26 A1 12 26 9F ED 00 02 4E 64 00 00 00 00 00 00 00 00 00 00 00 00 00 00 01 03*
0,1923,0:18.346.826,79.100 us,2 B,,SP,55,Write Transaction,00 00
0,1924,0:18.352.176,86.600 us,2 B,,SP,55,Read Transaction,00 00*
0,1925,0:18.361.411,79.000 us,2 B,,SP,55,Write Transaction,00 00
0,1926,0:18.366.763,87.000 us,2 B,,SP,55,Read Transaction,00 08*
0,1927,0:18.372.133,79.100 us,2 B,,SP,55,Write Transaction,12 01
0,1928,0:18.377.492,1.184.300 ms,46 B,,SP,55,Read Transaction,00 F6 FF A7 00 7A FC 30 02 79 5E 02 78 E3 16 09 8E 16 08 7C 26 A2 36 26 A1 0F 00 02 4E 64 00 00 00 00 00 00 00 00 00 00 00 00 00 00 01 03*
0,1929,0:18.381.372,79.100 us,2 B,,SP,55,Write Transaction,00 00
0,1930,0:18.386.723,86.700 us,2 B,,SP,55,Read Transaction,00 00*
0,1931,0:18.394.404,79.100 us,2 B,,SP,55,Write Transaction,00 00
0,1932,0:18.399.752,91.400 us,2 B,,SP,55,Read Transaction,00 00*
0,1933,0:18.409.252,79.100 us,2 B,,SP,55,Write Transaction,00 00
0,1934,0:18.414.602,86.600 us,2 B,,SP,55,Read Transaction,00 08*
0,1935,0:18.419.966,79.000 us,2 B,,SP,55,Write Transaction,12 01
0,1936,0:18.425.317,1.182.500 ms,46 B,,SP,55,Read Transaction,00 F7 FF A0 00 80 FC 33 02 7D 2D 02 7C B1 16 0A F2 16 09 E9 26 A3 21 26 A1 FB 00 02 4E 64 00 00 00 00 00 00 00 00 00 00 00 00 00 00 01 03*
0,1937,0:18.428.135,79.100 us,2 B,,SP,55,Write Transaction,00 00
0,1938,0:18.433.486,86.600 us,2 B,,SP,55,Read Transaction,00 00*
0,1939,0:18.441.242,79.100 us,2 B,,SP,55,Write Transaction,00 00
0,1940,0:18.446.617,87.000 us,2 B,,SP,55,Read Transaction,00 08*
0,1941,0:18.451.983,79.100 us,2 B,,SP,55,Write Transaction,12 01
0,1942,0:18.457.333,1.182.500 ms,46 B,,SP,55,Read Transaction,00 F8 FF A3 00 7D FC 31 02 80 A5 02 80 1F 16 0C 79 16 0B 68 26 A4 09 26 A2 E3 00 02 4E 64 00 00 00 00 00 00 00 00 00 00 00 00 00 00 01 03*
0,1943,0:18.459.966,79.000 us,2 B,,SP,55,Write Transaction,00 00
0,1944,0:18.465.315,86.700 us,2 B,,SP,55,Read Transaction,00 00*
0,1945,0:18.474.192,79.100 us,2 B,,SP,55,Write Transaction,00 00
0,1946,0:18.479.541,91.100 us,2 B,,SP,55,Read Transaction,00 00*
0,1947,0:18.489.336,79.100 us,2 B,,SP,55,Write Transaction,00 00
0,1948,0:18.494.687,86.500 us,2 B,,SP,55,Read Transaction,00 08*
0,1949,0:18.500.057,79.200 us,2 B,,SP,55,Write Transaction,12 01
0,1950,0:18.505.408,1.182.300 ms,46 B,,SP,55,Read Transaction,00 F9 FF A6 00 7A FC 2A 02 84 56 02 83 D4 16 0D D9 16 0C C5 26 A4 F2 26 A3 C9 00 02 4E 64 00 00 00 00 00 00 00 00 00 00 00 00 00 00 01 03*
0,1951,0:18.507.002,79.000 us,2 B,,SP,55,Write Transaction,00 00
0,1952,0:18.512.354,86.600 us,2 B,,SP,55,Read Transaction,00 00*
0,1953,0:18.521.321,79.200 us,2 B,,SP,55,Write Transaction,00 00
0,1954,0:18.526.679,87.200 us,2 B,,SP,55,Read Transaction,00 08*
0,1955,0:18.532.043,79.100 us,2 B,,SP,55,Write Transaction,12 01
0,1956,0:18.537.394,1.184.200 ms,46 B,,SP,55,Read Transaction,00 FA FF A2 00 7B FC 2D 02 87 85 02 87 02 16 0F 1F 16 0E 0C 26 A5 D7 26 A4 B2 00 02 4E 64 00 00 00 00 00 00 00 00 00 00 00 00 00 00 01 03*
0,1957,0:18.540.031,79.200 us,2 B,,SP,55,Write Transaction,00 00
0,1958,0:18.545.384,86.600 us,2 B,,SP,55,Read Transaction,00 00*
0,1959,0:18.554.270,79.100 us,2 B,,SP,55,Write Transaction,00 00
0,1960,0:18.559.619,91.200 us,2 B,,SP,55,Read Transaction,00 00*
0,1961,0:18.569.180,79.100 us,2 B,,SP,55,Write Transaction,00 00
0,1962,0:18.574.530,86.600 us,2 B,,SP,55,Read Transaction,00 08*
0,1963,0:18.579.897,79.100 us,2 B,,SP,55,Write Transaction,12 01
0,1964,0:18.585.245,1.182.600 ms,46 B,,SP,55,Read Transaction,00 FB FF A1 00 81 FC 33 02 8B 51 02 8A DA 16 11 14 16 0F FE 26 A7 3F 26 A6 17 00 02 4E 64 00 00 00 00 00 00 00 00 00 00 00 00 00 00 01 03*
0,1965,0:18.586.852,79.000 us,2 B,,SP,55,Write Transaction,00 00
0,1966,0:18.592.203,86.600 us,2 B,,SP,55,Read Transaction,00 00*
0,1967,0:18.601.385,79.100 us,2 B,,SP,55,Write Transaction,00 00
0,1968,0:18.606.736,87.100 us,2 B,,SP,55,Read Transaction,00 08*
0,1969,0:18.612.100,79.200 us,2 B,,SP,55,Write Transaction,12 01
0,1970,0:18.617.455,1.184.400 ms,46 B,,SP,55,Read Transaction,00 FC FF A3 00 7D FC 2F 02 8F 90 02 8F 03 16 13 3C 16 12 27 26 A8 A7 26 A7 7E 00 02 4E 64 00 00 00 00 00 00 00 00 00 00 00 00 00 00 01 03*
0,1971,0:18.621.335,79.100 us,2 B,,SP,55,Write Transaction,00 00
0,1972,0:18.626.689,86.700 us,2 B,,SP,55,Read Transaction,00 00*
0,1973,0:18.634.350,79.100 us,2 B,,SP,55,Write Transaction,00 00
0,1974,0:18.639.702,91.100 us,2 B,,SP,55,Read Transaction,00 00*
0,1975,0:18.649.237,79.100 us,2 B,,SP,55,Write Transaction,00 00
0,1976,0:18.654.586,86.800 us,2 B,,SP,55,Read Transaction,00 08*
0,1977,0:18.659.954,79.000 us,2 B,,SP,55,Write Transaction,12 01
0,1978,0:18.665.305,1.183.700 ms,46 B,,SP,55,Read Transaction,00 FD FF A5 00 7C FC 33 02 93 A5 02 93 1E 16 15 3B 16 14 26 26 AA 05 26 A8 E3 00 02 4E 64 00 00 00 00 00 00 00 00 00 00 00 00 00 00 01 03*
0,1979,0:18.668.180,79.100 us,2 B,,SP,55,Write Transaction,00 00
0,1980,0:18.673.528,86.600 us,2 B,,SP,55,Read Transaction,00 00*
0,1981,0:18.681.208,79.200 us,2 B,,SP,55,Write Transaction,00 00
0,1982,0:18.686.566,87.100 us,2 B,,SP,55,Read Transaction,00 08*
0,1983,0:18.691.932,79.100 us,2 B,,SP,55,Write Transaction,12 01
0,1984,0:18.697.285,1.183.100 ms,46 B,,SP,55,Read Transaction,00 FE FF A6 00 7C FC 30 02 97 61 02 96 E0 16 16 B0 16 15 9B 26 AB 02 26 A9 E1 00 02 4E 64 00 00 00 00 00 00 00 00 00 00 00 00 00 00 01 03*
0,1985,0:18.699.930,79.100 us,2 B,,SP,55,Write Transaction,00 00
0,1986,0:18.705.283,86.600 us,2 B,,SP,55,Read Transaction,00 00*
0,1987,0:18.714.174,79.000 us,2 B,,SP,55,Write Transaction,00 00
0,1988,0:18.719.526,91.100 us,2 B,,SP,55,Read Transaction,00 00*
0,1989,0:18.729.316,79.100 us,2 B,,SP,55,Write Transaction,00 00
0,1990,0:18.734.665,86.500 us,2 B,,SP,55,Read Transaction,00 08*
0,1991,0:18.740.034,79.000 us,2 B,,SP,55,Write Transaction,12 01
0,1992,0:18.745.384,1.182.600 ms,46 B,,SP,55,Read Transaction,00 FF FF A5 00 81 FC 33 02 9A C9 02 9A 43 16 17 D3 16 16 C4 26 AB BC 26 AA 9B 00 02 4E 64 00 00 00 00 00 00 00 00 00 00 00 00 00 00 01 03*
0,1993,0:18.746.968,79.000 us,2 B,,SP,55,Write Transaction,00 00
0,1994,0:18.752.317,86.600 us,2 B,,SP,55,Read Transaction,00 00*
0,1995,0:18.761.292,79.200 us,2 B,,SP,55,Write Transaction,00 00
0,1996,0:18.766.651,87.100 us,2 B,,SP,55,Read Transaction,00 08*
0,1997,0:18.772.018,79.100 us,2 B,,SP,55,Write Transaction,12 01
0,1998,0:18.777.367,1.183.800 ms,46 B,,SP,55,Read Transaction,00 00 FF A3 00 7E FC 31 02 9D 75 02 9C F5 16 18 D3 16 17 C3 26 AC 8A 26 AB 67 00 02 4E 64 00 00 00 00 00 00 00 00 00 00 00 00 00 00 01 03*
0,1999,0:18.781.356,79.000 us,2 B,,SP,55,Write Transaction,00 00
0,2000,0:18.786.706,86.600 us,2 B,,SP,55,Read Transaction,00 00*
0,2001,0:18.794.254,79.200 us,2 B,,SP,55,Write Transaction,00 00
0,2002,0:18.799.610,91.100 us,2 B,,SP,55,Read Transaction,00 00*
0,2003,0:18.809.393,79.100 us,2 B,,SP,55,Write Transaction,00 00
0,2004,0:18.814.743,86.600 us,2 B,,SP,55,Read Transaction,00 08*
0,2005,0:18.820.107,79.100 us,2 B,,SP,55,Write Transaction,12 01
0,2006,0:18.825.458,1.182.600 ms,46 B,,SP,55,Read Transaction,00 01 FF A3 00 79 FC 30 02 A0 BF 02 A0 30 16 1A 11 16 19 02 26 AD 32 26 AC 14 00 02 4E 64 00 00 00 00 00 00 00 00 00 00 00 00 00 00 01 03*
0,2007,0:18.828.278,79.100 us,2 B,,SP,55,Write Transaction,00 00
0,2008,0:18.833.629,86.600 us,2 B,,SP,55,Read Transaction,00 00*
0,2009,0:18.841.360,79.200 us,2 B,,SP,55,Write Transaction,00 00
0,2010,0:18.846.709,87.100 us,2 B,,SP,55,Read Transaction,00 08*
0,2011,0:18.852.074,79.100 us,2 B,,SP,55,Write Transaction,12 01
0,2012,0:18.857.424,1.182.400 ms,46 B,,SP,55,Read Transaction,00 02 FF A2 00 83 FC 37 02 9D F0 02 9D 65 16 16 CE 16 15 B8 26 AB 20 26 A9 F9 00 02 4E 64 00 00 00 00 00 00 00 00 00 00 00 00 00 00 01 03*
0,2013,0:18.860.113,79.100 us,2 B,,SP,55,Write Transaction,00 00
0,2014,0:18.865.462,86.600 us,2 B,,SP,55,Read Transaction,00 00*
0,2015,0:18.874.331,79.100 us,2 B,,SP,55,Write Transaction,00 00
0,2016,0:18.879.683,91.100 us,2 B,,SP,55,Read Transaction,00 00*
0,2017,0:18.889.206,79.000 us,2 B,,SP,55,Write Transaction,00 00
0,2018,0:18.894.557,86.600 us,2 B,,SP,55,Read Transaction,00 08*
0,2019,0:18.899.922,79.100 us,2 B,,SP,55,Write Transaction,12 01
0,2020,0:18.905.272,1.182.600 ms,46 B,,SP,55,Read Transaction,00 03 FF AA 00 7F FC 30 02 91 3C 02 90 BD 16 10 DC 16 0F C8 26 A8 26 26 A7 02 00 02 4E 64 00 00 00 00 00 00 00 00 00 00 00 00 00 00 01 03*
0,2021,0:18.906.868,79.000 us,2 B,,SP,55,Write Transaction,00 00
0,2022,0:18.912.218,86.600 us,2 B,,SP,55,Read Transaction,00 00*
0,2023,0:18.921.195,79.100 us,2 B,,SP,55,Write Transaction,00 00
0,2024,0:18.926.543,87.100 us,2 B,,SP,55,Read Transaction,00 08*
0,2025,0:18.931.912,79.000 us,2 B,,SP,55,Write Transaction,12 01
0,2026,0:18.937.263,1.183.900 ms,46 B,,SP,55,Read Transaction,00 04 FF A5 00 82 FC 30 02 81 73 02 80 F4 16 0B 7F 16 0A 6D 26 A5 BE 26 A4 9B 00 02 4E 64 00 00 00 00 00 00 00 00 00 00 00 00 00 00 01 03*
0,2027,0:18.939.901,79.200 us,2 B,,SP,55,Write Transaction,00 00
0,2028,0:18.945.255,86.600 us,2 B,,SP,55,Read Transaction,00 00*
0,2029,0:18.954.186,79.100 us,2 B,,SP,55,Write Transaction,00 00
0,2030,0:18.959.539,91.200 us,2 B,,SP,55,Read Transaction,00 00*
0,2031,0:18.969.283,79.100 us,2 B,,SP,55,Write Transaction,00 00
0,2032,0:18.974.635,86.600 us,2 B,,SP,55,Read Transaction,00 08*
0,2033,0:18.980.000,79.100 us,2 B,,SP,55,Write Transaction,12 01
0,2034,0:18.985.355,1.182.700 ms,46 B,,SP,55,Read Transaction,00 05 FF A1 00 82 FC 32 02 76 12 02 75 92 16 08 90 16 07 7F 26 A4 8B 26 A3 6A 00 02 4E 64 00 00 00 00 00 00 00 00 00 00 00 00 00 00 01 03*
0,2035,0:18.986.949,79.100 us,2 B,,SP,55,Write Transaction,00 00
0,2036,0:18.992.300,86.700 us,2 B,,SP,55,Read Transaction,00 00*
0,2037,0:19.001.283,79.000 us,2 B,,SP,55,Write Transaction,00 00
0,2038,0:19.006.691,87.100 us,2 B,,SP,55,Read Transaction,00 08*
0,2039,0:19.012.061,79.100 us,2 B,,SP,55,Write Transaction,12 01
0,2040,0:19.017.417,1.183.200 ms,46 B,,SP,55,Read Transaction,00 06 FF A4 00 7F FC 30 02 6E A2 02 6E 20 16 06 D1 16 05 BE 26 A3 D0 26 A2 AD 00 02 4E 64 00 00 00 00 00 00 00 00 00 00 00 00 00 00 01 03*
0,2041,0:19.021.285,79.100 us,2 B,,SP,55,Write Transaction,00 00
0,2042,0:19.026.635,86.700 us,2 B,,SP,55,Read Transaction,00 00*
0,2043,0:19.034.241,79.200 us,2 B,,SP,55,Write Transaction,00 00
0,2044,0:19.039.593,91.100 us,2 B,,SP,55,Read Transaction,00 00*
0,2045,0:19.049.363,79.200 us,2 B,,SP,55,Write Transaction,00 00
0,2046,0:19.054.724,86.700 us,2 B,,SP,55,Read Transaction,00 08*
0,2047,0:19.060.097,79.100 us,2 B,,SP,55,Write Transaction,12 01
0,2048,0:19.065.448,1.184.400 ms,46 B,,SP,55,Read Transaction,00 07 FF A0 00 7F FC 36 02 68 C6 02 68 45 16 05 6C 16 04 5A 26 A3 49 26 A2 24 00 02 4E 64 00 00 00 00 00 00 00 00 00 00 00 00 00 00 01 03*
0,2049,0:19.068.271,79.000 us,2 B,,SP,55,Write Transaction,00 00
0,2050,0:19.073.623,86.600 us,2 B,,SP,55,Read Transaction,00 00*
0,2051,0:19.081.347,79.100 us,2 B,,SP,55,Write Transaction,00 00
0,2052,0:19.086.700,87.100 us,2 B,,SP,55,Read Transaction,00 08*
0,2053,0:19.092.063,79.100 us,2 B,,SP,55,Write Transaction,12 01
0,2054,0:19.097.415,1.184.400 ms,46 B,,SP,55,Read Transaction,00 08 FF A6 00 7D FC 2C 02 66 0D 02 65 8C 16 05 C1 16 04 B4 26 A3 B0 26 A2 8C 00 02 4E 64 00 00 00 00 00 00 00 00 00 00 00 00 00 00 01 03*
0,2055,0:19.100.062,79.000 us,2 B,,SP,55,Write Transaction,00 00
0,2056,0:19.105.412,86.500 us,2 B,,SP,55,Read Transaction,00 00*
0,2057,0:19.114.296,79.100 us,2 B,,SP,55,Write Transaction,00 00
0,2058,0:19.119.647,91.100 us,2 B,,SP,55,Read Transaction,00 00*
0,2059,0:19.129.208,79.100 us,2 B,,SP,55,Write Transaction,00 00
0,2060,0:19.134.565,86.700 us,2 B,,SP,55,Read Transaction,00 08*
0,2061,0:19.139.937,79.100 us,2 B,,SP,55,Write Transaction,12 01
0,2062,0:19.145.285,1.182.600 ms,46 B,,SP,55,Read Transaction,00 09 FF A3 00 7E FC 34 02 67 C2 02 67 44 16 07 70 16 06 5F 26 A4 CC 26 A3 A9 00 02 4E 64 00 00 00 00 00 00 00 00 00 00 00 00 00 00 01 03*
0,2063,0:19.146.869,79.100 us,2 B,,SP,55,Write Transaction,00 00
0,2064,0:19.152.219,86.600 us,2 B,,SP,55,Read Transaction,00 00*
0,2065,0:19.162.315,79.000 us,2 B,,SP,55,Write Transaction,00 00
0,2066,0:19.167.664,87.100 us,2 B,,SP,55,Read Transaction,00 08*
0,2067,0:19.173.030,79.000 us,2 B,,SP,55,Write Transaction,12 01
0,2068,0:19.178.381,1.184.300 ms,46 B,,SP,55,Read Transaction,00 0A FF A5 00 7C FC 30 02 6A B4 02 6A 31 16 08 F9 16 07 E5 26 A5 A8 26 A4 83 00 02 4E 64 00 00 00 00 00 00 00 00 00 00 00 00 00 00 01 03*
0,2069,0:19.181.027,79.100 us,2 B,,SP,55,Write Transaction,00 00
0,2070,0:19.186.380,86.600 us,2 B,,SP,55,Read Transaction,00 00*
0,2071,0:19.195.357,79.100 us,2 B,,SP,55,Write Transaction,00 00
0,2072,0:19.200.707,91.100 us,2 B,,SP,55,Read Transaction,00 00*
0,2073,0:19.210.250,79.000 us,2 B,,SP,55,Write Transaction,00 00
0,2074,0:19.215.603,86.700 us,2 B,,SP,55,Read Transaction,00 08*
0,2075,0:19.220.973,79.100 us,2 B,,SP,55,Write Transaction,12 01
0,2076,0:19.226.329,1.184.400 ms,46 B,,SP,55,Read Transaction,00 0B FF A5 00 7D FC 30 02 6C 4B 02 6B D0 16 09 CB 16 08 B4 26 A6 38 26 A5 0E 00 02 4E 64 25 9F 64 00 00 00 00 00 00 00 00 00 00 00 01 03*
0,2077,0:19.229.152,79.200 us,2 B,,SP,55,Write Transaction,00 00
0,2078,0:19.234.507,86.600 us,2 B,,SP,55,Read Transaction,00 00*
0,2079,0:19.242.234,79.000 us,2 B,,SP,55,Write Transaction,00 00
0,2080,0:19.247.585,87.000 us,2 B,,SP,55,Read Transaction,00 08*
0,2081,0:19.252.953,79.100 us,2 B,,SP,55,Write Transaction,12 01
0,2082,0:19.258.303,1.182.700 ms,46 B,,SP,55,Read Transaction,00 0C FF A8 00 7F FC 33 02 6E 11 02 6D 94 16 0A 9D 16 09 8A 26 A6 F0 26 A5 C8 00 02 4E 64 00 00 00 00 00 00 00 00 00 00 00 00 00 00 01 03*
0,2083,0:19.262.277,79.100 us,2 B,,SP,55,Write Transaction,00 00
0,2084,0:19.267.628,86.600 us,2 B,,SP,55,Read Transaction,00 00*
0,2085,0:19.275.183,79.200 us,2 B,,SP,55,Write Transaction,00 00
0,2086,0:19.280.537,91.200 us,2 B,,SP,55,Read Transaction,00 00*
0,2087,0:19.290.318,79.000 us,2 B,,SP,55,Write Transaction,00 00
0,2088,0:19.295.669,86.600 us,2 B,,SP,55,Read Transaction,00 08*
0,2089,0:19.301.036,79.100 us,2 B,,SP,55,Write Transaction,12 01
0,2090,0:19.306.386,1.182.800 ms,46 B,,SP,55,Read Transaction,00 0D FF A5 00 7D FC 31 02 70 92 02 70 15 16 0B AC 16 0A 9C 26 A7 96 26 A6 6D 00 02 4E 64 00 00 00 00 00 00 00 00 00 00 00 00 00 00 01 03*
0,2091,0:19.307.980,79.000 us,2 B,,SP,55,Write Transaction,00 00
0,2092,0:19.313.330,86.600 us,2 B,,SP,55,Read Transaction,00 00*
0,2093,0:19.322.315,79.100 us,2 B,,SP,55,Write Transaction,00 00
0,2094,0:19.327.664,87.100 us,2 B,,SP,55,Read Transaction,00 08*
0,2095,0:19.333.031,79.100 us,2 B,,SP,55,Write Transaction,12 01
0,2096,0:19.338.381,1.184.400 ms,46 B,,SP,55,Read Transaction,00 0E FF A5 00 7E FC 30 02 73 EA 02 73 6F 16 0D 45 16 0C 2A 26 A8 9B 26 A7 6E 00 02 4E 64 00 00 00 00 00 00 00 00 00 00 00 00 00 00 01 03*
0,2097,0:19.341.072,79.200 us,2 B,,SP,55,Write Transaction,00 00
0,2098,0:19.346.428,86.700 us,2 B,,SP,55,Read Transaction,00 00*
0,2099,0:19.355.258,79.200 us,2 B,,SP,55,Write Transaction,00 00
0,2100,0:19.360.618,91.300 us,2 B,,SP,55,Read Transaction,00 00*
0,2101,0:19.370.160,79.100 us,2 B,,SP,55,Write Transaction,00 00
0,2102,0:19.375.512,86.600 us,2 B,,SP,55,Read Transaction,00 08*
0,2103,0:19.380.876,79.000 us,2 B,,SP,55,Write Transaction,12 01
0,2104,0:19.386.226,1.182.600 ms,46 B,,SP,55,Read Transaction,00 0F FF A2 00 7F FC 2D 02 78 1D 02 77 A6 16 0F 5C 16 0E 47 26 A9 E4 26 A8 C1 00 02 4E 64 00 00 00 00 00 00 00 00 00 00 00 00 00 00 01 03*
0,2105,0:19.387.820,79.100 us,2 B,,SP,55,Write Transaction,00 00
0,2106,0:19.393.171,86.600 us,2 B,,SP,55,Read Transaction,00 00*
0,2107,0:19.402.150,79.100 us,2 B,,SP,55,Write Transaction,00 00
0,2108,0:19.407.499,87.100 us,2 B,,SP,55,Read Transaction,00 08*
0,2109,0:19.412.864,79.100 us,2 B,,SP,55,Write Transaction,12 01
0,2110,0:19.418.256,1.182.600 ms,46 B,,SP,55,Read Transaction,00 10 FF A3 00 7A FC 30 02 7B 7E 02 7A F6 16 10 65 16 0F 4F 26 AA 94 26 A9 6D 00 02 4E 64 00 00 00 00 00 00 00 00 00 00 00 00 00 00 01 03*
0,2111,0:19.422.124,79.000 us,2 B,,SP,55,Write Transaction,00 00
0,2112,0:19.427.475,86.600 us,2 B,,SP,55,Read Transaction,00 00*
0,2113,0:19.435.343,79.100 us,2 B,,SP,55,Write Transaction,00 00
0,2114,0:19.440.700,91.200 us,2 B,,SP,55,Read Transaction,00 00*
0,2115,0:19.450.230,79.100 us,2 B,,SP,55,Write Transaction,00 00
0,2116,0:19.455.582,86.600 us,2 B,,SP,55,Read Transaction,00 08*
0,2117,0:19.460.947,79.200 us,2 B,,SP,55,Write Transaction,12 01
0,2118,0:19.466.303,1.182.700 ms,46 B,,SP,55,Read Transaction,00 11 FF A2 00 7E FC 2D 02 7E 7B 02 7D F9 16 11 1A 16 10 05 26 AB 18 26 A9 F3 00 02 4E 64 00 00 00 00 00 00 00 00 00 00 00 00 00 00 01 03*
0,2119,0:19.469.121,79.000 us,2 B,,SP,55,Write Transaction,00 00
0,2120,0:19.474.473,86.600 us,2 B,,SP,55,Read Transaction,00 00*
0,2121,0:19.482.208,79.000 us,2 B,,SP,55,Write Transaction,00 00
0,2122,0:19.487.559,87.100 us,2 B,,SP,55,Read Transaction,00 08*
0,2123,0:19.492.928,79.100 us,2 B,,SP,55,Write Transaction,12 01
0,2124,0:19.498.279,1.182.700 ms,46 B,,SP,55,Read Transaction,00 12 FF A6 00 80 FC 33 02 81 13 02 80 93 16 11 DB 16 10 C8 26 AB 92 26 AA 6B 00 02 4E 64 00 00 00 00 00 00 00 00 00 00 00 00 00 00 01 03*
0,2125,0:19.500.926,79.100 us,2 B,,SP,55,Write Transaction,00 00
0,2126,0:19.506.276,86.600 us,2 B,,SP,55,Read Transaction,00 00*
0,2127,0:19.515.170,79.100 us,2 B,,SP,55,Write Transaction,00 00
0,2128,0:19.520.519,91.100 us,2 B,,SP,55,Read Transaction,00 00*
0,2129,0:19.530.317,79.000 us,2 B,,SP,55,Write Transaction,00 00
0,2130,0:19.535.666,86.600 us,2 B,,SP,55,Read Transaction,00 08*
0,2131,0:19.541.032,79.100 us,2 B,,SP,55,Write Transaction,12 01
0,2132,0:19.546.381,1.182.700 ms,46 B,,SP,55,Read Transaction,00 13 FF A4 00 7A FC 30 02 83 2E 02 82 AE 16 12 99 16 11 85 26 AC 1D 26 AA FB 00 02 4E 64 00 00 00 00 00 00 00 00 00 00 00 00 00 00 01 03*
0,2133,0:19.547.964,79.000 us,2 B,,SP,55,Write Transaction,00 00
0,2134,0:19.553.316,86.600 us,2 B,,SP,55,Read Transaction,00 00*
0,2135,0:19.562.292,79.000 us,2 B,,SP,55,Write Transaction,00 00
0,2136,0:19.567.643,87.100 us,2 B,,SP,55,Read Transaction,00 08*
0,2137,0:19.573.007,79.100 us,2 B,,SP,55,Write Transaction,12 01
0,2138,0:19.578.357,1.181.900 ms,46 B,,SP,55,Read Transaction,00 14 FF A5 00 7D FC 30 02 86 08 02 85 82 16 13 D8 16 12 C0 26 AD 05 26 AB DE 00 02 4E 64 00 00 00 00 00 00 00 00 00 00 00 00 00 00 01 03*
0,2139,0:19.581.000,79.100 us,2 B,,SP,55,Write Transaction,00 00
0,2140,0:19.586.351,86.600 us,2 B,,SP,55,Read Transaction,00 00*
0,2141,0:19.595.257,79.000 us,2 B,,SP,55,Write Transaction,00 00
0,2142,0:19.600.606,91.100 us,2 B,,SP,55,Read Transaction,00 00*
0,2143,0:19.610.130,79.100 us,2 B,,SP,55,Write Transaction,00 00
0,2144,0:19.615.481,86.600 us,2 B,,SP,55,Read Transaction,00 08*
0,2145,0:19.620.849,79.100 us,2 B,,SP,55,Write Transaction,12 01
0,2146,0:19.626.198,1.182.400 ms,46 B,,SP,55,Read Transaction,00 15 FF A3 00 80 FC 35 02 89 3B 02 88 AE 16 14 E6 16 13 CD 26 AD A0 26 AC 74 00 02 4E 64 00 00 00 00 00 00 00 00 00 00 00 00 00 00 01 03*
0,2147,0:19.629.027,79.100 us,2 B,,SP,55,Write Transaction,00 00
0,2148,0:19.634.378,86.600 us,2 B,,SP,55,Read Transaction,00 00*
0,2149,0:19.642.116,79.100 us,2 B,,SP,55,Write Transaction,00 00
0,2150,0:19.647.468,87.000 us,2 B,,SP,55,Read Transaction,00 08*
0,2151,0:19.652.832,79.100 us,2 B,,SP,55,Write Transaction,12 01
0,2152,0:19.658.183,1.182.600 ms,46 B,,SP,55,Read Transaction,00 16 FF A0 00 7E FC 31 02 8B 9A 02 8B 16 16 15 DE 16 14 C8 26 AE 5D 26 AD 30 00 02 4E 64 00 00 00 00 00 00 00 00 00 00 00 00 00 00 01 03*
0,2153,0:19.659.763,79.100 us,2 B,,SP,55,Write Transaction,00 00
0,2154,0:19.665.114,86.600 us,2 B,,SP,55,Read Transaction,00 00*
0,2155,0:19.674.352,79.100 us,2 B,,SP,55,Write Transaction,00 00
0,2156,0:19.679.700,91.200 us,2 B,,SP,55,Read Transaction,00 00*
0,2157,0:19.689.283,79.100 us,2 B,,SP,55,Write Transaction,00 00
0,2158,0:19.694.633,86.600 us,2 B,,SP,55,Read Transaction,00 08*
0,2159,0:19.699.998,79.000 us,2 B,,SP,55,Write Transaction,12 01
0,2160,0:19.705.347,1.194.100 ms,46 B,,SP,55,Read Transaction,00 17 FF A7 00 7F FC 32 02 8E 9B 02 8E 1E 16 17 22 16 16 09 26 AF 29 26 AD FF 00 02 4E 64 00 00 00 00 00 00 00 00 00 00 00 00 00 00 01 03*
0,2161,0:19.708.084,79.100 us,2 B,,SP,55,Write Transaction,00 00
0,2162,0:19.713.435,86.700 us,2 B,,SP,55,Read Transaction,00 00*
0,2163,0:19.722.189,79.200 us,2 B,,SP,55,Write Transaction,00 00
0,2164,0:19.727.543,87.100 us,2 B,,SP,55,Read Transaction,00 08*
0,2165,0:19.732.907,79.100 us,2 B,,SP,55,Write Transaction,12 01
0,2166,0:19.738.262,1.182.700 ms,46 B,,SP,55,Read Transaction,00 18 FF A0 00 82 FC 31 02 91 0F 02 90 8C 16 17 8E 16 16 76 26 AF 69 26 AE 3D 00 02 4E 64 00 00 00 00 00 00 00 00 00 00 00 00 00 00 01 03*
0,2167,0:19.739.846,79.100 us,2 B,,SP,55,Write Transaction,00 00
0,2168,0:19.745.197,86.600 us,2 B,,SP,55,Read Transaction,00 00*
0,2169,0:19.754.179,79.100 us,2 B,,SP,55,Write Transaction,00 00
0,2170,0:19.759.550,91.200 us,2 B,,SP,55,Read Transaction,00 00*
0,2171,0:19.769.318,79.000 us,2 B,,SP,55,Write Transaction,00 00
0,2172,0:19.774.667,86.600 us,2 B,,SP,55,Read Transaction,00 08*
0,2173,0:19.780.038,79.100 us,2 B,,SP,55,Write Transaction,12 01
0,2174,0:19.785.387,1.182.600 ms,46 B,,SP,55,Read Transaction,00 19 FF A7 00 7F FC 2C 02 93 72 02 92 EA 16 18 C5 16 17 AD 26 B0 38 26 AF 0B 00 02 4E 64 00 00 00 00 00 00 00 00 00 00 00 00 00 00 01 03*
0,2175,0:19.788.088,79.000 us,2 B,,SP,55,Write Transaction,00 00
0,2176,0:19.793.438,86.600 us,2 B,,SP,55,Read Transaction,00 00*
0,2177,0:19.802.266,79.000 us,2 B,,SP,55,Write Transaction,00 00
0,2178,0:19.807.617,87.000 us,2 B,,SP,55,Read Transaction,00 08*
0,2179,0:19.812.987,79.100 us,2 B,,SP,55,Write Transaction,12 01
0,2180,0:19.818.336,1.182.700 ms,46 B,,SP,55,Read Transaction,00 1A FF A5 00 80 FC 33 02 95 8F 02 95 0F 16 18 F8 16 17 E3 26 B0 21 26 AF 01 00 02 4E 64 00 00 00 00 00 00 00 00 00 00 00 00 00 00 01 03*
0,2181,0:19.821.158,79.100 us,2 B,,SP,55,Write Transaction,00 00
0,2182,0:19.826.508,86.600 us,2 B,,SP,55,Read Transaction,00 00*
0,2183,0:19.834.240,79.000 us,2 B,,SP,55,Write Transaction,00 00
0,2184,0:19.839.591,91.200 us,2 B,,SP,55,Read Transaction,00 00*
0,2185,0:19.849.146,79.100 us,2 B,,SP,55,Write Transaction,00 00
0,2186,0:19.854.495,86.600 us,2 B,,SP,55,Read Transaction,00 08*
0,2187,0:19.859.860,79.000 us,2 B,,SP,55,Write Transaction,12 01
0,2188,0:19.865.211,1.182.700 ms,46 B,,SP,55,Read Transaction,00 1B FF A5 00 7F FC 2F 02 8E 0C 02 8D 86 16 14 26 16 13 10 26 AD 64 26 AC 41 00 02 4E 64 00 00 00 00 00 00 00 00 00 00 00 00 00 00 01 03*
0,2189,0:19.869.079,79.100 us,2 B,,SP,55,Write Transaction,00 00
0,2190,0:19.874.430,86.600 us,2 B,,SP,55,Read Transaction,00 00*
0,2191,0:19.882.346,79.100 us,2 B,,SP,55,Write Transaction,00 00
0,2192,0:19.887.695,87.200 us,2 B,,SP,55,Read Transaction,00 08*
0,2193,0:19.893.062,79.100 us,2 B,,SP,55,Write Transaction,12 01
0,2194,0:19.898.411,1.182.600 ms,46 B,,SP,55,Read Transaction,00 1C FF A2 00 7E FC 2D 02 7F 2A 02 7E A8 16 0F 11 16 0D FF 26 AB 22 26 A9 F9 00 02 4E 64 00 00 00 00 00 00 00 00 00 00 00 00 00 00 01 03*
0,2195,0:19.900.061,79.000 us,2 B,,SP,55,Write Transaction,00 00
0,2196,0:19.905.408,86.600 us,2 B,,SP,55,Read Transaction,00 00*
0,2197,0:19.914.315,79.100 us,2 B,,SP,55,Write Transaction,00 00
0,2198,0:19.919.671,91.400 us,2 B,,SP,55,Read Transaction,00 00*
0,2199,0:19.929.224,79.100 us,2 B,,SP,55,Write Transaction,00 00
0,2200,0:19.934.573,86.700 us,2 B,,SP,55,Read Transaction,00 08*
0,2201,0:19.939.940,79.000 us,2 B,,SP,55,Write Transaction,12 01
0,2202,0:19.945.291,1.182.600 ms,46 B,,SP,55,Read Transaction,00 1D FF AA 00 7B FC 31 02 73 B7 02 73 3E 16 0C 6A 16 0B 5A 26 AA 2F 26 A9 0D 00 02 4E 64 00 00 00 00 00 00 00 00 00 00 00 00 00 00 01 03*
0,2203,0:19.947.925,79.100 us,2 B,,SP,55,Write Transaction,00 00
0,2204,0:19.953.276,86.600 us,2 B,,SP,55,Read Transaction,00 00*
0,2205,0:19.962.186,79.000 us,2 B,,SP,55,Write Transaction,00 00
0,2206,0:19.967.534,87.000 us,2 B,,SP,55,Read Transaction,00 08*
0,2207,0:19.972.900,79.000 us,2 B,,SP,55,Write Transaction,12 01
0,2208,0:19.978.258,1.182.400 ms,46 B,,SP,55,Read Transaction,00 1E FF A1 00 81 FC 30 02 6E AD 02 6E 2A 16 0B AC 16 0A 9B 26 A9 EC 26 A8 CB 00 02 4E 64 00 00 00 00 00 00 00 00 00 00 00 00 00 00 01 03*
0,2209,0:19.979.854,79.100 us,2 B,,SP,55,Write Transaction,00 00
0,2210,0:19.985.202,86.600 us,2 B,,SP,55,Read Transaction,00 00*
0,2211,0:19.994.157,79.100 us,2 B,,SP,55,Write Transaction,00 00
0,2212,0:19.999.509,91.100 us,2 B,,SP,55,Read Transaction,00 00*
0,2213,0:20.009.287,79.100 us,2 B,,SP,55,Write Transaction,00 00
0,2214,0:20.014.639,86.600 us,2 B,,SP,55,Read Transaction,00 08*
0,2215,0:20.020.004,79.000 us,2 B,,SP,55,Write Transaction,12 01
0,2216,0:20.025.355,1.182.600 ms,46 B,,SP,55,Read Transaction,00 1F FF A4 00 80 FC 32 02 6B 76 02 6A F8 16 0B 38 16 0A 26 26 A9 E1 26 A8 B7 00 02 4E 64 00 00 00 00 00 00 00 00 00 00 00 00 00 00 01 03*
0,2217,0:20.029.222,79.100 us,2 B,,SP,55,Write Transaction,00 00
0,2218,0:20.034.574,86.900 us,2 B,,SP,55,Read Transaction,00 00*
0,2219,0:20.042.255,79.100 us,2 B,,SP,55,Write Transaction,00 00
0,2220,0:20.047.604,87.100 us,2 B,,SP,55,Read Transaction,00 08*
0,2221,0:20.052.970,79.100 us,2 B,,SP,55,Write Transaction,12 01
0,2222,0:20.058.329,1.184.100 ms,46 B,,SP,55,Read Transaction,00 20 FF A4 00 7F FC 2E 02 6B BE 02 6B 3D 16 0C FF 16 0B EF 26 AB 57 26 AA 32 00 02 4E 64 00 00 00 00 00 00 00 00 00 00 00 00 00 00 01 03*
0,2223,0:20.059.915,79.000 us,2 B,,SP,55,Write Transaction,00 00
0,2224,0:20.065.262,86.600 us,2 B,,SP,55,Read Transaction,00 00*
0,2225,0:20.074.231,79.000 us,2 B,,SP,55,Write Transaction,00 00
0,2226,0:20.079.584,91.100 us,2 B,,SP,55,Read Transaction,00 00*
0,2227,0:20.089.118,79.100 us,2 B,,SP,55,Write Transaction,00 00
0,2228,0:20.094.470,86.700 us,2 B,,SP,55,Read Transaction,00 08*
0,2229,0:20.099.834,79.100 us,2 B,,SP,55,Write Transaction,12 01
0,2230,0:20.105.185,1.182.500 ms,46 B,,SP,55,Read Transaction,00 21 FF A4 00 7E FC 32 02 70 4A 02 6F D4 16 10 0D 16 0E FE 26 AD 5F 26 AC 3A 00 02 4E 64 00 00 00 00 00 00 00 00 00 00 00 00 00 00 01 03*
0,2231,0:20.107.831,79.000 us,2 B,,SP,55,Write Transaction,00 00
0,2232,0:20.113.182,86.600 us,2 B,,SP,55,Read Transaction,00 00*
0,2233,0:20.122.316,79.100 us,2 B,,SP,55,Write Transaction,00 00
0,2234,0:20.127.669,87.100 us,2 B,,SP,55,Read Transaction,00 08*
0,2235,0:20.133.033,79.000 us,2 B,,SP,55,Write Transaction,12 01
0,2236,0:20.138.385,1.182.800 ms,46 B,,SP,55,Read Transaction,00 22 FF A7 00 7E FC 34 02 75 15 02 74 99 16 12 17 16 11 06 26 AE 91 26 AD 6D 00 02 4E 64 00 00 00 00 00 00 00 00 00 00 00 00 00 00 01 03*
0,2237,0:20.139.978,79.200 us,2 B,,SP,55,Write Transaction,00 00
0,2238,0:20.145.338,86.700 us,2 B,,SP,55,Read Transaction,00 00*
0,2239,0:20.154.302,79.100 us,2 B,,SP,55,Write Transaction,00 00
0,2240,0:20.159.658,91.100 us,2 B,,SP,55,Read Transaction,00 00*
0,2241,0:20.169.196,79.100 us,2 B,,SP,55,Write Transaction,00 00
0,2242,0:20.174.548,86.600 us,2 B,,SP,55,Read Transaction,00 08*
0,2243,0:20.179.915,79.100 us,2 B,,SP,55,Write Transaction,12 01
0,2244,0:20.185.269,1.182.800 ms,46 B,,SP,55,Read Transaction,00 23 FF A8 00 82 FC 2D 02 78 66 02 77 ED 16 13 A7 16 12 96 26 AF A4 26 AE 7A 00 02 4E 64 26 95 64 00 00 00 00 00 00 00 00 00 00 00 01 03*
0,2245,0:20.187.913,79.100 us,2 B,,SP,55,Write Transaction,00 00
0,2246,0:20.193.266,86.600 us,2 B,,SP,55,Read Transaction,00 00*
0,2247,0:20.202.161,79.000 us,2 B,,SP,55,Write Transaction,00 00
0,2248,0:20.207.512,87.100 us,2 B,,SP,55,Read Transaction,00 08*
0,2249,0:20.212.877,79.100 us,2 B,,SP,55,Write Transaction,12 01
0,2250,0:20.218.228,1.182.500 ms,46 B,,SP,55,Read Transaction,00 24 FF A5 00 83 FC 2F 02 7B 0C 02 7A 8B 16 14 98 16 13 82 26 B0 81 26 AF 56 00 02 4E 64 00 00 00 00 00 00 00 00 00 00 00 00 00 00 01 03*
0,2251,0:20.221.045,79.100 us,2 B,,SP,55,Write Transaction,00 00
0,2252,0:20.226.398,86.600 us,2 B,,SP,55,Read Transaction,00 00*
0,2253,0:20.234.134,79.100 us,2 B,,SP,55,Write Transaction,00 00
0,2254,0:20.239.483,91.200 us,2 B,,SP,55,Read Transaction,00 00*
0,2255,0:20.249.289,79.100 us,2 B,,SP,55,Write Transaction,00 00
0,2256,0:20.254.641,86.700 us,2 B,,SP,55,Read Transaction,00 08*
0,2257,0:20.260.008,79.000 us,2 B,,SP,55,Write Transaction,12 01
0,2258,0:20.265.360,1.182.700 ms,46 B,,SP,55,Read Transaction,00 25 FF A1 00 85 FC 2C 02 7E D5 02 7E 5D 16 16 F2 16 15 D7 26 B2 27 26 B0 FF 00 02 58 64 00 00 00 00 00 00 00 00 00 00 00 00 00 00 01 03*
0,2259,0:20.269.333,79.100 us,2 B,,SP,55,Write Transaction,00 00
0,2260,0:20.274.683,87.300 us,2 B,,SP,55,Read Transaction,00 00*
0,2261,0:20.282.238,79.100 us,2 B,,SP,55,Write Transaction,00 00
0,2262,0:20.287.591,87.100 us,2 B,,SP,55,Read Transaction,00 08*
0,2263,0:20.292.957,79.100 us,2 B,,SP,55,Write Transaction,12 01
0,2264,0:20.298.311,1.182.700 ms,46 B,,SP,55,Read Transaction,00 26 FF A9 00 7B FC 34 02 84 71 02 83 F3 16 19 79 16 18 64 26 B3 C2 26 B2 99 00 02 58 64 00 00 00 00 00 00 00 00 00 00 00 00 00 00 01 03*
0,2265,0:20.299.906,79.100 us,2 B,,SP,55,Write Transaction,00 00
0,2266,0:20.305.259,86.600 us,2 B,,SP,55,Read Transaction,00 00*
0,2267,0:20.314.210,79.100 us,2 B,,SP,55,Write Transaction,00 00
0,2268,0:20.319.625,91.200 us,2 B,,SP,55,Read Transaction,00 00*
0,2269,0:20.329.116,79.000 us,2 B,,SP,55,Write Transaction,00 00
0,2270,0:20.334.466,86.600 us,2 B,,SP,55,Read Transaction,00 08*
0,2271,0:20.339.832,79.100 us,2 B,,SP,55,Write Transaction,12 01
0,2272,0:20.345.182,1.182.600 ms,46 B,,SP,55,Read Transaction,00 27 FF A7 00 7C FC 30 02 88 5E 02 87 DA 16 1B 06 16 19 F3 26 B4 C2 26 B3 A2 00 02 58 64 00 00 00 00 00 00 00 00 00 00 00 00 00 00 01 03*
0,2273,0:20.347.871,79.100 us,2 B,,SP,55,Write Transaction,00 00
0,2274,0:20.353.221,86.600 us,2 B,,SP,55,Read Transaction,00 00*
0,2275,0:20.362.305,79.100 us,2 B,,SP,55,Write Transaction,00 00
0,2276,0:20.367.657,87.100 us,2 B,,SP,55,Read Transaction,00 08*
0,2277,0:20.373.024,79.100 us,2 B,,SP,55,Write Transaction,12 01
0,2278,0:20.378.374,1.182.600 ms,46 B,,SP,55,Read Transaction,00 28 FF AA 00 81 FC 30 02 8C 88 02 8B FF 16 1C 41 16 1B 2C 26 B5 93 26 B4 70 00 02 58 64 00 00 00 00 00 00 00 00 00 00 00 00 00 00 01 03*
0,2279,0:20.379.968,79.000 us,2 B,,SP,55,Write Transaction,00 00
0,2280,0:20.385.319,86.600 us,2 B,,SP,55,Read Transaction,00 00*
0,2281,0:20.394.287,79.100 us,2 B,,SP,55,Write Transaction,00 00
0,2282,0:20.399.641,91.200 us,2 B,,SP,55,Read Transaction,00 00*
0,2283,0:20.409.173,79.100 us,2 B,,SP,55,Write Transaction,00 00
0,2284,0:20.414.523,86.700 us,2 B,,SP,55,Read Transaction,00 08*
0,2285,0:20.419.889,79.100 us,2 B,,SP,55,Write Transaction,12 01
0,2286,0:20.425.239,1.182.700 ms,46 B,,SP,55,Read Transaction,00 29 FF A6 00 81 FC 30 02 8F CD 02 8F 43 16 1D 6F 16 1C 5D 26 B6 6C 26 B5 48 00 02 58 64 00 00 00 00 00 00 00 00 00 00 00 00 00 00 01 03*
0,2287,0:20.429.106,79.000 us,2 B,,SP,55,Write Transaction,00 00
0,2288,0:20.434.481,87.300 us,2 B,,SP,55,Read Transaction,00 00*
0,2289,0:20.442.171,79.000 us,2 B,,SP,55,Write Transaction,00 00
0,2290,0:20.447.520,87.100 us,2 B,,SP,55,Read Transaction,00 08*
0,2291,0:20.452.886,79.000 us,2 B,,SP,55,Write Transaction,12 01
0,2292,0:20.458.235,1.183.000 ms,46 B,,SP,55,Read Transaction,00 2A FF A1 00 82 FC 35 02 93 3F 02 92 B7 16 1E 77 16 1D 61 26 B7 0F 26 B5 EC 00 02 58 64 00 00 00 00 00 00 00 00 00 00 00 00 00 00 01 03*
0,2293,0:20.461.109,79.100 us,2 B,,SP,55,Write Transaction,00 00
0,2294,0:20.466.459,86.500 us,2 B,,SP,55,Read Transaction,00 00*
0,2295,0:20.474.123,79.100 us,2 B,,SP,55,Write Transaction,00 00
0,2296,0:20.479.473,91.100 us,2 B,,SP,55,Read Transaction,00 00*
0,2297,0:20.489.258,79.200 us,2 B,,SP,55,Write Transaction,00 00
0,2298,0:20.494.649,86.700 us,2 B,,SP,55,Read Transaction,00 08*
0,2299,0:20.500.017,79.000 us,2 B,,SP,55,Write Transaction,12 01
0,2300,0:20.505.367,1.182.700 ms,46 B,,SP,55,Read Transaction,00 2B FF A4 00 7F FC 30 02 96 02 02 95 7D 16 1F BD 16 1E AB 26 B7 E9 26 B6 C7 00 02 58 64 00 00 00 00 00 00 00 00 00 00 00 00 00 00 01 03*
0,2301,0:20.508.013,79.000 us,2 B,,SP,55,Write Transaction,00 00
0,2302,0:20.513.365,86.700 us,2 B,,SP,55,Read Transaction,00 00*
0,2303,0:20.522.209,79.000 us,2 B,,SP,55,Write Transaction,00 00
0,2304,0:20.527.559,87.000 us,2 B,,SP,55,Read Transaction,00 08*
0,2305,0:20.532.925,79.000 us,2 B,,SP,55,Write Transaction,12 01
0,2306,0:20.538.275,1.182.700 ms,46 B,,SP,55,Read Transaction,00 2C FF A3 00 7A FC 2F 02 99 F1 02 99 67 16 21 87 16 20 70 26 B9 02 26 B7 E0 00 02 58 64 00 00 00 00 00 00 00 00 00 00 00 00 00 00 01 03*
0,2307,0:20.539.859,79.100 us,2 B,,SP,55,Write Transaction,00 00
0,2308,0:20.545.207,86.700 us,2 B,,SP,55,Read Transaction,00 00*
0,2309,0:20.554.191,79.200 us,2 B,,SP,55,Write Transaction,00 00
0,2310,0:20.559.545,91.100 us,2 B,,SP,55,Read Transaction,00 00*
0,2311,0:20.569.089,79.200 us,2 B,,SP,55,Write Transaction,00 00
0,2312,0:20.574.445,86.600 us,2 B,,SP,55,Read Transaction,00 08*
0,2313,0:20.579.809,79.100 us,2 B,,SP,55,Write Transaction,12 01
0,2314,0:20.585.159,1.182.400 ms,46 B,,SP,55,Read Transaction,00 2D FF A8 00 80 FC 35 02 9C D7 02 9C 4F 16 22 98 16 21 83 26 B9 DB 26 B8 B0 00 02 58 64 00 00 00 00 00 00 00 00 00 00 00 00 00 00 01 03*
0,2315,0:20.587.803,79.000 us,2 B,,SP,55,Write Transaction,00 00
0,2316,0:20.593.154,86.600 us,2 B,,SP,55,Read Transaction,00 00*
0,2317,0:20.602.287,79.100 us,2 B,,SP,55,Write Transaction,00 00
0,2318,0:20.607.636,87.100 us,2 B,,SP,55,Read Transaction,00 08*
0,2319,0:20.613.003,79.100 us,2 B,,SP,55,Write Transaction,12 01
0,2320,0:20.618.354,1.182.700 ms,46 B,,SP,55,Read Transaction,00 2E FF A5 00 7A FC 2F 02 A0 13 02 9F 89 16 23 DB 16 22 C4 26 BA B5 26 B9 89 00 02 58 64 00 00 00 00 00 00 00 00 00 00 00 00 00 00 01 03*
0,2321,0:20.621.173,79.100 us,2 B,,SP,55,Write Transaction,00 00
0,2322,0:20.626.524,86.600 us,2 B,,SP,55,Read Transaction,00 00*
0,2323,0:20.634.274,79.100 us,2 B,,SP,55,Write Transaction,00 00
0,2324,0:20.639.627,91.100 us,2 B,,SP,55,Read Transaction,00 00*
0,2325,0:20.649.173,79.000 us,2 B,,SP,55,Write Transaction,00 00
0,2326,0:20.654.525,86.700 us,2 B,,SP,55,Read Transaction,00 08*
0,2327,0:20.659.889,79.000 us,2 B,,SP,55,Write Transaction,12 01
0,2328,0:20.665.241,1.182.600 ms,46 B,,SP,55,Read Transaction,00 2F FF AE 00 7E FC 30 02 A3 B1 02 A3 21 16 25 3B 16 24 22 26 BB A0 26 BA 77 00 02 58 64 00 00 00 00 00 00 00 00 00 00 00 00 00 00 01 03*
0,2329,0:20.669.111,79.100 us,2 B,,SP,55,Write Transaction,00 00
0,2330,0:20.674.470,87.400 us,2 B,,SP,55,Read Transaction,00 00*
0,2331,0:20.682.116,79.000 us,2 B,,SP,55,Write Transaction,00 00
0,2332,0:20.687.469,87.100 us,2 B,,SP,55,Read Transaction,00 08*
0,2333,0:20.692.834,79.100 us,2 B,,SP,55,Write Transaction,12 01
0,2334,0:20.698.185,1.182.700 ms,46 B,,SP,55,Read Transaction,00 30 FF AD 00 7C FC 2F 02 A7 44 02 A6 B8 16 27 21 16 26 09 26 BC DB 26 BB B3 00 02 58 64 00 00 00 00 00 00 00 00 00 00 00 00 00 00 01 03*
0,2335,0:20.699.779,79.000 us,2 B,,SP,55,Write Transaction,00 00
0,2336,0:20.705.130,86.600 us,2 B,,SP,55,Read Transaction,00 00*
0,2337,0:20.714.091,79.000 us,2 B,,SP,55,Write Transaction,00 00
0,2338,0:20.719.441,91.100 us,2 B,,SP,55,Read Transaction,00 00*
0,2339,0:20.729.239,79.100 us,2 B,,SP,55,Write Transaction,00 00
0,2340,0:20.734.591,86.700 us,2 B,,SP,55,Read Transaction,00 08*
0,2341,0:20.739.957,79.100 us,2 B,,SP,55,Write Transaction,12 01
0,2342,0:20.745.307,1.182.500 ms,46 B,,SP,55,Read Transaction,00 31 FF A9 00 7C FC 30 02 AB 01 02 AA 72 16 28 62 16 27 4A 26 BD B7 26 BC 8E 00 02 58 64 00 00 00 00 00 00 00 00 00 00 00 00 00 00 01 03*
0,2343,0:20.747.941,79.100 us,2 B,,SP,55,Write Transaction,00 00
0,2344,0:20.753.294,86.600 us,2 B,,SP,55,Read Transaction,00 00*
0,2345,0:20.762.198,79.100 us,2 B,,SP,55,Write Transaction,00 00
0,2346,0:20.767.550,87.100 us,2 B,,SP,55,Read Transaction,00 08*
0,2347,0:20.772.914,79.000 us,2 B,,SP,55,Write Transaction,12 01
0,2348,0:20.778.264,1.182.700 ms,46 B,,SP,55,Read Transaction,00 32 FF A9 00 7E FC 2C 02 AC 71 02 AB DB 16 27 D2 16 26 BF 26 BD 34 26 BC 0A 00 02 58 64 00 00 00 00 00 00 00 00 00 00 00 00 00 00 01 03*
0,2349,0:20.779.858,79.200 us,2 B,,SP,55,Write Transaction,00 00
0,2350,0:20.785.210,86.600 us,2 B,,SP,55,Read Transaction,00 00*
0,2351,0:20.794.186,79.100 us,2 B,,SP,55,Write Transaction,00 00
0,2352,0:20.799.533,91.000 us,2 B,,SP,55,Read Transaction,00 00*
0,2353,0:20.809.307,79.100 us,2 B,,SP,55,Write Transaction,00 00
0,2354,0:20.814.658,86.600 us,2 B,,SP,55,Read Transaction,00 08*
0,2355,0:20.820.025,79.000 us,2 B,,SP,55,Write Transaction,12 01
0,2356,0:20.825.374,1.182.800 ms,46 B,,SP,55,Read Transaction,00 33 FF A6 00 7C FC 30 02 A3 59 02 A2 D1 16 21 E0 16 20 CA 26 B9 A7 26 B8 7B 00 02 58 64 00 00 00 00 00 00 00 00 00 00 00 00 00 00 01 03*
0,2357,0:20.829.349,79.100 us,2 B,,SP,55,Write Transaction,00 00
0,2358,0:20.834.699,91.000 us,2 B,,SP,55,Read Transaction,00 00*
0,2359,0:20.843.255,79.100 us,2 B,,SP,55,Write Transaction,00 00
0,2360,0:20.848.613,87.100 us,2 B,,SP,55,Read Transaction,00 08*
0,2361,0:20.853.980,79.100 us,2 B,,SP,55,Write Transaction,12 01
0,2362,0:20.859.330,1.182.600 ms,46 B,,SP,55,Read Transaction,00 34 FF AC 00 7C FC 2E 02 93 1B 02 92 97 16 1B C4 16 1A AA 26 B6 BD 26 B5 93 00 02 58 64 00 00 00 00 00 00 00 00 00 00 00 00 00 00 01 03*
0,2363,0:20.862.167,79.100 us,2 B,,SP,55,Write Transaction,00 00
0,2364,0:20.867.518,86.600 us,2 B,,SP,55,Read Transaction,00 00*
0,2365,0:20.875.218,79.200 us,2 B,,SP,55,Write Transaction,00 00
0,2366,0:20.880.573,87.000 us,2 B,,SP,55,Read Transaction,00 08*
0,2367,0:20.885.943,79.100 us,2 B,,SP,55,Write Transaction,12 01
0,2368,0:20.891.299,1.183.500 ms,46 B,,SP,55,Read Transaction,00 35 FF A2 00 7F FC 35 02 85 62 02 84 DA 16 17 D5 16 16 C1 26 B5 19 26 B3 F5 00 02 58 64 00 00 00 00 00 00 00 00 00 00 00 00 00 00 01 03*
0,2369,0:20.893.946,79.100 us,2 B,,SP,55,Write Transaction,00 00
0,2370,0:20.899.299,86.600 us,2 B,,SP,55,Read Transaction,00 00*
0,2371,0:20.908.177,79.100 us,2 B,,SP,55,Write Transaction,00 00
0,2372,0:20.913.525,87.300 us,2 B,,SP,55,Read Transaction,00 00*
0,2373,0:20.923.082,79.200 us,2 B,,SP,55,Write Transaction,00 00
0,2374,0:20.928.436,87.000 us,2 B,,SP,55,Read Transaction,00 08*
0,2375,0:20.933.802,79.000 us,2 B,,SP,55,Write Transaction,12 01
0,2376,0:20.939.150,1.182.700 ms,46 B,,SP,55,Read Transaction,00 36 FF A9 00 7A FC 33 02 7D 0C 02 7C 92 16 16 4B 16 15 33 26 B4 B4 26 B3 92 00 02 58 64 00 00 00 00 00 00 00 00 00 00 00 00 00 00 01 03*
0,2377,0:20.940.761,79.100 us,2 B,,SP,55,Write Transaction,00 00
0,2378,0:20.946.112,86.600 us,2 B,,SP,55,Read Transaction,00 00*
0,2379,0:20.955.310,79.000 us,2 B,,SP,55,Write Transaction,00 00
0,2380,0:20.960.669,87.200 us,2 B,,SP,55,Read Transaction,00 08*
0,2381,0:20.966.038,79.100 us,2 B,,SP,55,Write Transaction,12 01
0,2382,0:20.971.389,1.182.200 ms,46 B,,SP,55,Read Transaction,00 37 FF A7 00 80 FC 2B 02 79 2D 02 78 B0 16 15 E1 16 14 C9 26 B4 BE 26 B3 96 00 02 58 64 00 00 00 00 00 00 00 00 00 00 00 00 00 00 01 03*
0,2383,0:20.975.269,79.100 us,2 B,,SP,55,Write Transaction,00 00
0,2384,0:20.980.621,86.700 us,2 B,,SP,55,Read Transaction,00 00*
0,2385,0:20.988.255,79.100 us,2 B,,SP,55,Write Transaction,00 00
0,2386,0:20.993.607,87.300 us,2 B,,SP,55,Read Transaction,00 00*
0,2387,0:21.003.142,79.100 us,2 B,,SP,55,Write Transaction,00 00
0,2388,0:21.008.491,87.100 us,2 B,,SP,55,Read Transaction,00 08*
0,2389,0:21.013.858,79.100 us,2 B,,SP,55,Write Transaction,12 01
0,2390,0:21.019.215,1.184.400 ms,46 B,,SP,55,Read Transaction,00 38 FF A6 00 7F FC 31 02 75 7B 02 75 00 16 15 34 16 14 1F 26 B4 93 26 B3 6D 00 02 58 64 00 00 00 00 00 00 00 00 00 00 00 00 00 00 01 03*
0,2391,0:21.022.093,79.200 us,2 B,,SP,55,Write Transaction,00 00
0,2392,0:21.027.447,86.600 us,2 B,,SP,55,Read Transaction,00 00*
0,2393,0:21.035.143,79.100 us,2 B,,SP,55,Write Transaction,00 00
0,2394,0:21.040.495,87.000 us,2 B,,SP,55,Read Transaction,00 08*
0,2395,0:21.045.861,79.100 us,2 B,,SP,55,Write Transaction,12 01
0,2396,0:21.051.211,1.182.700 ms,46 B,,SP,55,Read Transaction,00 39 FF A6 00 7C FC 30 02 75 56 02 74 D2 16 16 32 16 15 1E 26 B5 79 26 B4 5A 00 02 58 64 00 00 00 00 00 00 00 00 00 00 00 00 00 00 01 03*
0,2397,0:21.052.792,79.100 us,2 B,,SP,55,Write Transaction,00 00
0,2398,0:21.058.143,86.600 us,2 B,,SP,55,Read Transaction,00 00*
0,2399,0:21.067.126,79.100 us,2 B,,SP,55,Write Transaction,00 00
0,2400,0:21.072.477,86.600 us,2 B,,SP,55,Read Transaction,00 00*
0,2401,0:21.082.260,79.200 us,2 B,,SP,55,Write Transaction,00 00
0,2402,0:21.087.613,87.100 us,2 B,,SP,55,Read Transaction,00 08*
0,2403,0:21.092.986,79.100 us,2 B,,SP,55,Write Transaction,12 01
0,2404,0:21.098.344,1.182.600 ms,46 B,,SP,55,Read Transaction,00 3A FF A2 00 7E FC 32 02 78 C5 02 78 4E 16 18 1F 16 17 0E 26 B6 8E 26 B5 69 00 02 58 64 00 00 00 00 00 00 00 00 00 00 00 00 00 00 01 03*
0,2405,0:21.100.989,79.100 us,2 B,,SP,55,Write Transaction,00 00
0,2406,0:21.106.343,86.600 us,2 B,,SP,55,Read Transaction,00 00*
0,2407,0:21.115.211,79.000 us,2 B,,SP,55,Write Transaction,00 00
0,2408,0:21.120.564,87.100 us,2 B,,SP,55,Read Transaction,00 08*
0,2409,0:21.125.932,79.100 us,2 B,,SP,55,Write Transaction,12 01
0,2410,0:21.131.281,1.182.600 ms,46 B,,SP,55,Read Transaction,00 3B FF A6 00 7D FC 2F 02 7B 30 02 7A B4 16 18 F8 16 17 E7 26 B7 20 26 B5 F6 00 02 58 64 00 00 00 00 00 00 00 00 00 00 00 00 00 00 01 03*
0,2411,0:21.132.866,79.100 us,2 B,,SP,55,Write Transaction,00 00
0,2412,0:21.138.245,86.700 us,2 B,,SP,55,Read Transaction,00 00*
0,2413,0:21.147.185,79.000 us,2 B,,SP,55,Write Transaction,00 00
0,2414,0:21.152.536,86.600 us,2 B,,SP,55,Read Transaction,00 00*
0,2415,0:21.162.073,79.100 us,2 B,,SP,55,Write Transaction,00 00
0,2416,0:21.167.422,87.000 us,2 B,,SP,55,Read Transaction,00 08*
0,2417,0:21.172.787,79.000 us,2 B,,SP,55,Write Transaction,12 01
0,2418,0:21.178.138,1.182.700 ms,46 B,,SP,55,Read Transaction,00 3C FF A4 00 80 FC 30 02 7C B3 02 7C 39 16 19 B3 16 18 97 26 B7 97 26 B6 70 00 02 58 64 27 46 64 00 00 00 00 00 00 00 00 00 00 00 01 03*
0,2419,0:21.180.785,79.100 us,2 B,,SP,55,Write Transaction,00 00
0,2420,0:21.186.158,86.600 us,2 B,,SP,55,Read Transaction,00 00*
0,2421,0:21.195.288,79.100 us,2 B,,SP,55,Write Transaction,00 00
0,2422,0:21.200.637,87.000 us,2 B,,SP,55,Read Transaction,00 08*
0,2423,0:21.206.007,79.200 us,2 B,,SP,55,Write Transaction,12 01
0,2424,0:21.211.363,1.184.300 ms,46 B,,SP,55,Read Transaction,00 3D FF A9 00 7F FC 2F 02 7F 58 02 7E D9 16 1B 32 16 1A 1E 26 B8 87 26 B7 5E 00 02 58 64 00 00 00 00 00 00 00 00 00 00 00 00 00 00 01 03*
0,2425,0:21.214.239,79.200 us,2 B,,SP,55,Write Transaction,00 00
0,2426,0:21.219.594,86.600 us,2 B,,SP,55,Read Transaction,00 00*
0,2427,0:21.227.262,79.000 us,2 B,,SP,55,Write Transaction,00 00
0,2428,0:21.232.612,86.600 us,2 B,,SP,55,Read Transaction,00 00*
0,2429,0:21.242.147,79.100 us,2 B,,SP,55,Write Transaction,00 00
0,2430,0:21.247.496,87.000 us,2 B,,SP,55,Read Transaction,00 08*
0,2431,0:21.252.860,79.000 us,2 B,,SP,55,Write Transaction,12 01
0,2432,0:21.258.211,1.182.600 ms,46 B,,SP,55,Read Transaction,00 3E FF A7 00 7C FC 2D 02 82 7B 02 81 FD 16 1C 80 16 1B 6C 26 B9 59 26 B8 33 00 02 58 64 00 00 00 00 00 00 00 00 00 00 00 00 00 00 01 03*
0,2433,0:21.262.077,79.100 us,2 B,,SP,55,Write Transaction,00 00
0,2434,0:21.267.428,86.600 us,2 B,,SP,55,Read Transaction,00 00*
0,2435,0:21.275.122,79.100 us,2 B,,SP,55,Write Transaction,00 00
0,2436,0:21.280.471,87.100 us,2 B,,SP,55,Read Transaction,00 08*
0,2437,0:21.285.837,79.100 us,2 B,,SP,55,Write Transaction,12 01
0,2438,0:21.291.189,1.182.600 ms,46 B,,SP,55,Read Transaction,00 3F FF A8 00 7D FC 30 02 86 66 02 85 E9 16 1E 71 16 1D 5D 26 BA 91 26 B9 6C 00 02 58 64 00 00 00 00 00 00 00 00 00 00 00 00 00 00 01 03*
0,2439,0:21.292.784,79.100 us,2 B,,SP,55,Write Transaction,00 00
0,2440,0:21.298.131,86.600 us,2 B,,SP,55,Read Transaction,00 00*
0,2441,0:21.307.092,79.000 us,2 B,,SP,55,Write Transaction,00 00
0,2442,0:21.312.443,86.600 us,2 B,,SP,55,Read Transaction,00 00*
0,2443,0:21.322.226,79.100 us,2 B,,SP,55,Write Transaction,00 00
0,2444,0:21.327.579,87.100 us,2 B,,SP,55,Read Transaction,00 08*
0,2445,0:21.332.943,79.100 us,2 B,,SP,55,Write Transaction,12 01
0,2446,0:21.338.292,1.183.200 ms,46 B,,SP,55,Read Transaction,00 40 FF AC 00 7C FC 32 02 8A E9 02 8A 67 16 20 A3 16 1F 8E 26 BB F5 26 BA CF 00 02 58 64 00 00 00 00 00 00 00 00 00 00 00 00 00 00 01 03*
0,2447,0:21.340.926,79.100 us,2 B,,SP,55,Write Transaction,00 00
0,2448,0:21.346.276,86.600 us,2 B,,SP,55,Read Transaction,00 00*
0,2449,0:21.355.182,79.100 us,2 B,,SP,55,Write Transaction,00 00
0,2450,0:21.360.532,87.000 us,2 B,,SP,55,Read Transaction,00 08*
0,2451,0:21.365.898,79.100 us,2 B,,SP,55,Write Transaction,12 01
0,2452,0:21.371.249,1.182.400 ms,46 B,,SP,55,Read Transaction,00 41 FF A9 00 80 FC 30 02 8F 64 02 8E DF 16 22 3C 16 21 28 26 BD 0C 26 BB E2 00 02 58 64 00 00 00 00 00 00 00 00 00 00 00 00 00 00 01 03*
0,2453,0:21.374.078,79.100 us,2 B,,SP,55,Write Transaction,00 00
0,2454,0:21.379.429,86.600 us,2 B,,SP,55,Read Transaction,00 00*
0,2455,0:21.387.177,79.000 us,2 B,,SP,55,Write Transaction,00 00
0,2456,0:21.392.526,86.600 us,2 B,,SP,55,Read Transaction,00 00*
0,2457,0:21.402.059,79.000 us,2 B,,SP,55,Write Transaction,00 00
0,2458,0:21.407.409,87.100 us,2 B,,SP,55,Read Transaction,00 08*
0,2459,0:21.412.773,79.100 us,2 B,,SP,55,Write Transaction,12 01
0,2460,0:21.418.123,1.182.500 ms,46 B,,SP,55,Read Transaction,00 42 FF A5 00 81 FC 36 02 92 F1 02 92 68 16 23 6E 16 22 56 26 BD B6 26 BC 8C 00 02 58 64 00 00 00 00 00 00 00 00 00 00 00 00 00 00 01 03*
0,2461,0:21.422.013,79.200 us,2 B,,SP,55,Write Transaction,00 00
0,2462,0:21.427.370,86.600 us,2 B,,SP,55,Read Transaction,00 00*
0,2463,0:21.435.258,79.100 us,2 B,,SP,55,Write Transaction,00 00
0,2464,0:21.440.609,87.100 us,2 B,,SP,55,Read Transaction,00 08*
0,2465,0:21.445.974,79.100 us,2 B,,SP,55,Write Transaction,12 01
0,2466,0:21.451.324,1.182.500 ms,46 B,,SP,55,Read Transaction,00 43 FF A8 00 7D FC 29 02 96 C5 02 96 3A 16 25 40 16 24 2F 26 BE E9 26 BD BE 00 02 58 64 00 00 00 00 00 00 00 00 00 00 00 00 00 00 01 03*
0,2467,0:21.452.909,79.000 us,2 B,,SP,55,Write Transaction,00 00
0,2468,0:21.458.259,86.600 us,2 B,,SP,55,Read Transaction,00 00*
0,2469,0:21.467.241,79.200 us,2 B,,SP,55,Write Transaction,00 00
0,2470,0:21.472.589,86.900 us,2 B,,SP,55,Read Transaction,00 00*
0,2471,0:21.482.129,79.000 us,2 B,,SP,55,Write Transaction,00 00
0,2472,0:21.487.480,87.100 us,2 B,,SP,55,Read Transaction,00 08*
0,2473,0:21.492.846,79.100 us,2 B,,SP,55,Write Transaction,12 01
0,2474,0:21.498.195,1.182.600 ms,46 B,,SP,55,Read Transaction,00 44 FF AA 00 7C FC 2E 02 9A 24 02 99 91 16 26 3E 16 25 24 26 BF 79 26 BE 4C 00 02 58 64 00 00 00 00 00 00 00 00 00 00 00 00 00 00 01 03*
0,2475,0:21.500.919,79.100 us,2 B,,SP,55,Write Transaction,00 00
0,2476,0:21.506.270,86.600 us,2 B,,SP,55,Read Transaction,00 00*
0,2477,0:21.515.095,79.100 us,2 B,,SP,55,Write Transaction,00 00
0,2478,0:21.520.448,87.100 us,2 B,,SP,55,Read Transaction,00 08*
0,2479,0:21.525.813,79.100 us,2 B,,SP,55,Write Transaction,12 01
0,2480,0:21.531.164,1.182.500 ms,46 B,,SP,55,Read Transaction,00 45 FF A6 00 81 FC 30 02 9C B6 02 9C 36 16 26 B0 16 25 9B 26 BF E0 26 BE B8 00 02 58 64 00 00 00 00 00 00 00 00 00 00 00 00 00 00 01 03*
0,2481,0:21.532.748,79.100 us,2 B,,SP,55,Write Transaction,00 00
0,2482,0:21.538.099,86.600 us,2 B,,SP,55,Read Transaction,00 00*
0,2483,0:21.547.070,79.100 us,2 B,,SP,55,Write Transaction,00 00
0,2484,0:21.552.420,86.600 us,2 B,,SP,55,Read Transaction,00 00*
0,2485,0:21.562.213,79.000 us,2 B,,SP,55,Write Transaction,00 00
0,2486,0:21.567.562,87.100 us,2 B,,SP,55,Read Transaction,00 08*
0,2487,0:21.572.928,79.100 us,2 B,,SP,55,Write Transaction,12 01
0,2488,0:21.578.286,1.181.900 ms,46 B,,SP,55,Read Transaction,00 46 FF A2 00 7E FC 30 02 9F 80 02 9E F8 16 27 EE 16 26 D5 26 C0 B1 26 BF 86 00 02 58 64 00 00 00 00 00 00 00 00 00 00 00 00 00 00 01 03*
0,2489,0:21.580.983,79.100 us,2 B,,SP,55,Write Transaction,00 00
0,2490,0:21.586.336,86.700 us,2 B,,SP,55,Read Transaction,00 00*
0,2491,0:21.595.170,79.100 us,2 B,,SP,55,Write Transaction,00 00
0,2492,0:21.600.523,87.100 us,2 B,,SP,55,Read Transaction,00 08*
0,2493,0:21.605.889,79.100 us,2 B,,SP,55,Write Transaction,12 01
0,2494,0:21.611.241,1.182.500 ms,46 B,,SP,55,Read Transaction,00 47 FF AB 00 7B FC 31 02 A2 62 02 A1 D3 16 29 02 16 27 EE 26 C1 62 26 C0 35 00 02 58 64 00 00 00 00 00 00 00 00 00 00 00 00 00 00 01 03*
0,2495,0:21.614.059,79.100 us,2 B,,SP,55,Write Transaction,00 00
0,2496,0:21.619.411,86.600 us,2 B,,SP,55,Read Transaction,00 00*
0,2497,0:21.627.150,79.100 us,2 B,,SP,55,Write Transaction,00 00
0,2498,0:21.632.500,87.200 us,2 B,,SP,55,Read Transaction,00 00*
0,2499,0:21.642.052,79.100 us,2 B,,SP,55,Write Transaction,00 00
0,2500,0:21.647.401,87.100 us,2 B,,SP,55,Read Transaction,00 08*
0,2501,0:21.652.767,79.000 us,2 B,,SP,55,Write Transaction,12 01
0,2502,0:21.658.115,1.182.700 ms,46 B,,SP,55,Read Transaction,00 48 FF A4 00 7E FC 30 02 A5 47 02 A4 B5 16 2A 14 16 28 FB 26 C2 0E 26 C0 E4 00 02 58 64 00 00 00 00 00 00 00 00 00 00 00 00 00 00 01 03*
0,2503,0:21.662.036,79.100 us,2 B,,SP,55,Write Transaction,00 00
0,2504,0:21.667.387,86.600 us,2 B,,SP,55,Read Transaction,00 00*
0,2505,0:21.675.237,79.000 us,2 B,,SP,55,Write Transaction,00 00
0,2506,0:21.680.588,87.100 us,2 B,,SP,55,Read Transaction,00 08*
0,2507,0:21.685.956,79.200 us,2 B,,SP,55,Write Transaction,12 01
0,2508,0:21.691.312,1.184.200 ms,46 B,,SP,55,Read Transaction,00 49 FF A7 00 83 FC 33 02 A8 3D 02 A7 AF 16 2B 80 16 2A 69 26 C2 EC 26 C1 BF 00 02 58 64 00 00 00 00 00 00 00 00 00 00 00 00 00 00 01 03*
0,2509,0:21.692.909,79.200 us,2 B,,SP,55,Write Transaction,00 00
0,2510,0:21.698.265,86.700 us,2 B,,SP,55,Read Transaction,00 00*
0,2511,0:21.707.235,79.000 us,2 B,,SP,55,Write Transaction,00 00
0,2512,0:21.712.588,87.200 us,2 B,,SP,55,Read Transaction,00 00*
0,2513,0:21.722.122,79.100 us,2 B,,SP,55,Write Transaction,00 00
0,2514,0:21.727.472,87.200 us,2 B,,SP,55,Read Transaction,00 08*
0,2515,0:21.732.837,79.100 us,2 B,,SP,55,Write Transaction,12 01
0,2516,0:21.738.189,1.182.700 ms,46 B,,SP,55,Read Transaction,00 4A FF A8 00 7C FC 30 02 AC 47 02 AB BF 16 2D B4 16 2C A0 26 C4 47 26 C3 1A 00 02 58 64 00 00 00 00 00 00 00 00 00 00 00 00 00 00 01 03*
0,2517,0:21.740.823,79.100 us,2 B,,SP,55,Write Transaction,00 00
0,2518,0:21.746.174,86.600 us,2 B,,SP,55,Read Transaction,00 00*
0,2519,0:21.755.069,79.100 us,2 B,,SP,55,Write Transaction,00 00
0,2520,0:21.760.420,87.100 us,2 B,,SP,55,Read Transaction,00 08*
0,2521,0:21.765.786,79.000 us,2 B,,SP,55,Write Transaction,12 01
0,2522,0:21.771.135,1.182.600 ms,46 B,,SP,55,Read Transaction,00 4B FF A5 00 7C FC 36 02 A9 CC 02 A9 3C 16 2A 0B 16 28 F0 26 C1 DD 26 C0 AE 00 02 58 64 00 00 00 00 00 00 00 00 00 00 00 00 00 00 01 03*
0,2523,0:21.774.019,79.000 us,2 B,,SP,55,Write Transaction,00 00
0,2524,0:21.779.368,86.500 us,2 B,,SP,55,Read Transaction,00 00*
0,2525,0:21.787.066,79.100 us,2 B,,SP,55,Write Transaction,00 00
0,2526,0:21.792.418,87.200 us,2 B,,SP,55,Read Transaction,00 00*
0,2527,0:21.802.196,79.200 us,2 B,,SP,55,Write Transaction,00 00
0,2528,0:21.807.548,87.100 us,2 B,,SP,55,Read Transaction,00 08*
0,2529,0:21.812.912,79.000 us,2 B,,SP,55,Write Transaction,12 01
0,2530,0:21.818.263,1.182.600 ms,46 B,,SP,55,Read Transaction,00 4C FF A5 00 81 FC 2A 02 9C 06 02 9B 7C 16 23 AE 16 22 96 26 BE AB 26 BD 7B 00 02 58 64 00 00 00 00 00 00 00 00 00 00 00 00 00 00 01 03*
0,2531,0:21.822.130,79.000 us,2 B,,SP,55,Write Transaction,00 00
0,2532,0:21.827.481,86.600 us,2 B,,SP,55,Read Transaction,00 00*
0,2533,0:21.835.151,79.100 us,2 B,,SP,55,Write Transaction,00 00
0,2534,0:21.840.500,87.100 us,2 B,,SP,55,Read Transaction,00 08*
0,2535,0:21.845.870,79.200 us,2 B,,SP,55,Write Transaction,12 01
0,2536,0:21.851.226,1.182.600 ms,46 B,,SP,55,Read Transaction,00 4D FF A7 00 7E FC 34 02 8E 1D 02 8D 9D 16 1F 90 16 1E 7A 26 BC CF 26 BB A6 00 02 58 64 00 00 00 00 00 00 00 00 00 00 00 00 00 00 01 03*
0,2537,0:21.852.809,79.100 us,2 B,,SP,55,Write Transaction,00 00
0,2538,0:21.858.159,86.700 us,2 B,,SP,55,Read Transaction,00 00*
0,2539,0:21.867.145,79.100 us,2 B,,SP,55,Write Transaction,00 00
0,2540,0:21.872.495,87.300 us,2 B,,SP,55,Read Transaction,00 00*
0,2541,0:21.882.270,79.100 us,2 B,,SP,55,Write Transaction,00 00
0,2542,0:21.887.620,87.100 us,2 B,,SP,55,Read Transaction,00 08*
0,2543,0:21.892.984,79.100 us,2 B,,SP,55,Write Transaction,12 01
0,2544,0:21.898.335,1.182.600 ms,46 B,,SP,55,Read Transaction,00 4E FF A8 00 82 FC 29 02 85 46 02 84 C8 16 1D B7 16 1C A2 26 BC 17 26 BA F1 00 02 58 64 00 00 00 00 00 00 00 00 00 00 00 00 00 00 01 03*
0,2545,0:21.900.980,79.100 us,2 B,,SP,55,Write Transaction,00 00
0,2546,0:21.906.329,93.700 us,2 B,,SP,55,Read Transaction,00 00*
0,2547,0:21.915.220,79.000 us,2 B,,SP,55,Write Transaction,00 00
0,2548,0:21.920.588,87.100 us,2 B,,SP,55,Read Transaction,00 08*
0,2549,0:21.925.954,79.100 us,2 B,,SP,55,Write Transaction,12 01
0,2550,0:21.931.306,1.182.700 ms,46 B,,SP,55,Read Transaction,00 4F FF A3 00 82 FC 35 02 7F 5D 02 7E DC 16 1C 8C 16 1B 76 26 BB BF 26 BA 92 00 02 58 64 00 00 00 00 00 00 00 00 00 00 00 00 00 00 01 03*
0,2551,0:21.932.891,79.100 us,2 B,,SP,55,Write Transaction,00 00
0,2552,0:21.938.239,86.500 us,2 B,,SP,55,Read Transaction,00 00*
0,2553,0:21.947.210,79.100 us,2 B,,SP,55,Write Transaction,00 00
0,2554,0:21.952.560,87.300 us,2 B,,SP,55,Read Transaction,00 00*
0,2555,0:21.962.097,79.100 us,2 B,,SP,55,Write Transaction,00 00
0,2556,0:21.967.448,87.100 us,2 B,,SP,55,Read Transaction,00 08*
0,2557,0:21.972.817,79.200 us,2 B,,SP,55,Write Transaction,12 01
0,2558,0:21.978.176,1.184.400 ms,46 B,,SP,55,Read Transaction,00 50 FF A5 00 7D FC 30 02 7B 21 02 7A AB 16 1C 6B 16 1B 53 26 BB FD 26 BA D1 00 02 58 64 00 00 00 00 00 00 00 00 00 00 00 00 00 00 01 03*
0,2559,0:21.980.821,79.000 us,2 B,,SP,55,Write Transaction,00 00
0,2560,0:21.986.173,86.600 us,2 B,,SP,55,Read Transaction,00 00*
0,2561,0:21.995.056,79.200 us,2 B,,SP,55,Write Transaction,00 00
0,2562,0:22.000.416,87.200 us,2 B,,SP,55,Read Transaction,00 08*
0,2563,0:22.005.788,79.100 us,2 B,,SP,55,Write Transaction,12 01
0,2564,0:22.011.139,1.182.600 ms,46 B,,SP,55,Read Transaction,00 51 FF A3 00 7F FC 2C 02 79 DE 02 79 65 16 1D 14 16 1C 02 26 BC 99 26 BB 71 00 02 58 64 00 00 00 00 00 00 00 00 00 00 00 00 00 00 01 03*
0,2565,0:22.013.957,79.100 us,2 B,,SP,55,Write Transaction,00 00
0,2566,0:22.019.313,86.700 us,2 B,,SP,55,Read Transaction,00 00*
0,2567,0:22.027.049,79.100 us,2 B,,SP,55,Write Transaction,00 00
0,2568,0:22.032.399,87.300 us,2 B,,SP,55,Read Transaction,00 00*
0,2569,0:22.042.167,79.100 us,2 B,,SP,55,Write Transaction,00 00
0,2570,0:22.047.518,87.100 us,2 B,,SP,55,Read Transaction,00 08*
0,2571,0:22.052.885,79.100 us,2 B,,SP,55,Write Transaction,12 01
0,2572,0:22.058.236,1.184.200 ms,46 B,,SP,55,Read Transaction,00 52 FF A5 00 80 FC 33 02 7C 44 02 7B CA 16 1E DE 16 1D C4 26 BD BA 26 BC 90 00 02 58 64 00 00 00 00 00 00 00 00 00 00 00 00 00 00 01 03*
0,2573,0:22.062.137,79.100 us,2 B,,SP,55,Write Transaction,00 00
0,2574,0:22.067.490,86.600 us,2 B,,SP,55,Read Transaction,00 00*
0,2575,0:22.075.126,79.100 us,2 B,,SP,55,Write Transaction,00 00
0,2576,0:22.080.478,87.000 us,2 B,,SP,55,Read Transaction,00 08*
0,2577,0:22.085.842,79.000 us,2 B,,SP,55,Write Transaction,12 01
0,2578,0:22.091.192,1.182.600 ms,46 B,,SP,55,Read Transaction,00 53 FF A6 00 7D FC 31 02 7F 68 02 7E EE 16 20 40 16 1F 2A 26 BE AE 26 BD 7E 00 02 58 64 00 00 00 00 00 00 00 00 00 00 00 00 00 00 01 03*
0,2579,0:22.092.788,79.100 us,2 B,,SP,55,Write Transaction,00 00
0,2580,0:22.098.139,86.600 us,2 B,,SP,55,Read Transaction,00 00*
0,2581,0:22.107.126,79.100 us,2 B,,SP,55,Write Transaction,00 00
0,2582,0:22.112.476,87.300 us,2 B,,SP,55,Read Transaction,00 00*
0,2583,0:22.122.252,79.000 us,2 B,,SP,55,Write Transaction,00 00
0,2584,0:22.127.601,87.000 us,2 B,,SP,55,Read Transaction,00 08*
0,2585,0:22.132.968,79.200 us,2 B,,SP,55,Write Transaction,12 01
0,2586,0:22.138.319,1.182.500 ms,46 B,,SP,55,Read Transaction,00 54 FF A7 00 7E FC 31 02 81 7A 02 81 00 16 21 5E 16 20 4B 26 BF 58 26 BE 2E 00 02 58 64 25 D5 64 00 00 00 00 00 00 00 00 00 00 00 01 03*
0,2587,0:22.141.014,79.100 us,2 B,,SP,55,Write Transaction,00 00
0,2588,0:22.146.362,86.600 us,2 B,,SP,55,Read Transaction,00 00*
0,2589,0:22.155.208,79.100 us,2 B,,SP,55,Write Transaction,00 00
0,2590,0:22.160.560,87.100 us,2 B,,SP,55,Read Transaction,00 08*
0,2591,0:22.165.929,79.100 us,2 B,,SP,55,Write Transaction,12 01
0,2592,0:22.171.279,1.182.600 ms,46 B,,SP,55,Read Transaction,00 55 FF A5 00 7E FC 35 02 83 A3 02 83 26 16 22 4B 16 21 34 26 BF FF 26 BE D4 00 02 58 64 00 00 00 00 00 00 00 00 00 00 00 00 00 00 01 03*
0,2593,0:22.174.109,79.000 us,2 B,,SP,55,Write Transaction,00 00
0,2594,0:22.179.460,86.600 us,2 B,,SP,55,Read Transaction,00 00*
0,2595,0:22.187.181,79.200 us,2 B,,SP,55,Write Transaction,00 00
0,2596,0:22.192.533,88.700 us,2 B,,SP,55,Read Transaction,00 00*
0,2597,0:22.202.072,79.100 us,2 B,,SP,55,Write Transaction,00 00
0,2598,0:22.207.423,87.100 us,2 B,,SP,55,Read Transaction,00 08*
0,2599,0:22.212.789,79.000 us,2 B,,SP,55,Write Transaction,12 01
0,2600,0:22.218.139,1.182.600 ms,46 B,,SP,55,Read Transaction,00 56 FF A8 00 7C FC 2D 02 86 34 02 85 B5 16 23 7B 16 22 65 26 C0 D1 26 BF A5 00 02 58 64 00 00 00 00 00 00 00 00 00 00 00 00 00 00 01 03*
0,2601,0:22.222.062,79.100 us,2 B,,SP,55,Write Transaction,00 00
0,2602,0:22.227.413,86.600 us,2 B,,SP,55,Read Transaction,00 00*
0,2603,0:22.235.046,79.100 us,2 B,,SP,55,Write Transaction,00 00
0,2604,0:22.240.398,87.100 us,2 B,,SP,55,Read Transaction,00 08*
0,2605,0:22.245.765,79.000 us,2 B,,SP,55,Write Transaction,12 01
0,2606,0:22.251.114,1.182.600 ms,46 B,,SP,55,Read Transaction,00 57 FF A5 00 7F FC 30 02 89 D8 02 89 55 16 25 24 16 24 10 26 C1 D0 26 C0 A7 00 02 62 64 00 00 00 00 00 00 00 00 00 00 00 00 00 00 01 03*
0,2607,0:22.252.699,79.100 us,2 B,,SP,55,Write Transaction,00 00
0,2608,0:22.258.053,86.600 us,2 B,,SP,55,Read Transaction,00 00*
0,2609,0:22.267.033,79.100 us,2 B,,SP,55,Write Transaction,00 00
0,2610,0:22.272.385,88.300 us,2 B,,SP,55,Read Transaction,00 00*
0,2611,0:22.282.150,79.100 us,2 B,,SP,55,Write Transaction,00 00
0,2612,0:22.287.500,87.100 us,2 B,,SP,55,Read Transaction,00 08*
0,2613,0:22.292.865,79.000 us,2 B,,SP,55,Write Transaction,12 01
0,2614,0:22.298.216,1.182.400 ms,46 B,,SP,55,Read Transaction,00 58 FF A7 00 80 FC 30 02 8D 90 02 8D 13 16 26 93 16 25 7F 26 C2 C8 26 C1 9E 00 02 62 64 00 00 00 00 00 00 00 00 00 00 00 00 00 00 01 03*
0,2615,0:22.300.861,79.100 us,2 B,,SP,55,Write Transaction,00 00
0,2616,0:22.306.209,99.700 us,2 B,,SP,55,Read Transaction,00 00*
0,2617,0:22.315.124,79.000 us,2 B,,SP,55,Write Transaction,00 00
0,2618,0:22.320.473,87.100 us,2 B,,SP,55,Read Transaction,00 08*
0,2619,0:22.325.839,79.000 us,2 B,,SP,55,Write Transaction,12 01
0,2620,0:22.331.189,1.182.500 ms,46 B,,SP,55,Read Transaction,00 59 FF A6 00 82 FC 28 02 91 7D 02 90 F2 16 28 55 16 27 44 26 C3 DD 26 C2 B5 00 02 62 64 00 00 00 00 00 00 00 00 00 00 00 00 00 00 01 03*
0,2621,0:22.332.827,79.000 us,2 B,,SP,55,Write Transaction,00 00
0,2622,0:22.338.175,86.600 us,2 B,,SP,55,Read Transaction,00 00*
0,2623,0:22.347.095,79.100 us,2 B,,SP,55,Write Transaction,00 00
0,2624,0:22.352.447,89.800 us,2 B,,SP,55,Read Transaction,00 00*
0,2625,0:22.362.235,79.000 us,2 B,,SP,55,Write Transaction,00 00
0,2626,0:22.367.586,87.100 us,2 B,,SP,55,Read Transaction,00 08*
0,2627,0:22.372.950,79.100 us,2 B,,SP,55,Write Transaction,12 01
0,2628,0:22.378.301,1.182.400 ms,46 B,,SP,55,Read Transaction,00 5A FF A4 00 7E FC 2F 02 95 2B 02 94 9C 16 29 BF 16 28 A6 26 C4 BF 26 C3 95 00 02 62 64 00 00 00 00 00 00 00 00 00 00 00 00 00 00 01 03*
0,2629,0:22.380.947,79.200 us,2 B,,SP,55,Write Transaction,00 00
0,2630,0:22.386.299,104.800 us,2 B,,SP,55,Read Transaction,00 00*
0,2631,0:22.395.202,79.100 us,2 B,,SP,55,Write Transaction,00 00
0,2632,0:22.400.552,87.100 us,2 B,,SP,55,Read Transaction,00 08*
0,2633,0:22.405.918,79.100 us,2 B,,SP,55,Write Transaction,12 01
0,2634,0:22.411.268,1.182.600 ms,46 B,,SP,55,Read Transaction,00 5B FF AA 00 7D FC 2F 02 99 0C 02 98 89 16 2B 97 16 2A 83 26 C5 E8 26 C4 C4 00 02 62 64 00 00 00 00 00 00 00 00 00 00 00 00 00 00 01 03*
0,2635,0:22.414.086,79.100 us,2 B,,SP,55,Write Transaction,00 00
0,2636,0:22.419.435,86.600 us,2 B,,SP,55,Read Transaction,00 00*
0,2637,0:22.427.164,79.100 us,2 B,,SP,55,Write Transaction,00 00
0,2638,0:22.432.514,91.000 us,2 B,,SP,55,Read Transaction,00 00*
0,2639,0:22.442.063,79.100 us,2 B,,SP,55,Write Transaction,00 00
0,2640,0:22.447.415,87.000 us,2 B,,SP,55,Read Transaction,00 08*
0,2641,0:22.452.780,79.100 us,2 B,,SP,55,Write Transaction,12 01
0,2642,0:22.458.130,1.182.200 ms,46 B,,SP,55,Read Transaction,00 5C FF A7 00 7A FC 31 02 9C 8E 02 9C 02 16 2C A1 16 2B 8A 26 C6 86 26 C5 5F 00 02 62 64 00 00 00 00 00 00 00 00 00 00 00 00 00 00 01 03*
0,2643,0:22.460.944,79.100 us,2 B,,SP,55,Write Transaction,00 00
0,2644,0:22.466.295,86.600 us,2 B,,SP,55,Read Transaction,00 00*
0,2645,0:22.474.051,79.000 us,2 B,,SP,55,Write Transaction,00 00
0,2646,0:22.479.400,87.100 us,2 B,,SP,55,Read Transaction,00 08*
0,2647,0:22.484.767,79.100 us,2 B,,SP,55,Write Transaction,12 01
0,2648,0:22.490.117,1.182.500 ms,46 B,,SP,55,Read Transaction,00 5D FF AA 00 7C FC 2B 02 9F B6 02 9F 29 16 2E 26 16 2D 12 26 C7 8E 26 C6 66 00 02 62 64 00 00 00 00 00 00 00 00 00 00 00 00 00 00 01 03*
0,2649,0:22.492.762,79.100 us,2 B,,SP,55,Write Transaction,00 00
0,2650,0:22.498.109,86.600 us,2 B,,SP,55,Read Transaction,00 00*
0,2651,0:22.507.273,79.000 us,2 B,,SP,55,Write Transaction,00 00
0,2652,0:22.512.625,91.200 us,2 B,,SP,55,Read Transaction,00 00*
0,2653,0:22.522.146,79.100 us,2 B,,SP,55,Write Transaction,00 00
0,2654,0:22.527.498,86.900 us,2 B,,SP,55,Read Transaction,00 08*
0,2655,0:22.532.862,79.000 us,2 B,,SP,55,Write Transaction,12 01
0,2656,0:22.538.211,1.182.300 ms,46 B,,SP,55,Read Transaction,00 5E FF A5 00 7C FC 2D 02 A3 25 02 A2 98 16 2F 73 16 2E 5C 26 C8 65 26 C7 3C 00 02 62 64 00 00 00 00 00 00 00 00 00 00 00 00 00 00 01 03*
0,2657,0:22.539.794,79.000 us,2 B,,SP,55,Write Transaction,00 00
0,2658,0:22.545.151,86.700 us,2 B,,SP,55,Read Transaction,00 00*
0,2659,0:22.554.130,79.100 us,2 B,,SP,55,Write Transaction,00 00
0,2660,0:22.559.477,87.100 us,2 B,,SP,55,Read Transaction,00 08*
0,2661,0:22.564.852,79.100 us,2 B,,SP,55,Write Transaction,12 01
0,2662,0:22.570.203,1.182.600 ms,46 B,,SP,55,Read Transaction,00 5F FF A3 00 7E FC 37 02 A5 DF 02 A5 54 16 30 3A 16 2F 26 26 C8 F9 26 C7 CD 00 02 62 64 00 00 00 00 00 00 00 00 00 00 00 00 00 00 01 03*
0,2663,0:22.574.083,79.100 us,2 B,,SP,55,Write Transaction,00 00
0,2664,0:22.579.437,86.800 us,2 B,,SP,55,Read Transaction,00 00*
0,2665,0:22.587.076,79.100 us,2 B,,SP,55,Write Transaction,00 00
0,2666,0:22.592.426,91.000 us,2 B,,SP,55,Read Transaction,00 00*
0,2667,0:22.602.218,79.100 us,2 B,,SP,55,Write Transaction,00 00
0,2668,0:22.607.568,87.000 us,2 B,,SP,55,Read Transaction,00 08*
0,2669,0:22.612.934,79.100 us,2 B,,SP,55,Write Transaction,12 01
0,2670,0:22.618.283,1.182.600 ms,46 B,,SP,55,Read Transaction,00 60 FF AB 00 82 FC 2A 02 A9 11 02 A8 87 16 31 F0 16 30 D7 26 CA 05 26 C8 DB 00 02 62 64 00 00 00 00 00 00 00 00 00 00 00 00 00 00 01 03*
0,2671,0:22.621.112,79.100 us,2 B,,SP,55,Write Transaction,00 00
0,2672,0:22.626.462,86.500 us,2 B,,SP,55,Read Transaction,00 00*
0,2673,0:22.634.207,79.100 us,2 B,,SP,55,Write Transaction,00 00
0,2674,0:22.639.557,87.100 us,2 B,,SP,55,Read Transaction,00 08*
0,2675,0:22.644.924,79.000 us,2 B,,SP,55,Write Transaction,12 01
0,2676,0:22.650.274,1.183.100 ms,46 B,,SP,55,Read Transaction,00 61 FF A7 00 80 FC 38 02 AC 15 02 AB 89 16 32 95 16 31 7E 26 CA 7E 26 C9 49 00 02 62 64 00 00 00 00 00 00 00 00 00 00 00 00 00 00 01 03*
0,2677,0:22.652.919,79.100 us,2 B,,SP,55,Write Transaction,00 00
0,2678,0:22.658.277,86.700 us,2 B,,SP,55,Read Transaction,00 00*
0,2679,0:22.667.162,79.000 us,2 B,,SP,55,Write Transaction,00 00
0,2680,0:22.672.510,91.200 us,2 B,,SP,55,Read Transaction,00 00*
0,2681,0:22.682.053,79.100 us,2 B,,SP,55,Write Transaction,00 00
0,2682,0:22.687.410,86.600 us,2 B,,SP,55,Read Transaction,00 08*
0,2683,0:22.692.782,79.100 us,2 B,,SP,55,Write Transaction,12 01
0,2684,0:22.698.135,1.182.700 ms,46 B,,SP,55,Read Transaction,00 62 FF A8 00 80 FC 2E 02 AE FE 02 AE 70 16 34 37 16 33 21 26 CB 97 26 CA 6B 00 02 62 64 00 00 00 00 00 00 00 00 00 00 00 00 00 00 01 03*
0,2685,0:22.699.756,79.000 us,2 B,,SP,55,Write Transaction,00 00
0,2686,0:22.705.107,86.700 us,2 B,,SP,55,Read Transaction,00 00*
0,2687,0:22.714.019,79.100 us,2 B,,SP,55,Write Transaction,00 00
0,2688,0:22.719.370,87.100 us,2 B,,SP,55,Read Transaction,00 08*
0,2689,0:22.724.740,79.100 us,2 B,,SP,55,Write Transaction,12 01
0,2690,0:22.730.089,1.182.500 ms,46 B,,SP,55,Read Transaction,00 63 FF A7 00 82 FC 2E 02 B2 64 02 B1 D4 16 35 92 16 34 80 26 CB FC 26 CA D6 00 02 62 64 00 00 00 00 00 00 00 00 00 00 00 00 00 00 01 03*
0,2691,0:22.732.722,79.000 us,2 B,,SP,55,Write Transaction,00 00
0,2692,0:22.738.075,86.600 us,2 B,,SP,55,Read Transaction,00 00*
0,2693,0:22.747.238,79.100 us,2 B,,SP,55,Write Transaction,00 00
0,2694,0:22.752.589,91.100 us,2 B,,SP,55,Read Transaction,00 00*
0,2695,0:22.762.125,79.000 us,2 B,,SP,55,Write Transaction,00 00
0,2696,0:22.767.474,86.600 us,2 B,,SP,55,Read Transaction,00 08*
0,2697,0:22.772.840,79.100 us,2 B,,SP,55,Write Transaction,12 01
0,2698,0:22.778.198,1.182.600 ms,46 B,,SP,55,Read Transaction,00 64 FF A6 00 7A FC 33 02 AB 4F 02 AA C1 16 2F DD 16 2E CA 26 C8 B0 26 C7 8A 00 02 62 64 00 00 00 00 00 00 00 00 00 00 00 00 00 00 01 03*
0,2699,0:22.779.846,79.000 us,2 B,,SP,55,Write Transaction,00 00
0,2700,0:22.785.196,86.600 us,2 B,,SP,55,Read Transaction,00 00*
0,2701,0:22.794.107,79.100 us,2 B,,SP,55,Write Transaction,00 00
0,2702,0:22.799.458,87.100 us,2 B,,SP,55,Read Transaction,00 08*
0,2703,0:22.804.823,79.100 us,2 B,,SP,55,Write Transaction,12 01
0,2704,0:22.810.174,1.182.800 ms,46 B,,SP,55,Read Transaction,00 65 FF A8 00 7D FC 35 02 9C EB 02 9C 64 16 2A 4D 16 29 39 26 C5 EB 26 C4 C7 00 02 62 64 00 00 00 00 00 00 00 00 00 00 00 00 00 00 01 03*
0,2705,0:22.814.049,79.100 us,2 B,,SP,55,Write Transaction,00 00
0,2706,0:22.819.400,86.700 us,2 B,,SP,55,Read Transaction,00 00*
0,2707,0:22.827.064,79.000 us,2 B,,SP,55,Write Transaction,00 00
0,2708,0:22.832.420,91.200 us,2 B,,SP,55,Read Transaction,00 00*
0,2709,0:22.842.204,79.000 us,2 B,,SP,55,Write Transaction,00 00
0,2710,0:22.847.556,86.600 us,2 B,,SP,55,Read Transaction,00 08*
0,2711,0:22.852.921,79.100 us,2 B,,SP,55,Write Transaction,12 01
0,2712,0:22.858.275,1.184.100 ms,46 B,,SP,55,Read Transaction,00 66 FF A8 00 7F FC 2F 02 91 36 02 90 AF 16 27 79 16 26 65 26 C4 B6 26 C3 8C 00 02 6C 64 00 00 00 00 00 00 00 00 00 00 00 00 00 00 01 03*
0,2713,0:22.861.096,79.200 us,2 B,,SP,55,Write Transaction,00 00
0,2714,0:22.866.450,86.600 us,2 B,,SP,55,Read Transaction,00 00*
0,2715,0:22.874.181,79.000 us,2 B,,SP,55,Write Transaction,00 00
0,2716,0:22.879.532,87.000 us,2 B,,SP,55,Read Transaction,00 08*
0,2717,0:22.884.899,79.100 us,2 B,,SP,55,Write Transaction,12 01
0,2718,0:22.890.248,1.182.500 ms,46 B,,SP,55,Read Transaction,00 67 FF AB 00 83 FC 30 02 8A B9 02 8A 37 16 26 AA 16 25 9A 26 C4 8F 26 C3 66 00 02 6C 64 00 00 00 00 00 00 00 00 00 00 00 00 00 00 01 03*
0,2719,0:22.893.001,79.100 us,2 B,,SP,55,Write Transaction,00 00
0,2720,0:22.898.351,86.500 us,2 B,,SP,55,Read Transaction,00 00*
0,2721,0:22.907.137,79.100 us,2 B,,SP,55,Write Transaction,00 00
0,2722,0:22.912.489,91.400 us,2 B,,SP,55,Read Transaction,00 00*
0,2723,0:22.922.034,79.000 us,2 B,,SP,55,Write Transaction,00 00
0,2724,0:22.927.392,87.100 us,2 B,,SP,55,Read Transaction,00 08*
0,2725,0:22.932.758,79.100 us,2 B,,SP,55,Write Transaction,12 01
0,2726,0:22.938.109,1.182.600 ms,46 B,,SP,55,Read Transaction,00 68 FF A7 00 7D FC 29 02 86 B6 02 86 39 16 26 68 16 25 53 26 C4 95 26 C3 6B 00 02 6C 64 00 00 00 00 00 00 00 00 00 00 00 00 00 00 01 03*
0,2727,0:22.939.692,79.100 us,2 B,,SP,55,Write Transaction,00 00
0,2728,0:22.945.048,86.800 us,2 B,,SP,55,Read Transaction,00 00*
0,2729,0:22.954.003,79.200 us,2 B,,SP,55,Write Transaction,00 00
0,2730,0:22.959.353,87.100 us,2 B,,SP,55,Read Transaction,00 08*
0,2731,0:22.964.719,79.100 us,2 B,,SP,55,Write Transaction,12 01
0,2732,0:22.970.068,1.182.600 ms,46 B,,SP,55,Read Transaction,00 69 FF A7 00 82 FC 2F 02 83 1D 02 82 A3 16 25 A3 16 24 8E 26 C4 69 26 C3 43 00 02 6C 64 00 00 00 00 00 00 00 00 00 00 00 00 00 00 01 03*
0,2733,0:22.974.001,79.000 us,2 B,,SP,55,Write Transaction,00 00
0,2734,0:22.979.349,86.600 us,2 B,,SP,55,Read Transaction,00 00*
0,2735,0:22.987.217,79.100 us,2 B,,SP,55,Write Transaction,00 00
0,2736,0:22.992.570,91.100 us,2 B,,SP,55,Read Transaction,00 00*
0,2737,0:23.002.106,79.000 us,2 B,,SP,55,Write Transaction,00 00
0,2738,0:23.007.456,86.600 us,2 B,,SP,55,Read Transaction,00 08*
0,2739,0:23.012.819,79.000 us,2 B,,SP,55,Write Transaction,12 01
0,2740,0:23.018.170,1.182.600 ms,46 B,,SP,55,Read Transaction,00 6A FF A4 00 7F FC 32 02 82 25 02 81 AC 16 26 68 16 25 51 26 C5 15 26 C3 EC 00 02 6C 64 00 00 00 00 00 00 00 00 00 00 00 00 00 00 01 03*
0,2741,0:23.020.987,79.100 us,2 B,,SP,55,Write Transaction,00 00
0,2742,0:23.026.338,86.600 us,2 B,,SP,55,Read Transaction,00 00*
0,2743,0:23.034.080,79.100 us,2 B,,SP,55,Write Transaction,00 00
0,2744,0:23.039.427,87.100 us,2 B,,SP,55,Read Transaction,00 08*
0,2745,0:23.044.794,79.100 us,2 B,,SP,55,Write Transaction,12 01
0,2746,0:23.050.144,1.183.900 ms,46 B,,SP,55,Read Transaction,00 6B FF A2 00 85 FC 30 02 84 95 02 84 16 16 27 CF 16 26 BC 26 C5 F1 26 C4 C7 00 02 6C 64 00 00 00 00 00 00 00 00 00 00 00 00 00 00 01 03*
0,2747,0:23.052.780,79.200 us,2 B,,SP,55,Write Transaction,00 00
0,2748,0:23.058.133,113.500 us,2 B,,SP,55,Read Transaction,00 00*
0,2749,0:23.067.058,79.100 us,2 B,,SP,55,Write Transaction,00 00
0,2750,0:23.072.421,91.100 us,2 B,,SP,55,Read Transaction,00 00*
0,2751,0:23.082.174,79.100 us,2 B,,SP,55,Write Transaction,00 00
0,2752,0:23.087.524,86.600 us,2 B,,SP,55,Read Transaction,00 08*
0,2753,0:23.092.888,79.100 us,2 B,,SP,55,Write Transaction,12 01
0,2754,0:23.098.238,1.184.400 ms,46 B,,SP,55,Read Transaction,00 6C FF A2 00 80 FC 30 02 85 52 02 84 DD 16 27 FD 16 26 EA 26 C6 21 26 C4 F9 00 02 6C 64 00 00 00 00 00 00 00 00 00 00 00 00 00 00 01 03*
0,2755,0:23.099.835,79.200 us,2 B,,SP,55,Write Transaction,00 00
0,2756,0:23.105.186,86.700 us,2 B,,SP,55,Read Transaction,00 00*
0,2757,0:23.114.150,79.100 us,2 B,,SP,55,Write Transaction,00 00
0,2758,0:23.119.498,87.100 us,2 B,,SP,55,Read Transaction,00 08*
0,2759,0:23.124.864,79.100 us,2 B,,SP,55,Write Transaction,12 01
0,2760,0:23.130.216,1.182.700 ms,46 B,,SP,55,Read Transaction,00 6D FF A1 00 7E FC 30 02 85 AE 02 85 2D 16 28 6E 16 27 61 26 C6 87 26 C5 64 00 02 6C 64 25 A9 64 00 00 00 00 00 00 00 00 00 00 00 01 03*
0,2761,0:23.132.852,79.100 us,2 B,,SP,55,Write Transaction,00 00
0,2762,0:23.138.207,86.600 us,2 B,,SP,55,Read Transaction,00 00*
0,2763,0:23.147.112,79.200 us,2 B,,SP,55,Write Transaction,00 00
0,2764,0:23.152.464,91.100 us,2 B,,SP,55,Read Transaction,00 00*
0,2765,0:23.162.000,79.100 us,2 B,,SP,55,Write Transaction,00 00
0,2766,0:23.167.351,86.600 us,2 B,,SP,55,Read Transaction,00 08*
0,2767,0:23.172.718,79.100 us,2 B,,SP,55,Write Transaction,12 01
0,2768,0:23.178.067,1.182.700 ms,46 B,,SP,55,Read Transaction,00 6E FF A5 00 82 FC 36 02 87 0C 02 86 95 16 29 21 16 28 0D 26 C6 F8 26 C5 CE 00 02 6C 64 00 00 00 00 00 00 00 00 00 00 00 00 00 00 01 03*
0,2769,0:23.179.660,79.000 us,2 B,,SP,55,Write Transaction,00 00
0,2770,0:23.185.011,86.600 us,2 B,,SP,55,Read Transaction,00 00*
0,2771,0:23.194.002,79.200 us,2 B,,SP,55,Write Transaction,00 00
0,2772,0:23.199.357,87.100 us,2 B,,SP,55,Read Transaction,00 08*
0,2773,0:23.204.720,79.100 us,2 B,,SP,55,Write Transaction,12 01
0,2774,0:23.210.072,1.182.800 ms,46 B,,SP,55,Read Transaction,00 6F FF AC 00 80 FC 34 02 89 2D 02 88 AC 16 2A 4A 16 29 32 26 C7 C7 26 C6 9A 00 02 6C 64 00 00 00 00 00 00 00 00 00 00 00 00 00 00 01 03*
0,2775,0:23.213.941,79.100 us,2 B,,SP,55,Write Transaction,00 00
0,2776,0:23.219.293,86.600 us,2 B,,SP,55,Read Transaction,00 00*
0,2777,0:23.227.186,79.100 us,2 B,,SP,55,Write Transaction,00 00
0,2778,0:23.232.535,91.100 us,2 B,,SP,55,Read Transaction,00 00*
0,2779,0:23.242.087,79.000 us,2 B,,SP,55,Write Transaction,00 00
0,2780,0:23.247.451,86.700 us,2 B,,SP,55,Read Transaction,00 08*
0,2781,0:23.252.820,79.100 us,2 B,,SP,55,Write Transaction,12 01
0,2782,0:23.258.172,1.184.400 ms,46 B,,SP,55,Read Transaction,00 70 FF A7 00 7C FC 2C 02 8C 25 02 8B 9D 16 2B 99 16 2A 89 26 C8 80 26 C7 53 00 02 6C 64 00 00 00 00 00 00 00 00 00 00 00 00 00 00 01 03*
0,2783,0:23.261.024,79.200 us,2 B,,SP,55,Write Transaction,00 00
0,2784,0:23.266.376,86.600 us,2 B,,SP,55,Read Transaction,00 00*
0,2785,0:23.274.076,79.000 us,2 B,,SP,55,Write Transaction,00 00
0,2786,0:23.279.427,87.100 us,2 B,,SP,55,Read Transaction,00 08*
0,2787,0:23.284.792,79.100 us,2 B,,SP,55,Write Transaction,12 01
0,2788,0:23.290.146,1.182.800 ms,46 B,,SP,55,Read Transaction,00 71 FF A8 00 7F FC 30 02 8E FF 02 8E 80 16 2C B5 16 2B 9E 26 C9 44 26 C8 1C 00 02 6C 64 00 00 00 00 00 00 00 00 00 00 00 00 00 00 01 03*
0,2789,0:23.292.793,79.000 us,2 B,,SP,55,Write Transaction,00 00
0,2790,0:23.298.144,86.600 us,2 B,,SP,55,Read Transaction,00 00*
0,2791,0:23.308.237,79.100 us,2 B,,SP,55,Write Transaction,00 00
0,2792,0:23.313.590,91.100 us,2 B,,SP,55,Read Transaction,00 00*
0,2793,0:23.323.137,79.000 us,2 B,,SP,55,Write Transaction,00 00
0,2794,0:23.328.489,86.700 us,2 B,,SP,55,Read Transaction,00 08*
0,2795,0:23.333.856,79.000 us,2 B,,SP,55,Write Transaction,12 01
0,2796,0:23.339.206,1.182.600 ms,46 B,,SP,55,Read Transaction,00 72 FF A7 00 7D FC 2B 02 92 55 02 91 CB 16 2E 1E 16 2D 07 26 CA 2B 26 C8 FB 00 02 6C 64 00 00 00 00 00 00 00 00 00 00 00 00 00 00 01 03*
0,2797,0:23.340.789,79.100 us,2 B,,SP,55,Write Transaction,00 00
0,2798,0:23.346.137,86.600 us,2 B,,SP,55,Read Transaction,00 00*
0,2799,0:23.355.115,79.000 us,2 B,,SP,55,Write Transaction,00 00
0,2800,0:23.360.465,87.100 us,2 B,,SP,55,Read Transaction,00 08*
0,2801,0:23.365.831,79.000 us,2 B,,SP,55,Write Transaction,12 01
0,2802,0:23.371.180,1.182.600 ms,46 B,,SP,55,Read Transaction,00 73 FF A6 00 80 FC 31 02 95 1F 02 94 98 16 2E E7 16 2D D2 26 CA B2 26 C9 89 00 02 6C 64 00 00 00 00 00 00 00 00 00 00 00 00 00 00 01 03*
0,2803,0:23.375.166,79.100 us,2 B,,SP,55,Write Transaction,00 00
0,2804,0:23.380.517,86.600 us,2 B,,SP,55,Read Transaction,00 00*
0,2805,0:23.388.070,79.200 us,2 B,,SP,55,Write Transaction,00 00
0,2806,0:23.393.428,91.100 us,2 B,,SP,55,Read Transaction,00 00*
0,2807,0:23.403.206,79.100 us,2 B,,SP,55,Write Transaction,00 00
0,2808,0:23.408.555,86.600 us,2 B,,SP,55,Read Transaction,00 08*
0,2809,0:23.413.924,79.200 us,2 B,,SP,55,Write Transaction,12 01
0,2810,0:23.419.273,1.182.300 ms,46 B,,SP,55,Read Transaction,00 74 FF A4 00 80 FC 2E 02 98 2C 02 97 A7 16 30 38 16 2F 2A 26 CB 90 26 CA 6D 00 02 6C 64 00 00 00 00 00 00 00 00 00 00 00 00 00 00 01 03*
0,2811,0:23.422.090,79.200 us,2 B,,SP,55,Write Transaction,00 00
0,2812,0:23.427.444,86.600 us,2 B,,SP,55,Read Transaction,00 00*
0,2813,0:23.435.203,79.100 us,2 B,,SP,55,Write Transaction,00 00
0,2814,0:23.440.551,87.100 us,2 B,,SP,55,Read Transaction,00 08*
0,2815,0:23.445.923,79.200 us,2 B,,SP,55,Write Transaction,12 01
0,2816,0:23.451.278,1.182.600 ms,46 B,,SP,55,Read Transaction,00 75 FF A7 00 7D FC 31 02 9B 68 02 9A E4 16 31 7C 16 30 6D 26 CC 51 26 CB 35 00 02 6C 64 00 00 00 00 00 00 00 00 00 00 00 00 00 00 01 03*
0,2817,0:23.453.966,79.100 us,2 B,,SP,55,Write Transaction,00 00
0,2818,0:23.459.315,86.600 us,2 B,,SP,55,Read Transaction,00 00*
0,2819,0:23.468.153,79.200 us,2 B,,SP,55,Write Transaction,00 00
0,2820,0:23.473.513,91.100 us,2 B,,SP,55,Read Transaction,00 00*
0,2821,0:23.483.041,79.100 us,2 B,,SP,55,Write Transaction,00 00
0,2822,0:23.488.391,86.600 us,2 B,,SP,55,Read Transaction,00 08*
0,2823,0:23.493.755,79.100 us,2 B,,SP,55,Write Transaction,12 01
0,2824,0:23.499.111,1.184.200 ms,46 B,,SP,55,Read Transaction,00 76 FF A9 00 7D FC 34 02 9E 7D 02 9D F7 16 32 93 16 31 83 26 CD 0B 26 CB E7 00 02 6C 64 00 00 00 00 00 00 00 00 00 00 00 00 00 00 01 03*
0,2825,0:23.500.707,79.200 us,2 B,,SP,55,Write Transaction,00 00
0,2826,0:23.506.066,86.600 us,2 B,,SP,55,Read Transaction,00 00*
0,2827,0:23.515.029,79.100 us,2 B,,SP,55,Write Transaction,00 00
0,2828,0:23.520.378,87.100 us,2 B,,SP,55,Read Transaction,00 08*
0,2829,0:23.525.745,79.100 us,2 B,,SP,55,Write Transaction,12 01
0,2830,0:23.531.095,1.182.700 ms,46 B,,SP,55,Read Transaction,00 77 FF AD 00 7E FC 33 02 A1 65 02 A0 DD 16 33 E0 16 32 D4 26 CD E8 26 CC BE 00 02 6C 64 00 00 00 00 00 00 00 00 00 00 00 00 00 00 01 03*
0,2831,0:23.533.732,79.100 us,2 B,,SP,55,Write Transaction,00 00
0,2832,0:23.539.085,86.600 us,2 B,,SP,55,Read Transaction,00 00*
0,2833,0:23.547.981,79.100 us,2 B,,SP,55,Write Transaction,00 00
0,2834,0:23.553.333,91.200 us,2 B,,SP,55,Read Transaction,00 00*
0,2835,0:23.563.115,79.100 us,2 B,,SP,55,Write Transaction,00 00
0,2836,0:23.568.465,86.600 us,2 B,,SP,55,Read Transaction,00 08*
0,2837,0:23.573.828,79.100 us,2 B,,SP,55,Write Transaction,12 01
0,2838,0:23.579.178,1.182.600 ms,46 B,,SP,55,Read Transaction,00 78 FF A7 00 7B FC 30 02 A5 1F 02 A4 90 16 35 CC 16 34 BF 26 CF 25 26 CD FF 00 02 6C 64 00 00 00 00 00 00 00 00 00 00 00 00 00 00 01 03*
0,2839,0:23.580.771,79.000 us,2 B,,SP,55,Write Transaction,00 00
0,2840,0:23.586.122,86.500 us,2 B,,SP,55,Read Transaction,00 00*
0,2841,0:23.595.092,79.100 us,2 B,,SP,55,Write Transaction,00 00
0,2842,0:23.600.442,87.100 us,2 B,,SP,55,Read Transaction,00 08*
0,2843,0:23.605.809,79.100 us,2 B,,SP,55,Write Transaction,12 01
0,2844,0:23.611.159,1.182.300 ms,46 B,,SP,55,Read Transaction,00 79 FF A6 00 80 FC 31 02 A8 86 02 A7 FD 16 37 38 16 36 2A 26 D0 35 26 CF 0C 00 02 6C 64 00 00 00 00 00 00 00 00 00 00 00 00 00 00 01 03*
0,2845,0:23.615.026,79.100 us,2 B,,SP,55,Write Transaction,00 00
0,2846,0:23.620.377,86.600 us,2 B,,SP,55,Read Transaction,00 00*
0,2847,0:23.628.067,79.200 us,2 B,,SP,55,Write Transaction,00 00
0,2848,0:23.633.423,91.200 us,2 B,,SP,55,Read Transaction,00 00*
0,2849,0:23.643.184,79.100 us,2 B,,SP,55,Write Transaction,00 00
0,2850,0:23.648.536,86.600 us,2 B,,SP,55,Read Transaction,00 08*
0,2851,0:23.653.902,79.100 us,2 B,,SP,55,Write Transaction,12 01
0,2852,0:23.659.253,1.182.500 ms,46 B,,SP,55,Read Transaction,00 7A FF AF 00 80 FC 29 02 AC F0 02 AC 67 16 39 BE 16 38 B1 26 D1 CC 26 D0 A9 00 02 6C 64 00 00 00 00 00 00 00 00 00 00 00 00 00 00 01 03*
0,2853,0:23.662.080,79.100 us,2 B,,SP,55,Write Transaction,00 00
0,2854,0:23.667.430,86.600 us,2 B,,SP,55,Read Transaction,00 00*
0,2855,0:23.675.170,79.100 us,2 B,,SP,55,Write Transaction,00 00
0,2856,0:23.680.522,87.100 us,2 B,,SP,55,Read Transaction,00 08*
0,2857,0:23.685.887,79.000 us,2 B,,SP,55,Write Transaction,12 01
0,2858,0:23.691.237,1.182.500 ms,46 B,,SP,55,Read Transaction,00 7B FF A8 00 7D FC 30 02 AF F6 02 AF 66 16 3A 64 16 39 56 26 D1 D1 26 D0 B1 00 02 6C 64 00 00 00 00 00 00 00 00 00 00 00 00 00 00 01 03*
0,2859,0:23.693.883,79.000 us,2 B,,SP,55,Write Transaction,00 00
0,2860,0:23.699.234,86.500 us,2 B,,SP,55,Read Transaction,00 00*
0,2861,0:23.708.123,79.100 us,2 B,,SP,55,Write Transaction,00 00
0,2862,0:23.713.473,91.100 us,2 B,,SP,55,Read Transaction,00 00*
0,2863,0:23.723.019,79.200 us,2 B,,SP,55,Write Transaction,00 00
0,2864,0:23.728.372,86.600 us,2 B,,SP,55,Read Transaction,00 08*
0,2865,0:23.733.738,79.000 us,2 B,,SP,55,Write Transaction,12 01
0,2866,0:23.739.087,1.182.700 ms,46 B,,SP,55,Read Transaction,00 7C FF AB 00 7A FC 2B 02 A8 4C 02 A7 C2 16 35 17 16 34 08 26 CE D4 26 CD B1 00 02 6C 64 00 00 00 00 00 00 00 00 00 00 00 00 00 00 01 03*
0,2867,0:23.740.669,79.100 us,2 B,,SP,55,Write Transaction,00 00
0,2868,0:23.746.021,86.600 us,2 B,,SP,55,Read Transaction,00 00*
0,2869,0:23.754.996,79.100 us,2 B,,SP,55,Write Transaction,00 00
0,2870,0:23.760.347,87.100 us,2 B,,SP,55,Read Transaction,00 08*
0,2871,0:23.765.713,79.100 us,2 B,,SP,55,Write Transaction,12 01
0,2872,0:23.771.064,1.182.700 ms,46 B,,SP,55,Read Transaction,00 7D FF A9 00 81 FC 33 02 9B 01 02 9A 73 16 2F D4 16 2E C5 26 CC 48 26 CB 27 00 02 6C 64 00 00 00 00 00 00 00 00 00 00 00 00 00 00 01 03*
0,2873,0:23.774.941,79.100 us,2 B,,SP,55,Write Transaction,00 00
0,2874,0:23.780.296,86.600 us,2 B,,SP,55,Read Transaction,00 00*
0,2875,0:23.787.955,79.100 us,2 B,,SP,55,Write Transaction,00 00
0,2876,0:23.793.302,91.100 us,2 B,,SP,55,Read Transaction,00 00*
0,2877,0:23.803.111,79.200 us,2 B,,SP,55,Write Transaction,00 00
0,2878,0:23.808.463,86.700 us,2 B,,SP,55,Read Transaction,00 08*
0,2879,0:23.813.829,79.000 us,2 B,,SP,55,Write Transaction,12 01
0,2880,0:23.819.179,1.182.700 ms,46 B,,SP,55,Read Transaction,00 7E FF A7 00 7A FC 31 02 8F 39 02 8E BA 16 2C BD 16 2B AA 26 CA FB 26 C9 D7 00 02 6C 64 00 00 00 00 00 00 00 00 00 00 00 00 00 00 01 03*
0,2881,0:23.822.051,79.100 us,2 B,,SP,55,Write Transaction,00 00
0,2882,0:23.827.400,86.600 us,2 B,,SP,55,Read Transaction,00 00*
0,2883,0:23.835.083,79.100 us,2 B,,SP,55,Write Transaction,00 00
0,2884,0:23.840.438,87.200 us,2 B,,SP,55,Read Transaction,00 08*
0,2885,0:23.845.802,79.100 us,2 B,,SP,55,Write Transaction,12 01
0,2886,0:23.851.154,1.182.700 ms,46 B,,SP,55,Read Transaction,00 7F FF A5 00 7D FC 2F 02 88 C6 02 88 48 16 2B 8C 16 2A 82 26 CA 8C 26 C9 68 00 02 6C 64 00 00 00 00 00 00 00 00 00 00 00 00 00 00 01 03*
0,2887,0:23.852.735,79.100 us,2 B,,SP,55,Write Transaction,00 00
0,2888,0:23.858.085,86.600 us,2 B,,SP,55,Read Transaction,00 00*
0,2889,0:23.867.071,79.200 us,2 B,,SP,55,Write Transaction,00 00
0,2890,0:23.872.420,91.100 us,2 B,,SP,55,Read Transaction,00 00*
0,2891,0:23.882.199,79.000 us,2 B,,SP,55,Write Transaction,00 00
0,2892,0:23.887.546,87.100 us,2 B,,SP,55,Read Transaction,00 08*
0,2893,0:23.892.912,79.100 us,2 B,,SP,55,Write Transaction,12 01
0,2894,0:23.898.260,1.182.400 ms,46 B,,SP,55,Read Transaction,00 80 FF A3 00 7B FC 30 02 83 7A 02 82 FE 16 2A 87 16 29 77 26 CA 4B 26 C9 27 00 02 6C 64 00 00 00 00 00 00 00 00 00 00 00 00 00 00 01 03*
0,2895,0:23.900.956,79.100 us,2 B,,SP,55,Write Transaction,00 00
0,2896,0:23.906.306,86.600 us,2 B,,SP,55,Read Transaction,00 00*
0,2897,0:23.915.149,79.000 us,2 B,,SP,55,Write Transaction,00 00
0,2898,0:23.920.501,87.100 us,2 B,,SP,55,Read Transaction,00 08*
0,2899,0:23.925.868,79.000 us,2 B,,SP,55,Write Transaction,12 01
0,2900,0:23.931.216,1.182.700 ms,46 B,,SP,55,Read Transaction,00 81 FF A8 00 7A FC 2F 02 80 54 02 7F D9 16 2A 7D 16 29 6C 26 CA 8B 26 C9 5B 00 02 6C 64 00 00 00 00 00 00 00 00 00 00 00 00 00 00 01 03*
0,2901,0:23.932.800,79.100 us,2 B,,SP,55,Write Transaction,00 00
0,2902,0:23.938.158,86.700 us,2 B,,SP,55,Read Transaction,00 00*
0,2903,0:23.947.126,79.100 us,2 B,,SP,55,Write Transaction,00 00
0,2904,0:23.952.478,91.200 us,2 B,,SP,55,Read Transaction,00 00*
0,2905,0:23.962.038,79.000 us,2 B,,SP,55,Write Transaction,00 00
0,2906,0:23.967.387,86.600 us,2 B,,SP,55,Read Transaction,00 08*
0,2907,0:23.972.753,79.100 us,2 B,,SP,55,Write Transaction,12 01
0,2908,0:23.978.104,1.182.600 ms,46 B,,SP,55,Read Transaction,00 82 FF A9 00 80 FC 3A 02 81 30 02 80 B1 16 2B 93 16 2A 85 26 CB 38 26 CA 10 00 02 6C 64 00 00 00 00 00 00 00 00 00 00 00 00 00 00 01 03*
0,2909,0:23.980.748,79.000 us,2 B,,SP,55,Write Transaction,00 00
0,2910,0:23.986.130,86.700 us,2 B,,SP,55,Read Transaction,00 00*
0,2911,0:23.994.994,79.100 us,2 B,,SP,55,Write Transaction,00 00
0,2912,0:24.000.345,87.100 us,2 B,,SP,55,Read Transaction,00 08*
0,2913,0:24.005.711,79.100 us,2 B,,SP,55,Write Transaction,12 01
0,2914,0:24.011.060,1.182.500 ms,46 B,,SP,55,Read Transaction,00 83 FF A7 00 7E FC 36 02 83 26 02 82 A5 16 2C 9C 16 2B 8B 26 CB D5 26 CA AB 00 02 6C 64 00 00 00 00 00 00 00 00 00 00 00 00 00 00 01 03*
0,2915,0:24.013.945,79.100 us,2 B,,SP,55,Write Transaction,00 00
0,2916,0:24.019.294,86.600 us,2 B,,SP,55,Read Transaction,00 00*
0,2917,0:24.026.960,79.000 us,2 B,,SP,55,Write Transaction,00 00
0,2918,0:24.032.311,91.200 us,2 B,,SP,55,Read Transaction,00 00*
0,2919,0:24.042.114,79.200 us,2 B,,SP,55,Write Transaction,00 00
0,2920,0:24.047.471,86.700 us,2 B,,SP,55,Read Transaction,00 08*
0,2921,0:24.052.841,79.100 us,2 B,,SP,55,Write Transaction,12 01
0,2922,0:24.058.191,1.182.100 ms,46 B,,SP,55,Read Transaction,00 84 FF A7 00 7C FC 32 02 84 DE 02 84 57 16 2D 92 16 2C 7B 26 CC 80 26 CB 56 00 02 6C 64 00 00 00 00 00 00 00 00 00 00 00 00 00 00 01 03*
0,2923,0:24.062.058,79.100 us,2 B,,SP,55,Write Transaction,00 00
0,2924,0:24.067.407,86.600 us,2 B,,SP,55,Read Transaction,00 00*
0,2925,0:24.075.068,79.200 us,2 B,,SP,55,Write Transaction,00 00
0,2926,0:24.080.419,87.000 us,2 B,,SP,55,Read Transaction,00 08*
0,2927,0:24.085.786,79.000 us,2 B,,SP,55,Write Transaction,12 01
0,2928,0:24.091.135,1.182.600 ms,46 B,,SP,55,Read Transaction,00 85 FF A9 00 81 FC 32 02 85 FD 02 85 81 16 2D EC 16 2C D4 26 CC EB 26 CB C0 00 02 6C 64 26 52 64 00 00 00 00 00 00 00 00 00 00 00 01 03*
0,2929,0:24.092.730,79.100 us,2 B,,SP,55,Write Transaction,00 00
0,2930,0:24.098.079,86.600 us,2 B,,SP,55,Read Transaction,00 00*
0,2931,0:24.107.452,79.100 us,2 B,,SP,55,Write Transaction,00 00
0,2932,0:24.112.804,91.200 us,2 B,,SP,55,Read Transaction,00 00*
0,2933,0:24.122.172,79.100 us,2 B,,SP,55,Write Transaction,00 00
0,2934,0:24.127.524,86.600 us,2 B,,SP,55,Read Transaction,00 08*
0,2935,0:24.132.888,79.000 us,2 B,,SP,55,Write Transaction,12 01
0,2936,0:24.138.243,1.182.600 ms,46 B,,SP,55,Read Transaction,00 86 FF A3 00 7F FC 2C 02 87 DE 02 87 5E 16 2E F5 16 2D DF 26 CD A0 26 CC 74 00 02 6C 64 00 00 00 00 00 00 00 00 00 00 00 00 00 00 01 03*
0,2937,0:24.140.878,79.100 us,2 B,,SP,55,Write Transaction,00 00
0,2938,0:24.146.232,86.600 us,2 B,,SP,55,Read Transaction,00 00*
0,2939,0:24.155.147,79.100 us,2 B,,SP,55,Write Transaction,00 00
0,2940,0:24.160.497,87.100 us,2 B,,SP,55,Read Transaction,00 08*
0,2941,0:24.165.868,79.200 us,2 B,,SP,55,Write Transaction,12 01
0,2942,0:24.171.224,1.182.700 ms,46 B,,SP,55,Read Transaction,00 87 FF A7 00 80 FC 32 02 8B 90 02 8B 08 16 30 F9 16 2F E7 26 CE EE 26 CD C6 00 02 6C 64 00 00 00 00 00 00 00 00 00 00 00 00 00 00 01 03*
0,2943,0:24.174.063,79.000 us,2 B,,SP,55,Write Transaction,00 00
0,2944,0:24.179.415,86.600 us,2 B,,SP,55,Read Transaction,00 00*
0,2945,0:24.187.137,79.200 us,2 B,,SP,55,Write Transaction,00 00
0,2946,0:24.192.496,91.200 us,2 B,,SP,55,Read Transaction,00 00*
0,2947,0:24.202.005,79.000 us,2 B,,SP,55,Write Transaction,00 00
0,2948,0:24.207.357,86.600 us,2 B,,SP,55,Read Transaction,00 08*
0,2949,0:24.212.725,79.200 us,2 B,,SP,55,Write Transaction,12 01
0,2950,0:24.218.084,1.184.100 ms,46 B,,SP,55,Read Transaction,00 88 FF A8 00 7E FC 33 02 8F 62 02 8E DD 16 32 80 16 31 71 26 CF EE 26 CE CB 00 02 6C 64 00 00 00 00 00 00 00 00 00 00 00 00 00 00 01 03*
0,2951,0:24.221.953,79.000 us,2 B,,SP,55,Write Transaction,00 00
0,2952,0:24.227.307,86.600 us,2 B,,SP,55,Read Transaction,00 00*
0,2953,0:24.234.973,79.000 us,2 B,,SP,55,Write Transaction,00 00
0,2954,0:24.240.324,87.100 us,2 B,,SP,55,Read Transaction,00 08*
0,2955,0:24.245.692,79.100 us,2 B,,SP,55,Write Transaction,12 01
0,2956,0:24.251.044,1.183.900 ms,46 B,,SP,55,Read Transaction,00 89 FF A5 00 7B FC 31 02 93 33 02 92 AA 16 33 FC 16 32 E8 26 D0 E5 26 CF C3 00 02 6C 64 00 00 00 00 00 00 00 00 00 00 00 00 00 00 01 03*
0,2957,0:24.252.629,79.200 us,2 B,,SP,55,Write Transaction,00 00
0,2958,0:24.257.982,86.600 us,2 B,,SP,55,Read Transaction,00 00*
0,2959,0:24.266.939,79.000 us,2 B,,SP,55,Write Transaction,00 00
0,2960,0:24.272.289,91.200 us,2 B,,SP,55,Read Transaction,00 00*
0,2961,0:24.282.083,79.100 us,2 B,,SP,55,Write Transaction,00 00
0,2962,0:24.287.433,86.600 us,2 B,,SP,55,Read Transaction,00 08*
0,2963,0:24.292.799,79.000 us,2 B,,SP,55,Write Transaction,12 01
0,2964,0:24.298.148,1.182.600 ms,46 B,,SP,55,Read Transaction,00 8A FF A8 00 7E FC 30 02 96 F4 02 96 71 16 35 8F 16 34 83 26 D1 E6 26 D0 C2 00 02 6C 64 00 00 00 00 00 00 00 00 00 00 00 00 00 00 01 03*
0,2965,0:24.300.792,79.100 us,2 B,,SP,55,Write Transaction,00 00
0,2966,0:24.306.179,86.600 us,2 B,,SP,55,Read Transaction,00 00*
0,2967,0:24.315.036,79.000 us,2 B,,SP,55,Write Transaction,00 00
0,2968,0:24.320.391,87.200 us,2 B,,SP,55,Read Transaction,00 08*
0,2969,0:24.325.758,79.000 us,2 B,,SP,55,Write Transaction,12 01
0,2970,0:24.331.107,1.182.700 ms,46 B,,SP,55,Read Transaction,00 8B FF A8 00 80 FC 2B 02 9A CB 02 9A 4A 16 37 3C 16 36 2E 26 D3 01 26 D1 DC 00 02 6C 64 00 00 00 00 00 00 00 00 00 00 00 00 00 00 01 03*
0,2971,0:24.332.692,79.000 us,2 B,,SP,55,Write Transaction,00 00
0,2972,0:24.338.042,86.600 us,2 B,,SP,55,Read Transaction,00 00*
0,2973,0:24.347.025,79.200 us,2 B,,SP,55,Write Transaction,00 00
0,2974,0:24.352.382,91.300 us,2 B,,SP,55,Read Transaction,00 00*
0,2975,0:24.362.161,79.200 us,2 B,,SP,55,Write Transaction,00 00
0,2976,0:24.367.517,86.600 us,2 B,,SP,55,Read Transaction,00 08*
0,2977,0:24.372.884,79.100 us,2 B,,SP,55,Write Transaction,12 01
0,2978,0:24.378.240,1.182.700 ms,46 B,,SP,55,Read Transaction,00 8C FF A9 00 83 FC 33 02 9E 9D 02 9E 0F 16 38 AF 16 37 A1 26 D3 EC 26 D2 C6 00 02 6C 64 00 00 00 00 00 00 00 00 00 00 00 00 00 00 01 03*
0,2979,0:24.380.992,79.000 us,2 B,,SP,55,Write Transaction,00 00
0,2980,0:24.386.341,86.700 us,2 B,,SP,55,Read Transaction,00 00*
0,2981,0:24.396.089,79.100 us,2 B,,SP,55,Write Transaction,00 00
0,2982,0:24.401.441,87.100 us,2 B,,SP,55,Read Transaction,00 08*
0,2983,0:24.406.811,79.200 us,2 B,,SP,55,Write Transaction,12 01
0,2984,0:24.412.163,1.182.700 ms,46 B,,SP,55,Read Transaction,00 8D FF A9 00 81 FC 31 02 A1 B9 02 A1 35 16 39 D8 16 38 C2 26 D4 AC 26 D3 84 00 02 6C 64 00 00 00 00 00 00 00 00 00 00 00 00 00 00 01 03*
0,2985,0:24.414.984,79.100 us,2 B,,SP,55,Write Transaction,00 00
0,2986,0:24.420.334,86.600 us,2 B,,SP,55,Read Transaction,00 00*
0,2987,0:24.428.083,79.100 us,2 B,,SP,55,Write Transaction,00 00
0,2988,0:24.433.433,91.300 us,2 B,,SP,55,Read Transaction,00 00*
0,2989,0:24.442.973,79.100 us,2 B,,SP,55,Write Transaction,00 00
0,2990,0:24.448.320,86.600 us,2 B,,SP,55,Read Transaction,00 08*
0,2991,0:24.453.685,79.000 us,2 B,,SP,55,Write Transaction,12 01
0,2992,0:24.459.036,1.182.500 ms,46 B,,SP,55,Read Transaction,00 8E FF A8 00 7C FC 2E 02 A5 0F 02 A4 7C 16 3B 2B 16 3A 19 26 D5 83 26 D4 64 00 02 6C 64 00 00 00 00 00 00 00 00 00 00 00 00 00 00 01 03*
0,2993,0:24.462.905,79.100 us,2 B,,SP,55,Write Transaction,00 00
0,2994,0:24.468.255,86.600 us,2 B,,SP,55,Read Transaction,00 00*
0,2995,0:24.476.210,79.100 us,2 B,,SP,55,Write Transaction,00 00
0,2996,0:24.481.563,87.100 us,2 B,,SP,55,Read Transaction,00 08*
0,2997,0:24.486.928,79.000 us,2 B,,SP,55,Write Transaction,12 01
0,2998,0:24.492.277,1.182.500 ms,46 B,,SP,55,Read Transaction,00 8F FF A7 00 7C FC 2B 02 A7 DE 02 A7 52 16 3B DC 16 3A CB 26 D6 06 26 D4 E0 00 02 6C 64 00 00 00 00 00 00 00 00 00 00 00 00 00 00 01 03*
0,2999,0:24.493.884,79.000 us,2 B,,SP,55,Write Transaction,00 00
0,3000,0:24.499.234,86.600 us,2 B,,SP,55,Read Transaction,00 00*
0,3001,0:24.508.146,79.100 us,2 B,,SP,55,Write Transaction,00 00
0,3002,0:24.513.497,91.200 us,2 B,,SP,55,Read Transaction,00 00*
0,3003,0:24.523.054,79.100 us,2 B,,SP,55,Write Transaction,00 00
0,3004,0:24.528.402,86.600 us,2 B,,SP,55,Read Transaction,00 08*
0,3005,0:24.533.768,79.100 us,2 B,,SP,55,Write Transaction,12 01
0,3006,0:24.539.119,1.182.700 ms,46 B,,SP,55,Read Transaction,00 90 FF AA 00 7C FC 31 02 AA 2E 02 A9 9E 16 3C A3 16 3B 90 26 D6 94 26 D5 6C 00 02 6C 64 00 00 00 00 00 00 00 00 00 00 00 00 00 00 01 03*
0,3007,0:24.541.753,79.000 us,2 B,,SP,55,Write Transaction,00 00
0,3008,0:24.547.105,86.600 us,2 B,,SP,55,Read Transaction,00 00*
0,3009,0:24.557.040,79.000 us,2 B,,SP,55,Write Transaction,00 00
0,3010,0:24.562.390,87.100 us,2 B,,SP,55,Read Transaction,00 08*
0,3011,0:24.567.757,79.000 us,2 B,,SP,55,Write Transaction,12 01
0,3012,0:24.573.108,1.182.600 ms,46 B,,SP,55,Read Transaction,00 91 FF A7 00 81 FC 33 02 AC 3B 02 AB B1 16 3C FD 16 3B EE 26 D6 F0 26 D5 CA 00 02 6C 64 00 00 00 00 00 00 00 00 00 00 00 00 00 00 01 03*
0,3013,0:24.574.702,79.100 us,2 B,,SP,55,Write Transaction,00 00
0,3014,0:24.580.051,86.600 us,2 B,,SP,55,Read Transaction,00 00*
0,3015,0:24.588.957,79.100 us,2 B,,SP,55,Write Transaction,00 00
0,3016,0:24.594.309,91.200 us,2 B,,SP,55,Read Transaction,00 00*
0,3017,0:24.604.086,79.100 us,2 B,,SP,55,Write Transaction,00 00
0,3018,0:24.609.443,86.600 us,2 B,,SP,55,Read Transaction,00 08*
0,3019,0:24.614.806,79.000 us,2 B,,SP,55,Write Transaction,12 01
0,3020,0:24.620.156,1.182.500 ms,46 B,,SP,55,Read Transaction,00 92 FF A4 00 7F FC 2E 02 AE EA 02 AE 60 16 3E 59 16 3D 46 26 D7 C0 26 D6 98 00 02 6C 64 00 00 00 00 00 00 00 00 00 00 00 00 00 00 01 03*
0,3021,0:24.624.023,79.000 us,2 B,,SP,55,Write Transaction,00 00
0,3022,0:24.629.375,89.700 us,2 B,,SP,55,Read Transaction,00 00*
0,3023,0:24.637.057,79.100 us,2 B,,SP,55,Write Transaction,00 00
0,3024,0:24.642.437,87.100 us,2 B,,SP,55,Read Transaction,00 08*
0,3025,0:24.647.803,79.100 us,2 B,,SP,55,Write Transaction,12 01
0,3026,0:24.653.153,1.182.500 ms,46 B,,SP,55,Read Transaction,00 93 FF AA 00 81 FC 2D 02 B1 94 02 B1 0A 16 3F 1B 16 3E 11 26 D7 FD 26 D6 DB 00 02 6C 64 00 00 00 00 00 00 00 00 00 00 00 00 00 00 01 03*
0,3027,0:24.654.737,79.100 us,2 B,,SP,55,Write Transaction,00 00
0,3028,0:24.660.088,86.600 us,2 B,,SP,55,Read Transaction,00 00*
0,3029,0:24.669.023,79.100 us,2 B,,SP,55,Write Transaction,00 00
0,3030,0:24.674.374,91.000 us,2 B,,SP,55,Read Transaction,00 00*
0,3031,0:24.684.163,79.100 us,2 B,,SP,55,Write Transaction,00 00
0,3032,0:24.689.515,86.600 us,2 B,,SP,55,Read Transaction,00 08*
0,3033,0:24.694.945,79.000 us,2 B,,SP,55,Write Transaction,12 01
0,3034,0:24.700.295,1.182.700 ms,46 B,,SP,55,Read Transaction,00 94 FF A9 00 80 FC 30 02 AA 66 02 A9 E1 16 3A 6A 16 39 5A 26 D5 2E 26 D4 0E 00 02 6C 64 00 00 00 00 00 00 00 00 00 00 00 00 00 00 01 03*
0,3035,0:24.702.939,79.000 us,2 B,,SP,55,Write Transaction,00 00
0,3036,0:24.708.290,87.000 us,2 B,,SP,55,Read Transaction,00 00*
0,3037,0:24.717.120,79.100 us,2 B,,SP,55,Write Transaction,00 00
0,3038,0:24.722.471,87.000 us,2 B,,SP,55,Read Transaction,00 08*
0,3039,0:24.727.836,79.000 us,2 B,,SP,55,Write Transaction,12 01
0,3040,0:24.733.188,1.182.800 ms,46 B,,SP,55,Read Transaction,00 95 FF AB 00 7E FC 32 02 9C E3 02 9C 5B 16 35 9F 16 34 8A 26 D2 E5 26 D1 BD 00 02 6C 64 00 00 00 00 00 00 00 00 00 00 00 00 00 00 01 03*
0,3041,0:24.734.771,79.000 us,2 B,,SP,55,Write Transaction,00 00
0,3042,0:24.740.123,86.600 us,2 B,,SP,55,Read Transaction,00 00*
0,3043,0:24.749.104,79.000 us,2 B,,SP,55,Write Transaction,00 00
0,3044,0:24.754.454,90.500 us,2 B,,SP,55,Read Transaction,00 00*
0,3045,0:24.763.996,79.000 us,2 B,,SP,55,Write Transaction,00 00
0,3046,0:24.769.348,86.500 us,2 B,,SP,55,Read Transaction,00 08*
0,3047,0:24.774.721,79.200 us,2 B,,SP,55,Write Transaction,12 01
0,3048,0:24.780.074,1.182.700 ms,46 B,,SP,55,Read Transaction,00 96 FF AD 00 82 FC 33 02 91 89 02 91 00 16 32 FF 16 31 EB 26 D1 C8 26 D0 A1 00 02 6C 64 00 00 00 00 00 00 00 00 00 00 00 00 00 00 01 03*
0,3049,0:24.782.827,79.100 us,2 B,,SP,55,Write Transaction,00 00
0,3050,0:24.788.177,86.900 us,2 B,,SP,55,Read Transaction,00 00*
0,3051,0:24.796.959,79.100 us,2 B,,SP,55,Write Transaction,00 00
0,3052,0:24.802.312,87.100 us,2 B,,SP,55,Read Transaction,00 08*
0,3053,0:24.807.677,79.000 us,2 B,,SP,55,Write Transaction,12 01
0,3054,0:24.813.027,1.182.400 ms,46 B,,SP,55,Read Transaction,00 97 FF A5 00 7A FC 2E 02 8A 2E 02 89 AA 16 31 69 16 30 54 26 D1 17 26 CF EF 00 02 6C 64 00 00 00 00 00 00 00 00 00 00 00 00 00 00 01 03*
0,3055,0:24.815.847,79.100 us,2 B,,SP,55,Write Transaction,00 00
0,3056,0:24.821.197,86.600 us,2 B,,SP,55,Read Transaction,00 00*
0,3057,0:24.828.945,79.200 us,2 B,,SP,55,Write Transaction,00 00
0,3058,0:24.834.295,91.000 us,2 B,,SP,55,Read Transaction,00 00*
0,3059,0:24.844.073,79.100 us,2 B,,SP,55,Write Transaction,00 00
0,3060,0:24.849.421,86.600 us,2 B,,SP,55,Read Transaction,00 08*
0,3061,0:24.854.790,79.200 us,2 B,,SP,55,Write Transaction,12 01
0,3062,0:24.860.145,1.182.600 ms,46 B,,SP,55,Read Transaction,00 98 FF A5 00 82 FC 33 02 84 12 02 83 9B 16 2F FA 16 2E E6 26 D0 99 26 CF 78 00 02 6C 64 00 00 00 00 00 00 00 00 00 00 00 00 00 00 01 03*
0,3063,0:24.864.066,79.000 us,2 B,,SP,55,Write Transaction,00 00
0,3064,0:24.869.417,91.000 us,2 B,,SP,55,Read Transaction,00 00*
0,3065,0:24.877.043,79.100 us,2 B,,SP,55,Write Transaction,00 00
0,3066,0:24.882.394,87.100 us,2 B,,SP,55,Read Transaction,00 08*
0,3067,0:24.887.762,79.100 us,2 B,,SP,55,Write Transaction,12 01
0,3068,0:24.893.114,1.184.000 ms,46 B,,SP,55,Read Transaction,00 99 FF A6 00 81 FC 2E 02 7F 4C 02 7E DC 16 2F 2D 16 2E 1B 26 D0 51 26 CF 27 00 02 6C 64 00 00 00 00 00 00 00 00 00 00 00 00 00 00 01 03*
0,3069,0:24.894.710,79.000 us,2 B,,SP,55,Write Transaction,00 00
0,3070,0:24.900.063,86.600 us,2 B,,SP,55,Read Transaction,00 00*
0,3071,0:24.909.024,79.000 us,2 B,,SP,55,Write Transaction,00 00
0,3072,0:24.914.378,91.300 us,2 B,,SP,55,Read Transaction,00 00*
0,3073,0:24.924.146,79.200 us,2 B,,SP,55,Write Transaction,00 00
0,3074,0:24.929.498,86.600 us,2 B,,SP,55,Read Transaction,00 08*
0,3075,0:24.934.863,79.100 us,2 B,,SP,55,Write Transaction,12 01
0,3076,0:24.940.237,1.184.300 ms,46 B,,SP,55,Read Transaction,00 9A FF A6 00 7C FC 2D 02 7D 73 02 7C FC 16 2F 73 16 2E 62 26 D0 A3 26 CF 79 00 02 6C 64 00 00 00 00 00 00 00 00 00 00 00 00 00 00 01 03*
0,3077,0:24.942.873,79.100 us,2 B,,SP,55,Write Transaction,00 00
0,3078,0:24.948.222,87.300 us,2 B,,SP,55,Read Transaction,00 00*
0,3079,0:24.957.107,79.000 us,2 B,,SP,55,Write Transaction,00 00
0,3080,0:24.962.459,87.100 us,2 B,,SP,55,Read Transaction,00 08*
0,3081,0:24.967.826,79.000 us,2 B,,SP,55,Write Transaction,12 01
0,3082,0:24.973.176,1.182.600 ms,46 B,,SP,55,Read Transaction,00 9B FF A5 00 7F FC 30 02 7F 15 02 7E 94 16 30 4E 16 2F 3D 26 D1 41 26 D0 1A 00 02 6C 64 00 00 00 00 00 00 00 00 00 00 00 00 00 00 01 03*
0,3083,0:24.974.771,79.100 us,2 B,,SP,55,Write Transaction,00 00
0,3084,0:24.980.126,86.600 us,2 B,,SP,55,Read Transaction,00 00*
0,3085,0:24.989.102,79.100 us,2 B,,SP,55,Write Transaction,00 00
0,3086,0:24.994.452,89.900 us,2 B,,SP,55,Read Transaction,00 00*
0,3087,0:25.003.986,79.200 us,2 B,,SP,55,Write Transaction,00 00
0,3088,0:25.009.336,86.500 us,2 B,,SP,55,Read Transaction,00 08*
0,3089,0:25.014.702,79.100 us,2 B,,SP,55,Write Transaction,12 01
0,3090,0:25.020.052,1.182.600 ms,46 B,,SP,55,Read Transaction,00 9C FF A7 00 7D FC 2C 02 80 4E 02 7F D1 16 31 1C 16 30 07 26 D1 A8 26 D0 80 00 02 6C 64 00 00 00 00 00 00 00 00 00 00 00 00 00 00 01 03*
0,3091,0:25.023.919,79.000 us,2 B,,SP,55,Write Transaction,00 00
0,3092,0:25.029.270,91.200 us,2 B,,SP,55,Read Transaction,00 00*
0,3093,0:25.036.952,79.100 us,2 B,,SP,55,Write Transaction,00 00
0,3094,0:25.042.301,87.000 us,2 B,,SP,55,Read Transaction,00 08*
0,3095,0:25.047.668,79.100 us,2 B,,SP,55,Write Transaction,12 01
0,3096,0:25.053.017,1.183.000 ms,46 B,,SP,55,Read Transaction,00 9D FF AB 00 81 FC 34 02 81 5F 02 80 DF 16 31 71 16 30 62 26 D1 EF 26 D0 CE 00 02 6C 64 00 00 00 00 00 00 00 00 00 00 00 00 00 00 01 03*
0,3097,0:25.054.656,79.200 us,2 B,,SP,55,Write Transaction,00 00
0,3098,0:25.060.006,86.500 us,2 B,,SP,55,Read Transaction,00 00*
0,3099,0:25.068.917,79.100 us,2 B,,SP,55,Write Transaction,00 00
0,3100,0:25.074.268,90.200 us,2 B,,SP,55,Read Transaction,00 00*
0,3101,0:25.084.062,79.100 us,2 B,,SP,55,Write Transaction,00 00
0,3102,0:25.089.415,86.700 us,2 B,,SP,55,Read Transaction,00 08*
0,3103,0:25.094.781,79.100 us,2 B,,SP,55,Write Transaction,12 01
0,3104,0:25.100.133,1.182.500 ms,46 B,,SP,55,Read Transaction,00 9E FF AA 00 7D FC 30 02 82 C7 02 82 52 16 32 48 16 31 34 26 D2 85 26 D1 59 00 02 6C 64 26 5F 64 00 00 00 00 00 00 00 00 00 00 00 01 03*
0,3105,0:25.102.777,79.100 us,2 B,,SP,55,Write Transaction,00 00
0,3106,0:25.108.128,87.300 us,2 B,,SP,55,Read Transaction,00 00*
0,3107,0:25.117.012,79.000 us,2 B,,SP,55,Write Transaction,00 00
0,3108,0:25.122.361,87.100 us,2 B,,SP,55,Read Transaction,00 08*
0,3109,0:25.127.727,79.100 us,2 B,,SP,55,Write Transaction,12 01
0,3110,0:25.133.081,1.184.500 ms,46 B,,SP,55,Read Transaction,00 9F FF A3 00 7E FC 38 02 84 BE 02 84 3D 16 33 1E 16 32 0D 26 D2 F9 26 D1 D4 00 02 6C 64 00 00 00 00 00 00 00 00 00 00 00 00 00 00 01 03*
0,3111,0:25.134.667,79.200 us,2 B,,SP,55,Write Transaction,00 00
0,3112,0:25.140.024,86.800 us,2 B,,SP,55,Read Transaction,00 00*
0,3113,0:25.149.001,79.100 us,2 B,,SP,55,Write Transaction,00 00
0,3114,0:25.154.352,89.500 us,2 B,,SP,55,Read Transaction,00 00*
0,3115,0:25.164.122,79.100 us,2 B,,SP,55,Write Transaction,00 00
0,3116,0:25.169.473,86.600 us,2 B,,SP,55,Read Transaction,00 08*
0,3117,0:25.174.837,79.100 us,2 B,,SP,55,Write Transaction,12 01
0,3118,0:25.180.187,1.182.800 ms,46 B,,SP,55,Read Transaction,00 A0 FF A6 00 80 FC 2F 02 87 3A 02 86 B5 16 34 3D 16 33 32 26 D3 CA 26 D2 A4 00 02 6C 64 00 00 00 00 00 00 00 00 00 00 00 00 00 00 01 03*
0,3119,0:25.182.840,79.100 us,2 B,,SP,55,Write Transaction,00 00
0,3120,0:25.188.191,87.300 us,2 B,,SP,55,Read Transaction,00 00*
0,3121,0:25.197.091,79.200 us,2 B,,SP,55,Write Transaction,00 00
0,3122,0:25.202.511,87.300 us,2 B,,SP,55,Read Transaction,00 08*
0,3123,0:25.207.887,79.200 us,2 B,,SP,55,Write Transaction,12 01
0,3124,0:25.213.242,1.182.600 ms,46 B,,SP,55,Read Transaction,00 A1 FF A9 00 81 FC 31 02 8A B8 02 8A 2A 16 35 B3 16 34 A6 26 D4 CA 26 D3 A3 00 02 6C 64 00 00 00 00 00 00 00 00 00 00 00 00 00 00 01 03*
0,3125,0:25.216.062,79.000 us,2 B,,SP,55,Write Transaction,00 00
0,3126,0:25.221.414,86.600 us,2 B,,SP,55,Read Transaction,00 00*
0,3127,0:25.229.072,79.000 us,2 B,,SP,55,Write Transaction,00 00
0,3128,0:25.234.420,87.400 us,2 B,,SP,55,Read Transaction,00 00*
0,3129,0:25.243.975,79.200 us,2 B,,SP,55,Write Transaction,00 00
0,3130,0:25.249.327,86.600 us,2 B,,SP,55,Read Transaction,00 08*
0,3131,0:25.254.691,79.100 us,2 B,,SP,55,Write Transaction,12 01
0,3132,0:25.260.048,1.183.600 ms,46 B,,SP,55,Read Transaction,00 A2 FF A6 00 80 FC 2F 02 8D F0 02 8D 6F 16 36 E8 16 35 DB 26 D5 68 26 D4 41 00 02 62 64 00 00 00 00 00 00 00 00 00 00 00 00 00 00 01 03*
0,3133,0:25.262.864,79.100 us,2 B,,SP,55,Write Transaction,00 00
0,3134,0:25.268.216,87.300 us,2 B,,SP,55,Read Transaction,00 00*
0,3135,0:25.275.935,79.100 us,2 B,,SP,55,Write Transaction,00 00
0,3136,0:25.281.291,87.000 us,2 B,,SP,55,Read Transaction,00 08*
0,3137,0:25.286.658,79.100 us,2 B,,SP,55,Write Transaction,12 01
0,3138,0:25.292.009,1.182.700 ms,46 B,,SP,55,Read Transaction,00 A3 FF AD 00 80 FC 31 02 91 19 02 90 8A 16 38 1B 16 37 09 26 D6 51 26 D5 29 00 02 62 64 00 00 00 00 00 00 00 00 00 00 00 00 00 00 01 03*
0,3139,0:25.294.653,79.100 us,2 B,,SP,55,Write Transaction,00 00
0,3140,0:25.300.007,86.700 us,2 B,,SP,55,Read Transaction,00 00*
0,3141,0:25.309.152,79.000 us,2 B,,SP,55,Write Transaction,00 00
0,3142,0:25.314.502,87.100 us,2 B,,SP,55,Read Transaction,00 08*
0,3143,0:25.319.868,79.000 us,2 B,,SP,55,Write Transaction,12 01
0,3144,0:25.325.287,1.182.700 ms,46 B,,SP,55,Read Transaction,00 A4 FF A6 00 84 FC 30 02 94 F5 02 94 74 16 39 D8 16 38 CB 26 D7 49 26 D6 26 00 02 62 64 00 00 00 00 00 00 00 00 00 00 00 00 00 00 01 03*
0,3145,0:25.326.870,79.100 us,2 B,,SP,55,Write Transaction,00 00
0,3146,0:25.332.219,86.600 us,2 B,,SP,55,Read Transaction,00 00*
0,3147,0:25.341.133,79.100 us,2 B,,SP,55,Write Transaction,00 00
0,3148,0:25.346.486,86.600 us,2 B,,SP,55,Read Transaction,00 00*
0,3149,0:25.356.274,79.100 us,2 B,,SP,55,Write Transaction,00 00
0,3150,0:25.361.631,87.100 us,2 B,,SP,55,Read Transaction,00 08*
0,3151,0:25.366.995,79.000 us,2 B,,SP,55,Write Transaction,12 01
0,3152,0:25.372.345,1.182.700 ms,46 B,,SP,55,Read Transaction,00 A5 FF A8 00 7B FC 2E 02 98 27 02 97 9E 16 3A FB 16 39 EB 26 D8 13 26 D6 EF 00 02 62 64 00 00 00 00 00 00 00 00 00 00 00 00 00 00 01 03*
0,3153,0:25.374.990,79.000 us,2 B,,SP,55,Write Transaction,00 00
0,3154,0:25.380.344,86.600 us,2 B,,SP,55,Read Transaction,00 00*
0,3155,0:25.388.981,79.200 us,2 B,,SP,55,Write Transaction,00 00
0,3156,0:25.394.333,87.000 us,2 B,,SP,55,Read Transaction,00 08*
0,3157,0:25.399.702,79.100 us,2 B,,SP,55,Write Transaction,12 01
0,3158,0:25.405.054,1.182.800 ms,46 B,,SP,55,Read Transaction,00 A6 FF A8 00 7A FC 31 02 9B 5B 02 9A D1 16 3C 3B 16 3B 28 26 D8 D2 26 D7 AD 00 02 62 64 00 00 00 00 00 00 00 00 00 00 00 00 00 00 01 03*
0,3159,0:25.407.873,79.000 us,2 B,,SP,55,Write Transaction,00 00
0,3160,0:25.413.226,86.600 us,2 B,,SP,55,Read Transaction,00 00*
0,3161,0:25.420.968,79.200 us,2 B,,SP,55,Write Transaction,00 00
0,3162,0:25.426.323,86.600 us,2 B,,SP,55,Read Transaction,00 00*
0,3163,0:25.436.100,79.100 us,2 B,,SP,55,Write Transaction,00 00
0,3164,0:25.441.453,87.000 us,2 B,,SP,55,Read Transaction,00 08*
0,3165,0:25.446.817,79.100 us,2 B,,SP,55,Write Transaction,12 01
0,3166,0:25.452.171,1.182.700 ms,46 B,,SP,55,Read Transaction,00 A7 FF AA 00 81 FC 32 02 9E 83 02 9D F8 16 3D 3A 16 3C 28 26 D9 83 26 D8 58 00 02 62 64 00 00 00 00 00 00 00 00 00 00 00 00 00 00 01 03*
0,3167,0:25.454.805,79.100 us,2 B,,SP,55,Write Transaction,00 00
0,3168,0:25.460.160,86.600 us,2 B,,SP,55,Read Transaction,00 00*
0,3169,0:25.469.055,79.100 us,2 B,,SP,55,Write Transaction,00 00
0,3170,0:25.474.407,87.100 us,2 B,,SP,55,Read Transaction,00 08*
0,3171,0:25.479.771,79.000 us,2 B,,SP,55,Write Transaction,12 01
0,3172,0:25.485.121,1.182.600 ms,46 B,,SP,55,Read Transaction,00 A8 FF A6 00 81 FC 30 02 A1 4D 02 A0 C1 16 3E 4C 16 3D 3C 26 DA 2B 26 D9 02 00 02 62 64 00 00 00 00 00 00 00 00 00 00 00 00 00 00 01 03*
0,3173,0:25.486.715,79.100 us,2 B,,SP,55,Write Transaction,00 00
0,3174,0:25.492.065,86.500 us,2 B,,SP,55,Read Transaction,00 00*
0,3175,0:25.501.036,79.100 us,2 B,,SP,55,Write Transaction,00 00
0,3176,0:25.506.384,86.600 us,2 B,,SP,55,Read Transaction,00 00*
0,3177,0:25.515.933,79.200 us,2 B,,SP,55,Write Transaction,00 00
0,3178,0:25.521.288,87.100 us,2 B,,SP,55,Read Transaction,00 08*
0,3179,0:25.526.655,79.100 us,2 B,,SP,55,Write Transaction,12 01
0,3180,0:25.532.007,1.182.600 ms,46 B,,SP,55,Read Transaction,00 A9 FF A3 00 80 FC 33 02 A4 1D 02 A3 9A 16 3F 54 16 3E 42 26 DA C9 26 D9 A3 00 02 62 64 00 00 00 00 00 00 00 00 00 00 00 00 00 00 01 03*
0,3181,0:25.534.691,79.100 us,2 B,,SP,55,Write Transaction,00 00
0,3182,0:25.540.043,86.600 us,2 B,,SP,55,Read Transaction,00 00*
0,3183,0:25.549.135,79.100 us,2 B,,SP,55,Write Transaction,00 00
0,3184,0:25.554.487,87.100 us,2 B,,SP,55,Read Transaction,00 08*
0,3185,0:25.559.852,79.100 us,2 B,,SP,55,Write Transaction,12 01
0,3186,0:25.565.204,1.182.800 ms,46 B,,SP,55,Read Transaction,00 AA FF AA 00 7E FC 30 02 A7 4C 02 A6 BB 16 40 A5 16 3F 96 26 DB A9 26 DA 80 00 02 62 64 00 00 00 00 00 00 00 00 00 00 00 00 00 00 01 03*
0,3187,0:25.568.034,79.000 us,2 B,,SP,55,Write Transaction,00 00
0,3188,0:25.573.384,86.600 us,2 B,,SP,55,Read Transaction,00 00*
0,3189,0:25.581.114,79.100 us,2 B,,SP,55,Write Transaction,00 00
0,3190,0:25.586.463,86.600 us,2 B,,SP,55,Read Transaction,00 00*
0,3191,0:25.595.997,79.100 us,2 B,,SP,55,Write Transaction,00 00
0,3192,0:25.601.350,87.100 us,2 B,,SP,55,Read Transaction,00 08*
0,3193,0:25.606.718,79.100 us,2 B,,SP,55,Write Transaction,12 01
0,3194,0:25.612.068,1.182.600 ms,46 B,,SP,55,Read Transaction,00 AB FF A8 00 7F FC 30 02 AA 30 02 A9 AB 16 41 96 16 40 86 26 DC 18 26 DA F2 00 02 62 64 00 00 00 00 00 00 00 00 00 00 00 00 00 00 01 03*
0,3195,0:25.616.044,79.200 us,2 B,,SP,55,Write Transaction,00 00
0,3196,0:25.621.398,86.600 us,2 B,,SP,55,Read Transaction,00 00*
0,3197,0:25.628.958,79.000 us,2 B,,SP,55,Write Transaction,00 00
0,3198,0:25.634.312,87.200 us,2 B,,SP,55,Read Transaction,00 08*
0,3199,0:25.639.685,79.200 us,2 B,,SP,55,Write Transaction,12 01
0,3200,0:25.645.036,1.182.700 ms,46 B,,SP,55,Read Transaction,00 AC FF A2 00 80 FC 31 02 A6 38 02 A5 AC 16 3E 37 16 3D 25 26 D9 EE 26 D8 CB 00 02 62 64 00 00 00 00 00 00 00 00 00 00 00 00 00 00 01 03*
0,3201,0:25.646.621,79.100 us,2 B,,SP,55,Write Transaction,00 00
0,3202,0:25.651.972,86.600 us,2 B,,SP,55,Read Transaction,00 00*
0,3203,0:25.660.951,79.200 us,2 B,,SP,55,Write Transaction,00 00
0,3204,0:25.666.323,86.600 us,2 B,,SP,55,Read Transaction,00 00*
0,3205,0:25.676.081,79.100 us,2 B,,SP,55,Write Transaction,00 00
0,3206,0:25.681.430,87.100 us,2 B,,SP,55,Read Transaction,00 08*
0,3207,0:25.686.798,79.000 us,2 B,,SP,55,Write Transaction,12 01
0,3208,0:25.692.148,1.183.000 ms,46 B,,SP,55,Read Transaction,00 AD FF AB 00 7E FC 31 02 9A 5C 02 99 D5 16 39 A1 16 38 90 26 D7 9E 26 D6 7D 00 02 62 64 00 00 00 00 00 00 00 00 00 00 00 00 00 00 01 03*
0,3209,0:25.694.857,79.200 us,2 B,,SP,55,Write Transaction,00 00
0,3210,0:25.700.209,86.600 us,2 B,,SP,55,Read Transaction,00 00*
0,3211,0:25.709.032,79.100 us,2 B,,SP,55,Write Transaction,00 00
0,3212,0:25.714.384,87.100 us,2 B,,SP,55,Read Transaction,00 08*
0,3213,0:25.719.752,79.100 us,2 B,,SP,55,Write Transaction,12 01
0,3214,0:25.725.101,1.182.600 ms,46 B,,SP,55,Read Transaction,00 AE FF A7 00 80 FC 34 02 8E 5C 02 8D DF 16 36 61 16 35 56 26 D6 37 26 D5 11 00 02 62 64 00 00 00 00 00 00 00 00 00 00 00 00 00 00 01 03*
0,3215,0:25.726.685,79.100 us,2 B,,SP,55,Write Transaction,00 00
0,3216,0:25.732.036,86.600 us,2 B,,SP,55,Read Transaction,00 00*
0,3217,0:25.741.008,79.100 us,2 B,,SP,55,Write Transaction,00 00
0,3218,0:25.746.360,86.600 us,2 B,,SP,55,Read Transaction,00 00*
0,3219,0:25.755.922,79.000 us,2 B,,SP,55,Write Transaction,00 00
0,3220,0:25.761.271,87.100 us,2 B,,SP,55,Read Transaction,00 08*
0,3221,0:25.766.636,79.000 us,2 B,,SP,55,Write Transaction,12 01
0,3222,0:25.771.988,1.182.800 ms,46 B,,SP,55,Read Transaction,00 AF FF A6 00 7F FC 2F 02 86 51 02 85 D9 16 34 6E 16 33 5E 26 D5 51 26 D4 26 00 02 62 64 00 00 00 00 00 00 00 00 00 00 00 00 00 00 01 03*
0,3223,0:25.774.632,79.000 us,2 B,,SP,55,Write Transaction,00 00
0,3224,0:25.779.984,86.600 us,2 B,,SP,55,Read Transaction,00 00*
0,3225,0:25.789.133,79.100 us,2 B,,SP,55,Write Transaction,00 00
0,3226,0:25.794.484,87.100 us,2 B,,SP,55,Read Transaction,00 08*
0,3227,0:25.799.850,79.100 us,2 B,,SP,55,Write Transaction,12 01
0,3228,0:25.805.199,1.183.300 ms,46 B,,SP,55,Read Transaction,00 B0 FF A5 00 7F FC 36 02 80 59 02 7F D8 16 32 DA 16 31 C9 26 D4 B4 26 D3 89 00 02 62 64 00 00 00 00 00 00 00 00 00 00 00 00 00 00 01 03*
0,3229,0:25.808.073,79.100 us,2 B,,SP,55,Write Transaction,00 00
0,3230,0:25.813.423,86.600 us,2 B,,SP,55,Read Transaction,00 00*
0,3231,0:25.821.098,79.100 us,2 B,,SP,55,Write Transaction,00 00
0,3232,0:25.826.451,86.600 us,2 B,,SP,55,Read Transaction,00 00*
0,3233,0:25.835.983,79.000 us,2 B,,SP,55,Write Transaction,00 00
0,3234,0:25.841.357,87.100 us,2 B,,SP,55,Read Transaction,00 08*
0,3235,0:25.846.726,79.000 us,2 B,,SP,55,Write Transaction,12 01
0,3236,0:25.852.077,1.182.800 ms,46 B,,SP,55,Read Transaction,00 B1 FF A8 00 82 FC 33 02 7B 82 02 7B 08 16 31 B8 16 30 A3 26 D4 29 26 D2 FF 00 02 62 64 00 00 00 00 00 00 00 00 00 00 00 00 00 00 01 03*
0,3237,0:25.855.946,79.100 us,2 B,,SP,55,Write Transaction,00 00
0,3238,0:25.861.296,86.600 us,2 B,,SP,55,Read Transaction,00 00*
0,3239,0:25.868.946,79.200 us,2 B,,SP,55,Write Transaction,00 00
0,3240,0:25.874.304,91.100 us,2 B,,SP,55,Read Transaction,00 00*
0,3241,0:25.884.083,79.100 us,2 B,,SP,55,Write Transaction,00 00
0,3242,0:25.889.436,86.600 us,2 B,,SP,55,Read Transaction,00 08*
0,3243,0:25.894.804,79.100 us,2 B,,SP,55,Write Transaction,12 01
0,3244,0:25.900.155,1.182.600 ms,46 B,,SP,55,Read Transaction,00 B2 FF A1 00 7D FC 32 02 79 9B 02 79 2B 16 32 09 16 30 F3 26 D4 95 26 D3 6C 00 02 62 64 00 00 00 00 00 00 00 00 00 00 00 00 00 00 01 03*
0,3245,0:25.901.748,79.000 us,2 B,,SP,55,Write Transaction,00 00
0,3246,0:25.907.099,87.300 us,2 B,,SP,55,Read Transaction,00 00*
0,3247,0:25.916.066,79.100 us,2 B,,SP,55,Write Transaction,00 00
0,3248,0:25.921.421,87.100 us,2 B,,SP,55,Read Transaction,00 08*
0,3249,0:25.926.786,79.000 us,2 B,,SP,55,Write Transaction,12 01
0,3250,0:25.932.138,1.182.700 ms,46 B,,SP,55,Read Transaction,00 B3 FF A5 00 84 FC 32 02 7B D6 02 7B 64 16 33 BF 16 32 B0 26 D5 AE 26 D4 8A 00 02 62 64 00 00 00 00 00 00 00 00 00 00 00 00 00 00 01 03*
0,3251,0:25.934.773,79.100 us,2 B,,SP,55,Write Transaction,00 00
0,3252,0:25.940.125,86.700 us,2 B,,SP,55,Read Transaction,00 00*
0,3253,0:25.949.019,79.100 us,2 B,,SP,55,Write Transaction,00 00
0,3254,0:25.954.368,87.100 us,2 B,,SP,55,Read Transaction,00 08*
0,3255,0:25.959.734,79.000 us,2 B,,SP,55,Write Transaction,12 01
0,3256,0:25.965.084,1.182.800 ms,46 B,,SP,55,Read Transaction,00 B4 FF A6 00 7F FC 30 02 7D DA 02 7D 6B 16 34 A0 16 33 93 26 D6 4A 26 D5 29 00 02 62 64 00 00 00 00 00 00 00 00 00 00 00 00 00 00 01 03*
0,3257,0:25.967.913,79.100 us,2 B,,SP,55,Write Transaction,00 00
0,3258,0:25.973.267,86.700 us,2 B,,SP,55,Read Transaction,00 00*
0,3259,0:25.980.990,79.000 us,2 B,,SP,55,Write Transaction,00 00
0,3260,0:25.986.341,86.600 us,2 B,,SP,55,Read Transaction,00 00*
0,3261,0:25.995.881,79.100 us,2 B,,SP,55,Write Transaction,00 00
0,3262,0:26.001.233,87.100 us,2 B,,SP,55,Read Transaction,00 08*
0,3263,0:26.006.597,79.100 us,2 B,,SP,55,Write Transaction,12 01
0,3264,0:26.011.948,1.182.700 ms,46 B,,SP,55,Read Transaction,00 B5 FF A7 00 7C FC 34 02 7E 93 02 7E 12 16 34 E5 16 33 D5 26 D6 86 26 D5 5F 00 02 62 64 00 00 00 00 00 00 00 00 00 00 00 00 00 00 01 03*
0,3265,0:26.015.816,79.100 us,2 B,,SP,55,Write Transaction,00 00
0,3266,0:26.021.169,86.600 us,2 B,,SP,55,Read Transaction,00 00*
0,3267,0:26.029.102,79.000 us,2 B,,SP,55,Write Transaction,00 00
0,3268,0:26.034.454,87.100 us,2 B,,SP,55,Read Transaction,00 08*
0,3269,0:26.039.818,79.100 us,2 B,,SP,55,Write Transaction,12 01
0,3270,0:26.045.172,1.182.600 ms,46 B,,SP,55,Read Transaction,00 B6 FF A7 00 7B FC 2B 02 7F A9 02 7F 2F 16 35 85 16 34 75 26 D7 01 26 D5 E1 00 02 62 64 25 CD 64 00 00 00 00 00 00 00 00 00 00 00 01 03*
0,3271,0:26.046.756,79.100 us,2 B,,SP,55,Write Transaction,00 00
0,3272,0:26.052.107,86.600 us,2 B,,SP,55,Read Transaction,00 00*
0,3273,0:26.061.066,79.000 us,2 B,,SP,55,Write Transaction,00 00
0,3274,0:26.066.415,86.700 us,2 B,,SP,55,Read Transaction,00 00*
0,3275,0:26.075.961,79.000 us,2 B,,SP,55,Write Transaction,00 00
0,3276,0:26.081.312,87.200 us,2 B,,SP,55,Read Transaction,00 08*
0,3277,0:26.086.680,79.000 us,2 B,,SP,55,Write Transaction,12 01
0,3278,0:26.092.028,1.182.600 ms,46 B,,SP,55,Read Transaction,00 B7 FF A9 00 7E FC 39 02 82 21 02 81 A3 16 36 97 16 35 88 26 D7 A7 26 D6 83 00 02 62 64 00 00 00 00 00 00 00 00 00 00 00 00 00 00 01 03*
0,3279,0:26.094.672,79.000 us,2 B,,SP,55,Write Transaction,00 00
0,3280,0:26.100.025,86.800 us,2 B,,SP,55,Read Transaction,00 00*
0,3281,0:26.108.927,79.100 us,2 B,,SP,55,Write Transaction,00 00
0,3282,0:26.114.278,87.100 us,2 B,,SP,55,Read Transaction,00 08*
0,3283,0:26.119.644,79.100 us,2 B,,SP,55,Write Transaction,12 01
0,3284,0:26.124.993,1.182.700 ms,46 B,,SP,55,Read Transaction,00 B8 FF 9E 00 7D FC 2F 02 85 3D 02 84 BD 16 38 15 16 37 05 26 D8 A8 26 D7 84 00 02 62 64 00 00 00 00 00 00 00 00 00 00 00 00 00 00 01 03*
0,3285,0:26.126.576,79.100 us,2 B,,SP,55,Write Transaction,00 00
0,3286,0:26.131.927,86.500 us,2 B,,SP,55,Read Transaction,00 00*
0,3287,0:26.140.898,79.000 us,2 B,,SP,55,Write Transaction,00 00
0,3288,0:26.146.247,86.800 us,2 B,,SP,55,Read Transaction,00 00*
0,3289,0:26.156.029,79.100 us,2 B,,SP,55,Write Transaction,00 00
0,3290,0:26.161.406,87.100 us,2 B,,SP,55,Read Transaction,00 08*
0,3291,0:26.166.773,79.100 us,2 B,,SP,55,Write Transaction,12 01
0,3292,0:26.172.130,1.184.300 ms,46 B,,SP,55,Read Transaction,00 B9 FF A9 00 7D FC 2D 02 88 93 02 88 13 16 39 7A 16 38 68 26 D9 9D 26 D8 7A 00 02 62 64 00 00 00 00 00 00 00 00 00 00 00 00 00 00 01 03*
0,3293,0:26.174.886,79.000 us,2 B,,SP,55,Write Transaction,00 00
0,3294,0:26.180.235,86.600 us,2 B,,SP,55,Read Transaction,00 00*
0,3295,0:26.189.004,79.100 us,2 B,,SP,55,Write Transaction,00 00
0,3296,0:26.194.357,87.000 us,2 B,,SP,55,Read Transaction,00 08*
0,3297,0:26.199.722,79.000 us,2 B,,SP,55,Write Transaction,12 01
0,3298,0:26.205.073,1.182.600 ms,46 B,,SP,55,Read Transaction,00 BA FF AA 00 7D FC 30 02 8C 2C 02 8B B3 16 3A FB 16 39 EB 26 DA 77 26 D9 54 00 02 62 64 00 00 00 00 00 00 00 00 00 00 00 00 00 00 01 03*
0,3299,0:26.207.900,79.000 us,2 B,,SP,55,Write Transaction,00 00
0,3300,0:26.213.251,86.600 us,2 B,,SP,55,Read Transaction,00 00*
0,3301,0:26.220.989,79.000 us,2 B,,SP,55,Write Transaction,00 00
0,3302,0:26.226.396,87.300 us,2 B,,SP,55,Read Transaction,00 00*
0,3303,0:26.236.111,79.100 us,2 B,,SP,55,Write Transaction,00 00
0,3304,0:26.241.460,87.100 us,2 B,,SP,55,Read Transaction,00 08*
0,3305,0:26.246.827,79.100 us,2 B,,SP,55,Write Transaction,12 01
0,3306,0:26.252.179,1.182.600 ms,46 B,,SP,55,Read Transaction,00 BB FF A5 00 82 FC 2B 02 8F E9 02 8F 61 16 3C 20 16 3B 10 26 DB 29 26 DA 03 00 02 62 64 00 00 00 00 00 00 00 00 00 00 00 00 00 00 01 03*
0,3307,0:26.256.104,79.100 us,2 B,,SP,55,Write Transaction,00 00
0,3308,0:26.261.455,86.600 us,2 B,,SP,55,Read Transaction,00 00*
0,3309,0:26.269.064,79.000 us,2 B,,SP,55,Write Transaction,00 00
0,3310,0:26.274.415,87.100 us,2 B,,SP,55,Read Transaction,00 08*
0,3311,0:26.279.786,79.100 us,2 B,,SP,55,Write Transaction,12 01
0,3312,0:26.285.135,1.182.600 ms,46 B,,SP,55,Read Transaction,00 BC FF A7 00 7F FC 30 02 92 0D 02 91 86 16 3C 7E 16 3B 6E 26 DB 82 26 DA 5A 00 02 62 64 00 00 00 00 00 00 00 00 00 00 00 00 00 00 01 03*
0,3313,0:26.286.729,79.100 us,2 B,,SP,55,Write Transaction,00 00
0,3314,0:26.292.081,86.600 us,2 B,,SP,55,Read Transaction,00 00*
0,3315,0:26.301.051,79.100 us,2 B,,SP,55,Write Transaction,00 00
0,3316,0:26.306.402,87.300 us,2 B,,SP,55,Read Transaction,00 00*
0,3317,0:26.315.941,79.100 us,2 B,,SP,55,Write Transaction,00 00
0,3318,0:26.321.290,87.200 us,2 B,,SP,55,Read Transaction,00 08*
0,3319,0:26.326.657,79.100 us,2 B,,SP,55,Write Transaction,12 01
0,3320,0:26.332.007,1.182.800 ms,46 B,,SP,55,Read Transaction,00 BD FF A4 00 7B FC 30 02 94 CC 02 94 42 16 3D A1 16 3C 91 26 DC 2C 26 DB 04 00 02 62 64 00 00 00 00 00 00 00 00 00 00 00 00 00 00 01 03*
0,3321,0:26.334.639,79.100 us,2 B,,SP,55,Write Transaction,00 00
0,3322,0:26.339.990,86.600 us,2 B,,SP,55,Read Transaction,00 00*
0,3323,0:26.348.929,79.000 us,2 B,,SP,55,Write Transaction,00 00
0,3324,0:26.354.284,87.200 us,2 B,,SP,55,Read Transaction,00 08*
0,3325,0:26.359.649,79.100 us,2 B,,SP,55,Write Transaction,12 01
0,3326,0:26.364.998,1.182.700 ms,46 B,,SP,55,Read Transaction,00 BE FF AB 00 82 FC 30 02 97 EA 02 97 60 16 3E D0 16 3D C5 26 DC F7 26 DB D1 00 02 62 64 00 00 00 00 00 00 00 00 00 00 00 00 00 00 01 03*
0,3327,0:26.367.831,79.100 us,2 B,,SP,55,Write Transaction,00 00
0,3328,0:26.373.181,86.600 us,2 B,,SP,55,Read Transaction,00 00*
0,3329,0:26.380.890,79.000 us,2 B,,SP,55,Write Transaction,00 00
0,3330,0:26.386.240,87.200 us,2 B,,SP,55,Read Transaction,00 00*
0,3331,0:26.396.015,79.000 us,2 B,,SP,55,Write Transaction,00 00
0,3332,0:26.401.420,87.100 us,2 B,,SP,55,Read Transaction,00 08*
0,3333,0:26.406.787,79.100 us,2 B,,SP,55,Write Transaction,12 01
0,3334,0:26.412.138,1.182.700 ms,46 B,,SP,55,Read Transaction,00 BF FF AA 00 7F FC 2F 02 9A EF 02 9A 6A 16 40 13 16 3E FF 26 DD C9 26 DC A0 00 02 62 64 00 00 00 00 00 00 00 00 00 00 00 00 00 00 01 03*
0,3335,0:26.416.007,79.100 us,2 B,,SP,55,Write Transaction,00 00
0,3336,0:26.421.358,86.600 us,2 B,,SP,55,Read Transaction,00 00*
0,3337,0:26.428.990,79.000 us,2 B,,SP,55,Write Transaction,00 00
0,3338,0:26.434.339,87.100 us,2 B,,SP,55,Read Transaction,00 08*
0,3339,0:26.439.704,79.000 us,2 B,,SP,55,Write Transaction,12 01
0,3340,0:26.445.051,1.182.600 ms,46 B,,SP,55,Read Transaction,00 C0 FF A4 00 7C FC 30 02 9D AF 02 9D 22 16 41 0B 16 3F FD 26 DE 5C 26 DD 3A 00 02 62 64 00 00 00 00 00 00 00 00 00 00 00 00 00 00 01 03*
0,3341,0:26.446.690,79.000 us,2 B,,SP,55,Write Transaction,00 00
0,3342,0:26.452.038,86.500 us,2 B,,SP,55,Read Transaction,00 00*
0,3343,0:26.460.970,79.100 us,2 B,,SP,55,Write Transaction,00 00
0,3344,0:26.466.322,87.400 us,2 B,,SP,55,Read Transaction,00 00*
0,3345,0:26.476.090,79.100 us,2 B,,SP,55,Write Transaction,00 00
0,3346,0:26.481.443,87.000 us,2 B,,SP,55,Read Transaction,00 08*
0,3347,0:26.486.809,79.100 us,2 B,,SP,55,Write Transaction,12 01
0,3348,0:26.492.159,1.182.600 ms,46 B,,SP,55,Read Transaction,00 C1 FF A7 00 80 FC 34 02 A0 6E 02 9F E1 16 42 0A 16 40 F8 26 DF 1B 26 DD F2 00 02 62 64 00 00 00 00 00 00 00 00 00 00 00 00 00 00 01 03*
0,3349,0:26.494.805,79.100 us,2 B,,SP,55,Write Transaction,00 00
0,3350,0:26.500.160,86.500 us,2 B,,SP,55,Read Transaction,00 00*
0,3351,0:26.509.047,79.100 us,2 B,,SP,55,Write Transaction,00 00
0,3352,0:26.514.402,87.200 us,2 B,,SP,55,Read Transaction,00 08*
0,3353,0:26.519.771,79.100 us,2 B,,SP,55,Write Transaction,12 01
0,3354,0:26.525.122,1.182.700 ms,46 B,,SP,55,Read Transaction,00 C2 FF AA 00 7C FC 30 02 A3 25 02 A2 9A 16 43 38 16 42 28 26 DF DF 26 DE B8 00 02 62 64 00 00 00 00 00 00 00 00 00 00 00 00 00 00 01 03*
0,3355,0:26.526.705,79.000 us,2 B,,SP,55,Write Transaction,00 00
0,3356,0:26.532.054,86.700 us,2 B,,SP,55,Read Transaction,00 00*
0,3357,0:26.541.043,79.100 us,2 B,,SP,55,Write Transaction,00 00
0,3358,0:26.546.395,87.300 us,2 B,,SP,55,Read Transaction,00 00*
0,3359,0:26.555.919,79.100 us,2 B,,SP,55,Write Transaction,00 00
0,3360,0:26.561.271,87.100 us,2 B,,SP,55,Read Transaction,00 08*
0,3361,0:26.566.635,79.000 us,2 B,,SP,55,Write Transaction,12 01
0,3362,0:26.571.991,1.184.300 ms,46 B,,SP,55,Read Transaction,00 C3 FF A9 00 7C FC 27 02 A6 E4 02 A6 5D 16 44 D7 16 43 C1 26 E0 CA 26 DF 9F 00 02 62 64 00 00 00 00 00 00 00 00 00 00 00 00 00 00 01 03*
0,3363,0:26.574.639,79.100 us,2 B,,SP,55,Write Transaction,00 00
0,3364,0:26.579.991,86.600 us,2 B,,SP,55,Read Transaction,00 00*
0,3365,0:26.588.884,79.100 us,2 B,,SP,55,Write Transaction,00 00
0,3366,0:26.594.235,87.000 us,2 B,,SP,55,Read Transaction,00 08*
0,3367,0:26.599.600,79.000 us,2 B,,SP,55,Write Transaction,12 01
0,3368,0:26.604.950,1.182.700 ms,46 B,,SP,55,Read Transaction,00 C4 FF A5 00 80 FC 3C 02 A5 FD 02 A5 71 16 42 5B 16 41 4A 26 DF 08 26 DD DE 00 02 62 64 00 00 00 00 00 00 00 00 00 00 00 00 00 00 01 03*
0,3369,0:26.607.769,79.000 us,2 B,,SP,55,Write Transaction,00 00
0,3370,0:26.613.119,86.600 us,2 B,,SP,55,Read Transaction,00 00*
0,3371,0:26.620.870,79.100 us,2 B,,SP,55,Write Transaction,00 00
0,3372,0:26.626.219,87.200 us,2 B,,SP,55,Read Transaction,00 00*
0,3373,0:26.636.010,79.100 us,2 B,,SP,55,Write Transaction,00 00
0,3374,0:26.641.362,87.100 us,2 B,,SP,55,Read Transaction,00 08*
0,3375,0:26.646.730,79.000 us,2 B,,SP,55,Write Transaction,12 01
0,3376,0:26.652.079,1.182.500 ms,46 B,,SP,55,Read Transaction,00 C5 FF A8 00 7C FC 33 02 9A 88 02 9A 00 16 3C E6 16 3B D2 26 DB F6 26 DA CF 00 02 62 64 00 00 00 00 00 00 00 00 00 00 00 00 00 00 01 03*
0,3377,0:26.653.660,79.100 us,2 B,,SP,55,Write Transaction,00 00
0,3378,0:26.659.012,86.700 us,2 B,,SP,55,Read Transaction,00 00*
0,3379,0:26.667.988,79.100 us,2 B,,SP,55,Write Transaction,00 00
0,3380,0:26.673.339,87.200 us,2 B,,SP,55,Read Transaction,00 08*
0,3381,0:26.678.709,79.000 us,2 B,,SP,55,Write Transaction,12 01
0,3382,0:26.684.060,1.182.800 ms,46 B,,SP,55,Read Transaction,00 C6 FF A5 00 7D FC 34 02 8C BA 02 8C 30 16 38 C1 16 37 AE 26 DA 11 26 D8 E6 00 02 62 64 00 00 00 00 00 00 00 00 00 00 00 00 00 00 01 03*
0,3383,0:26.686.704,79.000 us,2 B,,SP,55,Write Transaction,00 00
0,3384,0:26.692.061,86.700 us,2 B,,SP,55,Read Transaction,00 00*
0,3385,0:26.700.951,79.100 us,2 B,,SP,55,Write Transaction,00 00
0,3386,0:26.706.303,87.300 us,2 B,,SP,55,Read Transaction,00 00*
0,3387,0:26.716.076,79.100 us,2 B,,SP,55,Write Transaction,00 00
0,3388,0:26.721.436,87.200 us,2 B,,SP,55,Read Transaction,00 08*
0,3389,0:26.726.810,79.100 us,2 B,,SP,55,Write Transaction,12 01
0,3390,0:26.732.159,1.182.700 ms,46 B,,SP,55,Read Transaction,00 C7 FF A8 00 7F FC 2F 02 83 C7 02 83 45 16 36 59 16 35 47 26 D9 13 26 D7 EA 00 02 62 64 00 00 00 00 00 00 00 00 00 00 00 00 00 00 01 03*
0,3391,0:26.733.742,79.100 us,2 B,,SP,55,Write Transaction,00 00
0,3392,0:26.739.094,86.700 us,2 B,,SP,55,Read Transaction,00 00*
0,3393,0:26.748.063,79.100 us,2 B,,SP,55,Write Transaction,00 00
0,3394,0:26.753.414,87.100 us,2 B,,SP,55,Read Transaction,00 08*
0,3395,0:26.758.778,79.100 us,2 B,,SP,55,Write Transaction,12 01
0,3396,0:26.764.130,1.182.700 ms,46 B,,SP,55,Read Transaction,00 C8 FF A7 00 7E FC 36 02 7E 9F 02 7E 20 16 35 57 16 34 47 26 D8 B2 26 D7 8D 00 02 62 64 00 00 00 00 00 00 00 00 00 00 00 00 00 00 01 03*
0,3397,0:26.768.009,79.100 us,2 B,,SP,55,Write Transaction,00 00
0,3398,0:26.773.363,86.600 us,2 B,,SP,55,Read Transaction,00 00*
0,3399,0:26.781.026,79.200 us,2 B,,SP,55,Write Transaction,00 00
0,3400,0:26.786.383,88.600 us,2 B,,SP,55,Read Transaction,00 00*
0,3401,0:26.795.915,79.100 us,2 B,,SP,55,Write Transaction,00 00
0,3402,0:26.801.266,87.100 us,2 B,,SP,55,Read Transaction,00 08*
0,3403,0:26.806.636,79.200 us,2 B,,SP,55,Write Transaction,12 01
0,3404,0:26.811.991,1.182.500 ms,46 B,,SP,55,Read Transaction,00 C9 FF A4 00 7D FC 2E 02 7A 92 02 7A 17 16 34 7C 16 33 66 26 D8 65 26 D7 3A 00 02 62 64 00 00 00 00 00 00 00 00 00 00 00 00 00 00 01 03*
0,3405,0:26.814.864,79.100 us,2 B,,SP,55,Write Transaction,00 00
0,3406,0:26.820.218,86.700 us,2 B,,SP,55,Read Transaction,00 00*
0,3407,0:26.827.895,79.000 us,2 B,,SP,55,Write Transaction,00 00
0,3408,0:26.833.247,87.100 us,2 B,,SP,55,Read Transaction,00 08*
0,3409,0:26.838.611,79.100 us,2 B,,SP,55,Write Transaction,12 01
0,3410,0:26.843.962,1.182.500 ms,46 B,,SP,55,Read Transaction,00 CA FF AA 00 81 FC 30 02 78 9C 02 78 26 16 34 77 16 33 66 26 D8 88 26 D7 65 00 02 62 64 00 00 00 00 00 00 00 00 00 00 00 00 00 00 01 03*
0,3411,0:26.846.595,79.000 us,2 B,,SP,55,Write Transaction,00 00
0,3412,0:26.851.945,86.500 us,2 B,,SP,55,Read Transaction,00 00*
0,3413,0:26.861.086,79.000 us,2 B,,SP,55,Write Transaction,00 00
0,3414,0:26.866.438,89.900 us,2 B,,SP,55,Read Transaction,00 00*
0,3415,0:26.875.993,79.200 us,2 B,,SP,55,Write Transaction,00 00
0,3416,0:26.881.351,87.200 us,2 B,,SP,55,Read Transaction,00 08*
0,3417,0:26.886.721,79.000 us,2 B,,SP,55,Write Transaction,12 01
0,3418,0:26.892.072,1.182.800 ms,46 B,,SP,55,Read Transaction,00 CB FF A3 00 82 FC 2F 02 7A 2B 02 79 A9 16 35 C1 16 34 AE 26 D9 4F 26 D8 2D 00 02 62 64 00 00 00 00 00 00 00 00 00 00 00 00 00 00 01 03*
0,3419,0:26.893.666,79.100 us,2 B,,SP,55,Write Transaction,00 00
0,3420,0:26.899.013,86.600 us,2 B,,SP,55,Read Transaction,00 00*
0,3421,0:26.907.956,79.000 us,2 B,,SP,55,Write Transaction,00 00
0,3422,0:26.913.311,89.400 us,2 B,,SP,55,Read Transaction,00 00*
0,3423,0:26.922.859,79.100 us,2 B,,SP,55,Write Transaction,00 00
0,3424,0:26.928.210,86.600 us,2 B,,SP,55,Read Transaction,00 08*
0,3425,0:26.933.577,79.000 us,2 B,,SP,55,Write Transaction,12 01
0,3426,0:26.938.930,1.184.300 ms,46 B,,SP,55,Read Transaction,00 CC FF A1 00 81 FC 33 02 7B D7 02 7B 5A 16 36 8A 16 35 7B 26 D9 B7 26 D8 96 00 02 62 64 00 00 00 00 00 00 00 00 00 00 00 00 00 00 01 03*
0,3427,0:26.941.567,79.200 us,2 B,,SP,55,Write Transaction,00 00
0,3428,0:26.946.919,91.100 us,2 B,,SP,55,Read Transaction,00 00*
0,3429,0:26.956.057,79.000 us,2 B,,SP,55,Write Transaction,00 00
0,3430,0:26.961.405,86.600 us,2 B,,SP,55,Read Transaction,00 08*
0,3431,0:26.966.771,79.100 us,2 B,,SP,55,Write Transaction,12 01
0,3432,0:26.972.123,1.182.700 ms,46 B,,SP,55,Read Transaction,00 CD FF A3 00 7E FC 30 02 7D 10 02 7C 92 16 37 8D 16 36 7E 26 DA 74 26 D9 4D 00 02 62 64 00 00 00 00 00 00 00 00 00 00 00 00 00 00 01 03*
0,3433,0:26.973.717,79.100 us,2 B,,SP,55,Write Transaction,00 00
0,3434,0:26.979.066,86.600 us,2 B,,SP,55,Read Transaction,00 00*
0,3435,0:26.988.040,79.200 us,2 B,,SP,55,Write Transaction,00 00
0,3436,0:26.993.392,87.000 us,2 B,,SP,55,Read Transaction,00 08*
0,3437,0:26.998.760,79.000 us,2 B,,SP,55,Write Transaction,12 01
0,3438,0:27.004.110,1.182.500 ms,46 B,,SP,55,Read Transaction,00 CE FF A5 00 7D FC 33 02 7E F5 02 7E 7A 16 38 69 16 37 55 26 DB 0D 26 D9 E8 00 02 62 64 25 53 64 00 00 00 00 00 00 00 00 00 00 00 01 03*
0,3439,0:27.008.032,79.100 us,2 B,,SP,55,Write Transaction,00 00
0,3440,0:27.013.382,86.600 us,2 B,,SP,55,Read Transaction,00 00*
0,3441,0:27.021.004,79.000 us,2 B,,SP,55,Write Transaction,00 00
0,3442,0:27.026.355,91.000 us,2 B,,SP,55,Read Transaction,00 00*
0,3443,0:27.035.884,79.000 us,2 B,,SP,55,Write Transaction,00 00
0,3444,0:27.041.235,87.100 us,2 B,,SP,55,Read Transaction,00 08*
0,3445,0:27.046.599,79.000 us,2 B,,SP,55,Write Transaction,12 01
0,3446,0:27.051.950,1.182.700 ms,46 B,,SP,55,Read Transaction,00 CF FF A5 00 7E FC 2F 02 81 C7 02 81 4D 16 39 D4 16 38 C0 26 DC 0A 26 DA E0 00 02 62 64 00 00 00 00 00 00 00 00 00 00 00 00 00 00 01 03*
0,3447,0:27.054.769,79.000 us,2 B,,SP,55,Write Transaction,00 00
0,3448,0:27.060.124,86.600 us,2 B,,SP,55,Read Transaction,00 00*
0,3449,0:27.067.869,79.100 us,2 B,,SP,55,Write Transaction,00 00
0,3450,0:27.073.218,87.100 us,2 B,,SP,55,Read Transaction,00 08*
0,3451,0:27.078.586,79.000 us,2 B,,SP,55,Write Transaction,12 01
0,3452,0:27.084.010,1.182.700 ms,46 B,,SP,55,Read Transaction,00 D0 FF A6 00 82 FC 31 02 85 87 02 85 0F 16 3B A4 16 3A 91 26 DD 29 26 DC 04 00 02 62 64 00 00 00 00 00 00 00 00 00 00 00 00 00 00 01 03*
0,3453,0:27.086.655,79.000 us,2 B,,SP,55,Write Transaction,00 00
0,3454,0:27.092.011,86.600 us,2 B,,SP,55,Read Transaction,00 00*
0,3455,0:27.101.065,79.100 us,2 B,,SP,55,Write Transaction,00 00
0,3456,0:27.106.419,91.100 us,2 B,,SP,55,Read Transaction,00 00*
0,3457,0:27.115.962,79.100 us,2 B,,SP,55,Write Transaction,00 00
0,3458,0:27.121.314,87.100 us,2 B,,SP,55,Read Transaction,00 08*
0,3459,0:27.126.677,79.000 us,2 B,,SP,55,Write Transaction,12 01
0,3460,0:27.132.028,1.181.700 ms,46 B,,SP,55,Read Transaction,00 D1 FF A9 00 7D FC 31 02 89 EA 02 89 71 16 3D C6 16 3C B6 26 DE 89 26 DD 6F 00 02 62 64 00 00 00 00 00 00 00 00 00 00 00 00 00 00 01 03*
0,3461,0:27.133.611,79.000 us,2 B,,SP,55,Write Transaction,00 00
0,3462,0:27.138.964,86.600 us,2 B,,SP,55,Read Transaction,00 00*
0,3463,0:27.147.952,79.000 us,2 B,,SP,55,Write Transaction,00 00
0,3464,0:27.153.300,87.100 us,2 B,,SP,55,Read Transaction,00 08*
0,3465,0:27.158.666,79.100 us,2 B,,SP,55,Write Transaction,12 01
0,3466,0:27.164.017,1.182.300 ms,46 B,,SP,55,Read Transaction,00 D2 FF A7 00 7F FC 33 02 8E 39 02 8D BB 16 3F 8F 16 3E 81 26 DF 8F 26 DE 6C 00 02 62 64 00 00 00 00 00 00 00 00 00 00 00 00 00 00 01 03*
0,3467,0:27.167.894,79.100 us,2 B,,SP,55,Write Transaction,00 00
0,3468,0:27.173.252,86.600 us,2 B,,SP,55,Read Transaction,00 00*
0,3469,0:27.180.897,79.100 us,2 B,,SP,55,Write Transaction,00 00
0,3470,0:27.186.250,91.100 us,2 B,,SP,55,Read Transaction,00 00*
0,3471,0:27.196.045,79.100 us,2 B,,SP,55,Write Transaction,00 00
0,3472,0:27.201.398,87.000 us,2 B,,SP,55,Read Transaction,00 08*
0,3473,0:27.206.789,79.100 us,2 B,,SP,55,Write Transaction,12 01
0,3474,0:27.212.138,1.182.700 ms,46 B,,SP,55,Read Transaction,00 D3 FF A6 00 7D FC 30 02 91 B3 02 91 2E 16 40 9D 16 3F 90 26 E0 4C 26 DF 28 00 02 62 64 00 00 00 00 00 00 00 00 00 00 00 00 00 00 01 03*
0,3475,0:27.214.966,79.100 us,2 B,,SP,55,Write Transaction,00 00
0,3476,0:27.220.319,86.600 us,2 B,,SP,55,Read Transaction,00 00*
0,3477,0:27.228.016,79.100 us,2 B,,SP,55,Write Transaction,00 00
0,3478,0:27.233.369,87.100 us,2 B,,SP,55,Read Transaction,00 08*
0,3479,0:27.238.734,79.100 us,2 B,,SP,55,Write Transaction,12 01
0,3480,0:27.244.085,1.182.700 ms,46 B,,SP,55,Read Transaction,00 D4 FF A5 00 82 FC 32 02 95 10 02 94 94 16 41 D5 16 40 C7 26 E1 0C 26 DF EC 00 02 62 64 00 00 00 00 00 00 00 00 00 00 00 00 00 00 01 03*
0,3481,0:27.246.720,79.000 us,2 B,,SP,55,Write Transaction,00 00
0,3482,0:27.252.071,86.600 us,2 B,,SP,55,Read Transaction,00 00*
0,3483,0:27.260.979,79.100 us,2 B,,SP,55,Write Transaction,00 00
0,3484,0:27.266.329,91.100 us,2 B,,SP,55,Read Transaction,00 00*
0,3485,0:27.275.879,79.100 us,2 B,,SP,55,Write Transaction,00 00
0,3486,0:27.281.232,86.700 us,2 B,,SP,55,Read Transaction,00 08*
0,3487,0:27.286.600,79.100 us,2 B,,SP,55,Write Transaction,12 01
0,3488,0:27.291.951,1.182.800 ms,46 B,,SP,55,Read Transaction,00 D5 FF A4 00 7D FC 30 02 98 3B 02 97 B1 16 42 9B 16 41 8E 26 E1 87 26 E0 65 00 02 62 64 00 00 00 00 00 00 00 00 00 00 00 00 00 00 01 03*
0,3489,0:27.293.545,79.100 us,2 B,,SP,55,Write Transaction,00 00
0,3490,0:27.298.900,86.600 us,2 B,,SP,55,Read Transaction,00 00*
0,3491,0:27.307.858,79.100 us,2 B,,SP,55,Write Transaction,00 00
0,3492,0:27.313.215,87.200 us,2 B,,SP,55,Read Transaction,00 08*
0,3493,0:27.318.584,79.100 us,2 B,,SP,55,Write Transaction,12 01
0,3494,0:27.323.936,1.182.500 ms,46 B,,SP,55,Read Transaction,00 D6 FF A7 00 7E FC 36 02 9B 22 02 9A 9C 16 43 DA 16 42 CE 26 E2 57 26 E1 34 00 02 62 64 00 00 00 00 00 00 00 00 00 00 00 00 00 00 01 03*
0,3495,0:27.326.569,79.100 us,2 B,,SP,55,Write Transaction,00 00
0,3496,0:27.331.920,86.500 us,2 B,,SP,55,Read Transaction,00 00*
0,3497,0:27.341.059,79.000 us,2 B,,SP,55,Write Transaction,00 00
0,3498,0:27.346.412,91.200 us,2 B,,SP,55,Read Transaction,00 00*
0,3499,0:27.355.945,79.000 us,2 B,,SP,55,Write Transaction,00 00
0,3500,0:27.361.293,86.600 us,2 B,,SP,55,Read Transaction,00 08*
0,3501,0:27.366.658,79.000 us,2 B,,SP,55,Write Transaction,12 01
0,3502,0:27.372.007,1.182.400 ms,46 B,,SP,55,Read Transaction,00 D7 FF A8 00 7C FC 2E 02 9E 93 02 9E 08 16 45 30 16 44 20 26 E3 3D 26 E2 18 00 02 62 64 00 00 00 00 00 00 00 00 00 00 00 00 00 00 01 03*
0,3503,0:27.373.656,79.000 us,2 B,,SP,55,Write Transaction,00 00
0,3504,0:27.379.004,86.600 us,2 B,,SP,55,Read Transaction,00 00*
0,3505,0:27.387.924,79.100 us,2 B,,SP,55,Write Transaction,00 00
0,3506,0:27.393.279,87.200 us,2 B,,SP,55,Read Transaction,00 08*
0,3507,0:27.398.643,79.000 us,2 B,,SP,55,Write Transaction,12 01
0,3508,0:27.403.993,1.182.400 ms,46 B,,SP,55,Read Transaction,00 D8 FF AA 00 7C FC 2D 02 A1 D5 02 A1 4D 16 46 9A 16 45 89 26 E4 1E 26 E2 FA 00 02 62 64 00 00 00 00 00 00 00 00 00 00 00 00 00 00 01 03*
0,3509,0:27.407.860,79.100 us,2 B,,SP,55,Write Transaction,00 00
0,3510,0:27.413.210,86.600 us,2 B,,SP,55,Read Transaction,00 00*
0,3511,0:27.420.895,79.000 us,2 B,,SP,55,Write Transaction,00 00
0,3512,0:27.426.246,91.300 us,2 B,,SP,55,Read Transaction,00 00*
0,3513,0:27.436.024,79.000 us,2 B,,SP,55,Write Transaction,00 00
0,3514,0:27.441.372,86.600 us,2 B,,SP,55,Read Transaction,00 08*
0,3515,0:27.446.742,79.200 us,2 B,,SP,55,Write Transaction,12 01
0,3516,0:27.452.098,1.182.600 ms,46 B,,SP,55,Read Transaction,00 D9 FF A4 00 7C FC 34 02 A5 8B 02 A4 FB 16 48 4E 16 47 39 26 E5 2A 26 E4 06 00 02 62 64 00 00 00 00 00 00 00 00 00 00 00 00 00 00 01 03*
0,3517,0:27.454.918,79.100 us,2 B,,SP,55,Write Transaction,00 00
0,3518,0:27.460.311,86.600 us,2 B,,SP,55,Read Transaction,00 00*
0,3519,0:27.467.998,79.000 us,2 B,,SP,55,Write Transaction,00 00
0,3520,0:27.473.349,87.100 us,2 B,,SP,55,Read Transaction,00 08*
0,3521,0:27.478.716,79.100 us,2 B,,SP,55,Write Transaction,12 01
0,3522,0:27.484.065,1.182.700 ms,46 B,,SP,55,Read Transaction,00 DA FF A5 00 7C FC 2F 02 A9 44 02 A8 BC 16 4A 19 16 49 09 26 E6 61 26 E5 3B 00 02 62 64 00 00 00 00 00 00 00 00 00 00 00 00 00 00 01 03*
0,3523,0:27.486.748,79.100 us,2 B,,SP,55,Write Transaction,00 00
0,3524,0:27.492.105,86.700 us,2 B,,SP,55,Read Transaction,00 00*
0,3525,0:27.500.955,79.000 us,2 B,,SP,55,Write Transaction,00 00
0,3526,0:27.506.307,91.200 us,2 B,,SP,55,Read Transaction,00 00*
0,3527,0:27.515.855,79.100 us,2 B,,SP,55,Write Transaction,00 00
0,3528,0:27.521.202,86.600 us,2 B,,SP,55,Read Transaction,00 08*
0,3529,0:27.526.594,79.100 us,2 B,,SP,55,Write Transaction,12 01
0,3530,0:27.531.944,1.182.500 ms,46 B,,SP,55,Read Transaction,00 DB FF A6 00 81 FC 2F 02 AE 02 02 AD 76 16 4C 91 16 4B 80 26 E7 C7 26 E6 A4 00 02 62 64 00 00 00 00 00 00 00 00 00 00 00 00 00 00 01 03*
0,3531,0:27.533.527,79.100 us,2 B,,SP,55,Write Transaction,00 00
0,3532,0:27.538.881,86.700 us,2 B,,SP,55,Read Transaction,00 00*
0,3533,0:27.547.849,79.000 us,2 B,,SP,55,Write Transaction,00 00
0,3534,0:27.553.200,87.100 us,2 B,,SP,55,Read Transaction,00 08*
0,3535,0:27.558.567,79.100 us,2 B,,SP,55,Write Transaction,12 01
0,3536,0:27.563.920,1.182.500 ms,46 B,,SP,55,Read Transaction,00 DC FF A6 00 7E FC 29 02 AD A6 02 AD 1D 16 4A 56 16 49 47 26 E6 0A 26 E4 EC 00 02 62 64 00 00 00 00 00 00 00 00 00 00 00 00 00 00 01 03*
0,3537,0:27.567.875,79.000 us,2 B,,SP,55,Write Transaction,00 00
0,3538,0:27.573.224,86.500 us,2 B,,SP,55,Read Transaction,00 00*
0,3539,0:27.581.039,79.000 us,2 B,,SP,55,Write Transaction,00 00
0,3540,0:27.586.393,91.100 us,2 B,,SP,55,Read Transaction,00 00*
0,3541,0:27.595.934,79.000 us,2 B,,SP,55,Write Transaction,00 00
0,3542,0:27.601.285,86.700 us,2 B,,SP,55,Read Transaction,00 08*
0,3543,0:27.606.650,79.100 us,2 B,,SP,55,Write Transaction,12 01
0,3544,0:27.612.005,1.182.800 ms,46 B,,SP,55,Read Transaction,00 DD FF AA 00 7E FC 30 02 A1 CA 02 A1 41 16 43 FB 16 42 F0 26 E2 B5 26 E1 92 00 02 62 64 00 00 00 00 00 00 00 00 00 00 00 00 00 00 01 03*
0,3545,0:27.614.827,79.200 us,2 B,,SP,55,Write Transaction,00 00
0,3546,0:27.620.180,86.800 us,2 B,,SP,55,Read Transaction,00 00*
0,3547,0:27.627.902,79.100 us,2 B,,SP,55,Write Transaction,00 00
0,3548,0:27.633.251,87.100 us,2 B,,SP,55,Read Transaction,00 08*
0,3549,0:27.638.616,79.100 us,2 B,,SP,55,Write Transaction,12 01
0,3550,0:27.643.964,1.182.500 ms,46 B,,SP,55,Read Transaction,00 DE FF A6 00 7D FC 2C 02 93 C2 02 93 39 16 3F 3B 16 3E 2D 26 E0 65 26 DF 3F 00 02 62 64 00 00 00 00 00 00 00 00 00 00 00 00 00 00 01 03*
0,3551,0:27.646.653,79.100 us,2 B,,SP,55,Write Transaction,00 00
0,3552,0:27.652.003,86.600 us,2 B,,SP,55,Read Transaction,00 00*
0,3553,0:27.660.874,79.100 us,2 B,,SP,55,Write Transaction,00 00
0,3554,0:27.666.225,91.100 us,2 B,,SP,55,Read Transaction,00 00*
0,3555,0:27.676.004,79.100 us,2 B,,SP,55,Write Transaction,00 00
0,3556,0:27.681.356,86.700 us,2 B,,SP,55,Read Transaction,00 08*
0,3557,0:27.686.728,79.200 us,2 B,,SP,55,Write Transaction,12 01
0,3558,0:27.692.086,1.184.200 ms,46 B,,SP,55,Read Transaction,00 DF FF A5 00 7E FC 30 02 8B 32 02 8A A8 16 3D 03 16 3B F3 26 DF A0 26 DE 7A 00 02 62 64 00 00 00 00 00 00 00 00 00 00 00 00 00 00 01 03*
0,3559,0:27.693.682,79.200 us,2 B,,SP,55,Write Transaction,00 00
0,3560,0:27.699.039,86.600 us,2 B,,SP,55,Read Transaction,00 00*
0,3561,0:27.707.984,79.200 us,2 B,,SP,55,Write Transaction,00 00
0,3562,0:27.713.333,87.100 us,2 B,,SP,55,Read Transaction,00 08*
0,3563,0:27.718.698,79.100 us,2 B,,SP,55,Write Transaction,12 01
0,3564,0:27.724.048,1.182.500 ms,46 B,,SP,55,Read Transaction,00 E0 FF A7 00 80 FC 30 02 86 77 02 85 FD 16 3C 11 16 3B 02 26 DF 5F 26 DE 3A 00 02 62 64 00 00 00 00 00 00 00 00 00 00 00 00 00 00 01 03*
0,3565,0:27.726.689,79.100 us,2 B,,SP,55,Write Transaction,00 00
0,3566,0:27.732.038,86.500 us,2 B,,SP,55,Read Transaction,00 00*
0,3567,0:27.740.953,79.100 us,2 B,,SP,55,Write Transaction,00 00
0,3568,0:27.746.302,91.200 us,2 B,,SP,55,Read Transaction,00 00*
0,3569,0:27.755.837,79.100 us,2 B,,SP,55,Write Transaction,00 00
0,3570,0:27.761.187,86.600 us,2 B,,SP,55,Read Transaction,00 08*
0,3571,0:27.766.601,79.100 us,2 B,,SP,55,Write Transaction,12 01
0,3572,0:27.771.957,1.182.500 ms,46 B,,SP,55,Read Transaction,00 E1 FF A6 00 7E FC 33 02 82 FB 02 82 7D 16 3B 52 16 3A 40 26 DF 15 26 DD F1 00 02 62 64 00 00 00 00 00 00 00 00 00 00 00 00 00 00 01 03*
0,3573,0:27.773.550,79.100 us,2 B,,SP,55,Write Transaction,00 00
0,3574,0:27.778.900,86.600 us,2 B,,SP,55,Read Transaction,00 00*
0,3575,0:27.787.820,79.100 us,2 B,,SP,55,Write Transaction,00 00
0,3576,0:27.793.170,87.100 us,2 B,,SP,55,Read Transaction,00 08*
0,3577,0:27.798.534,79.000 us,2 B,,SP,55,Write Transaction,12 01
0,3578,0:27.803.884,1.182.400 ms,46 B,,SP,55,Read Transaction,00 E2 FF A2 00 85 FC 30 02 81 00 02 80 82 16 3B 46 16 3A 38 26 DF 59 26 DE 35 00 02 62 64 00 00 00 00 00 00 00 00 00 00 00 00 00 00 01 03*
0,3579,0:27.807.751,79.100 us,2 B,,SP,55,Write Transaction,00 00
0,3580,0:27.813.105,86.700 us,2 B,,SP,55,Read Transaction,00 00*
0,3581,0:27.821.008,79.100 us,2 B,,SP,55,Write Transaction,00 00
0,3582,0:27.826.357,91.200 us,2 B,,SP,55,Read Transaction,00 00*
0,3583,0:27.835.903,79.000 us,2 B,,SP,55,Write Transaction,00 00
0,3584,0:27.841.259,86.500 us,2 B,,SP,55,Read Transaction,00 08*
0,3585,0:27.846.625,79.100 us,2 B,,SP,55,Write Transaction,12 01
0,3586,0:27.851.982,1.183.100 ms,46 B,,SP,55,Read Transaction,00 E3 FF A4 00 84 FC 36 02 82 D7 02 82 5F 16 3C 9A 16 3B 8C 26 E0 18 26 DE F2 00 02 62 64 00 00 00 00 00 00 00 00 00 00 00 00 00 00 01 03*
0,3587,0:27.854.803,79.100 us,2 B,,SP,55,Write Transaction,00 00
0,3588,0:27.860.153,86.600 us,2 B,,SP,55,Read Transaction,00 00*
0,3589,0:27.867.898,79.100 us,2 B,,SP,55,Write Transaction,00 00
0,3590,0:27.873.250,91.000 us,2 B,,SP,55,Read Transaction,00 00*
0,3591,0:27.883.026,79.100 us,2 B,,SP,55,Write Transaction,00 00
0,3592,0:27.888.378,86.700 us,2 B,,SP,55,Read Transaction,00 08*
0,3593,0:27.893.744,79.100 us,2 B,,SP,55,Write Transaction,12 01
0,3594,0:27.899.095,1.182.500 ms,46 B,,SP,55,Read Transaction,00 E4 FF A8 00 7A FC 30 02 85 54 02 84 D5 16 3D 8D 16 3C 7A 26 E0 A2 26 DF 81 00 02 62 64 00 00 00 00 00 00 00 00 00 00 00 00 00 00 01 03*
0,3595,0:27.901.739,79.100 us,2 B,,SP,55,Write Transaction,00 00
0,3596,0:27.907.088,91.500 us,2 B,,SP,55,Read Transaction,00 00*
0,3597,0:27.915.977,79.000 us,2 B,,SP,55,Write Transaction,00 00
0,3598,0:27.921.327,86.600 us,2 B,,SP,55,Read Transaction,00 08*
0,3599,0:27.926.696,79.100 us,2 B,,SP,55,Write Transaction,12 01
0,3600,0:27.932.048,1.183.600 ms,46 B,,SP,55,Read Transaction,00 E5 FF A2 00 7C FC 33 02 86 11 02 85 98 16 3D C6 16 3C BD 26 E0 D4 26 DF B4 00 02 62 64 00 00 00 00 00 00 00 00 00 00 00 00 00 00 01 03*
0,3601,0:27.933.687,79.000 us,2 B,,SP,55,Write Transaction,00 00
0,3602,0:27.939.035,86.600 us,2 B,,SP,55,Read Transaction,00 00*
0,3603,0:27.947.977,79.100 us,2 B,,SP,55,Write Transaction,00 00
0,3604,0:27.953.328,87.000 us,2 B,,SP,55,Read Transaction,00 08*
0,3605,0:27.958.691,79.100 us,2 B,,SP,55,Write Transaction,12 01
0,3606,0:27.964.043,1.182.500 ms,46 B,,SP,55,Read Transaction,00 E6 FF A3 00 7F FC 2E 02 87 80 02 87 02 16 3E A6 16 3D 99 26 E1 77 26 E0 54 00 02 62 64 26 17 64 00 00 00 00 00 00 00 00 00 00 00 01 03*
0,3607,0:27.967.922,79.100 us,2 B,,SP,55,Write Transaction,00 00
0,3608,0:27.973.273,86.600 us,2 B,,SP,55,Read Transaction,00 00*
0,3609,0:27.980.933,79.000 us,2 B,,SP,55,Write Transaction,00 00
0,3610,0:27.986.288,91.100 us,2 B,,SP,55,Read Transaction,00 00*
0,3611,0:27.995.808,79.000 us,2 B,,SP,55,Write Transaction,00 00
0,3612,0:28.001.157,86.600 us,2 B,,SP,55,Read Transaction,00 08*
0,3613,0:28.006.522,79.000 us,2 B,,SP,55,Write Transaction,12 01
0,3614,0:28.011.893,1.184.300 ms,46 B,,SP,55,Read Transaction,00 E7 FF AB 00 7B FC 2D 02 8A 2B 02 89 A8 16 3F D0 16 3E C3 26 E2 45 26 E1 25 00 02 62 64 00 00 00 00 00 00 00 00 00 00 00 00 00 00 01 03*
0,3615,0:28.014.715,79.200 us,2 B,,SP,55,Write Transaction,00 00
0,3616,0:28.020.070,86.700 us,2 B,,SP,55,Read Transaction,00 00*
0,3617,0:28.028.037,79.000 us,2 B,,SP,55,Write Transaction,00 00
0,3618,0:28.033.389,87.100 us,2 B,,SP,55,Read Transaction,00 08*
0,3619,0:28.038.755,79.100 us,2 B,,SP,55,Write Transaction,12 01
0,3620,0:28.044.106,1.182.600 ms,46 B,,SP,55,Read Transaction,00 E8 FF AC 00 81 FC 2F 02 8D 75 02 8C F2 16 41 6E 16 40 62 26 E3 4D 26 E2 2F 00 02 62 64 00 00 00 00 00 00 00 00 00 00 00 00 00 00 01 03*
0,3621,0:28.045.685,79.100 us,2 B,,SP,55,Write Transaction,00 00
0,3622,0:28.051.037,86.600 us,2 B,,SP,55,Read Transaction,00 00*
0,3623,0:28.060.017,79.000 us,2 B,,SP,55,Write Transaction,00 00
0,3624,0:28.065.367,91.100 us,2 B,,SP,55,Read Transaction,00 00*
0,3625,0:28.074.921,79.100 us,2 B,,SP,55,Write Transaction,00 00
0,3626,0:28.080.276,86.700 us,2 B,,SP,55,Read Transaction,00 08*
0,3627,0:28.085.646,79.100 us,2 B,,SP,55,Write Transaction,12 01
0,3628,0:28.090.997,1.182.200 ms,46 B,,SP,55,Read Transaction,00 E9 FF AA 00 7F FC 2E 02 91 5B 02 90 D2 16 43 2C 16 42 14 26 E4 61 26 E3 33 00 02 62 64 00 00 00 00 00 00 00 00 00 00 00 00 00 00 01 03*
0,3629,0:28.093.640,79.000 us,2 B,,SP,55,Write Transaction,00 00
0,3630,0:28.098.991,86.600 us,2 B,,SP,55,Read Transaction,00 00*
0,3631,0:28.107.898,79.000 us,2 B,,SP,55,Write Transaction,00 00
0,3632,0:28.113.254,87.200 us,2 B,,SP,55,Read Transaction,00 08*
0,3633,0:28.118.626,79.100 us,2 B,,SP,55,Write Transaction,12 01
0,3634,0:28.123.976,1.182.500 ms,46 B,,SP,55,Read Transaction,00 EA FF A9 00 84 FC 30 02 95 3B 02 94 AF 16 44 95 16 43 87 26 E5 54 26 E4 2F 00 02 62 64 00 00 00 00 00 00 00 00 00 00 00 00 00 00 01 03*
0,3635,0:28.125.561,79.100 us,2 B,,SP,55,Write Transaction,00 00
0,3636,0:28.130.911,86.600 us,2 B,,SP,55,Read Transaction,00 00*
0,3637,0:28.139.848,79.000 us,2 B,,SP,55,Write Transaction,00 00
0,3638,0:28.145.198,91.200 us,2 B,,SP,55,Read Transaction,00 00*
0,3639,0:28.154.983,79.000 us,2 B,,SP,55,Write Transaction,00 00
0,3640,0:28.160.332,87.000 us,2 B,,SP,55,Read Transaction,00 08*
0,3641,0:28.165.706,79.200 us,2 B,,SP,55,Write Transaction,12 01
0,3642,0:28.171.058,1.182.700 ms,46 B,,SP,55,Read Transaction,00 EB FF A7 00 80 FC 30 02 99 53 02 98 CD 16 46 94 16 45 86 26 E6 A0 26 E5 80 00 02 62 64 00 00 00 00 00 00 00 00 00 00 00 00 00 00 01 03*
0,3643,0:28.173.703,79.100 us,2 B,,SP,55,Write Transaction,00 00
0,3644,0:28.179.058,86.600 us,2 B,,SP,55,Read Transaction,00 00*
0,3645,0:28.187.956,79.000 us,2 B,,SP,55,Write Transaction,00 00
0,3646,0:28.193.309,87.200 us,2 B,,SP,55,Read Transaction,00 08*
0,3647,0:28.198.681,79.100 us,2 B,,SP,55,Write Transaction,12 01
0,3648,0:28.204.030,1.182.800 ms,46 B,,SP,55,Read Transaction,00 EC FF A3 00 7D FC 32 02 9D 9D 02 9D 14 16 48 59 16 47 49 26 E7 B5 26 E6 94 00 02 62 64 00 00 00 00 00 00 00 00 00 00 00 00 00 00 01 03*
0,3649,0:28.206.901,79.000 us,2 B,,SP,55,Write Transaction,00 00
0,3650,0:28.212.258,86.700 us,2 B,,SP,55,Read Transaction,00 00*
0,3651,0:28.219.932,79.100 us,2 B,,SP,55,Write Transaction,00 00
0,3652,0:28.225.283,91.100 us,2 B,,SP,55,Read Transaction,00 00*
0,3653,0:28.234.816,79.100 us,2 B,,SP,55,Write Transaction,00 00
0,3654,0:28.240.169,86.600 us,2 B,,SP,55,Read Transaction,00 08*
0,3655,0:28.245.533,79.100 us,2 B,,SP,55,Write Transaction,12 01
0,3656,0:28.250.886,1.183.800 ms,46 B,,SP,55,Read Transaction,00 ED FF A5 00 7C FC 30 02 A1 6C 02 A0 E2 16 49 ED 16 48 DC 26 E8 AB 26 E7 83 00 02 62 64 00 00 00 00 00 00 00 00 00 00 00 00 00 00 01 03*
0,3657,0:28.254.756,79.100 us,2 B,,SP,55,Write Transaction,00 00
0,3658,0:28.260.144,86.600 us,2 B,,SP,55,Read Transaction,00 00*
0,3659,0:28.268.015,79.000 us,2 B,,SP,55,Write Transaction,00 00
0,3660,0:28.273.366,87.100 us,2 B,,SP,55,Read Transaction,00 08*
0,3661,0:28.278.731,79.000 us,2 B,,SP,55,Write Transaction,12 01
0,3662,0:28.284.081,1.182.700 ms,46 B,,SP,55,Read Transaction,00 EE FF A6 00 7F FC 30 02 A4 F5 02 A4 65 16 4A D4 16 49 C6 26 E9 33 26 E8 0A 00 02 62 64 00 00 00 00 00 00 00 00 00 00 00 00 00 00 01 03*
0,3663,0:28.285.675,79.200 us,2 B,,SP,55,Write Transaction,00 00
0,3664,0:28.291.025,86.600 us,2 B,,SP,55,Read Transaction,00 00*
0,3665,0:28.300.007,79.100 us,2 B,,SP,55,Write Transaction,00 00
0,3666,0:28.305.357,91.100 us,2 B,,SP,55,Read Transaction,00 00*
0,3667,0:28.314.896,79.100 us,2 B,,SP,55,Write Transaction,00 00
0,3668,0:28.320.247,86.600 us,2 B,,SP,55,Read Transaction,00 08*
0,3669,0:28.325.612,79.000 us,2 B,,SP,55,Write Transaction,12 01
0,3670,0:28.330.962,1.182.700 ms,46 B,,SP,55,Read Transaction,00 EF FF A6 00 81 FC 2E 02 A8 25 02 A7 9D 16 4C 1A 16 4B 07 26 EA 03 26 E8 DF 00 02 62 64 00 00 00 00 00 00 00 00 00 00 00 00 00 00 01 03*
0,3671,0:28.333.595,79.100 us,2 B,,SP,55,Write Transaction,00 00
0,3672,0:28.338.947,86.600 us,2 B,,SP,55,Read Transaction,00 00*
0,3673,0:28.347.863,79.100 us,2 B,,SP,55,Write Transaction,00 00
0,3674,0:28.353.214,87.000 us,2 B,,SP,55,Read Transaction,00 08*
0,3675,0:28.358.583,79.100 us,2 B,,SP,55,Write Transaction,12 01
0,3676,0:28.363.935,1.182.500 ms,46 B,,SP,55,Read Transaction,00 F0 FF A8 00 7B FC 30 02 AB 29 02 AA A1 16 4D 12 16 4B FF 26 EA A5 26 E9 83 00 02 62 64 00 00 00 00 00 00 00 00 00 00 00 00 00 00 01 03*
0,3677,0:28.366.764,79.100 us,2 B,,SP,55,Write Transaction,00 00
0,3678,0:28.372.116,86.700 us,2 B,,SP,55,Read Transaction,00 00*
0,3679,0:28.379.833,79.200 us,2 B,,SP,55,Write Transaction,00 00
0,3680,0:28.385.190,91.300 us,2 B,,SP,55,Read Transaction,00 00*
0,3681,0:28.394.980,79.000 us,2 B,,SP,55,Write Transaction,00 00
0,3682,0:28.400.331,86.700 us,2 B,,SP,55,Read Transaction,00 08*
0,3683,0:28.405.697,79.000 us,2 B,,SP,55,Write Transaction,12 01
0,3684,0:28.411.046,1.182.600 ms,46 B,,SP,55,Read Transaction,00 F1 FF A5 00 84 FC 30 02 AE 20 02 AD 98 16 4E 36 16 4D 23 26 EB 73 26 EA 4B 00 02 62 64 00 00 00 00 00 00 00 00 00 00 00 00 00 00 01 03*
0,3685,0:28.414.913,79.100 us,2 B,,SP,55,Write Transaction,00 00
0,3686,0:28.420.263,86.600 us,2 B,,SP,55,Read Transaction,00 00*
0,3687,0:28.427.931,79.000 us,2 B,,SP,55,Write Transaction,00 00
0,3688,0:28.433.283,87.100 us,2 B,,SP,55,Read Transaction,00 08*
0,3689,0:28.438.647,79.000 us,2 B,,SP,55,Write Transaction,12 01
0,3690,0:28.443.999,1.182.600 ms,46 B,,SP,55,Read Transaction,00 F2 FF A7 00 7D FC 38 02 B1 15 02 B0 89 16 4F 3A 16 4E 26 26 EC 05 26 EA DC 00 02 62 64 00 00 00 00 00 00 00 00 00 00 00 00 00 00 01 03*
0,3691,0:28.445.583,79.100 us,2 B,,SP,55,Write Transaction,00 00
0,3692,0:28.450.934,86.600 us,2 B,,SP,55,Read Transaction,00 00*
0,3693,0:28.459.912,79.000 us,2 B,,SP,55,Write Transaction,00 00
0,3694,0:28.465.259,91.100 us,2 B,,SP,55,Read Transaction,00 00*
0,3695,0:28.474.808,79.200 us,2 B,,SP,55,Write Transaction,00 00
0,3696,0:28.480.167,86.800 us,2 B,,SP,55,Read Transaction,00 08*
0,3697,0:28.485.533,79.100 us,2 B,,SP,55,Write Transaction,12 01
0,3698,0:28.490.882,1.182.500 ms,46 B,,SP,55,Read Transaction,00 F3 FF A9 00 7E FC 32 02 B4 29 02 B3 A1 16 50 8A 16 4F 72 26 EC EA 26 EB C4 00 02 62 64 00 00 00 00 00 00 00 00 00 00 00 00 00 00 01 03*
0,3699,0:28.493.636,79.000 us,2 B,,SP,55,Write Transaction,00 00
0,3700,0:28.498.986,86.600 us,2 B,,SP,55,Read Transaction,00 00*
0,3701,0:28.508.007,79.100 us,2 B,,SP,55,Write Transaction,00 00
0,3702,0:28.513.358,87.100 us,2 B,,SP,55,Read Transaction,00 08*
0,3703,0:28.518.723,79.000 us,2 B,,SP,55,Write Transaction,12 01
0,3704,0:28.524.072,1.182.500 ms,46 B,,SP,55,Read Transaction,00 F4 FF A5 00 80 FC 38 02 B6 70 02 B5 EB 16 50 CE 16 4F B8 26 EC BC 26 EB 95 00 02 62 64 00 00 00 00 00 00 00 00 00 00 00 00 00 00 01 03*
0,3705,0:28.525.657,79.000 us,2 B,,SP,55,Write Transaction,00 00
0,3706,0:28.531.007,86.600 us,2 B,,SP,55,Read Transaction,00 00*
0,3707,0:28.539.983,79.100 us,2 B,,SP,55,Write Transaction,00 00
0,3708,0:28.545.332,91.200 us,2 B,,SP,55,Read Transaction,00 00*
0,3709,0:28.554.878,79.100 us,2 B,,SP,55,Write Transaction,00 00
0,3710,0:28.560.228,86.600 us,2 B,,SP,55,Read Transaction,00 08*
0,3711,0:28.565.594,79.100 us,2 B,,SP,55,Write Transaction,12 01
0,3712,0:28.570.943,1.182.700 ms,46 B,,SP,55,Read Transaction,00 F5 FF A9 00 7C FC 2F 02 B0 25 02 AF 93 16 4C 5B 16 4B 45 26 EA 14 26 E8 EB 00 02 62 64 00 00 00 00 00 00 00 00 00 00 00 00 00 00 01 03*
0,3713,0:28.573.647,79.100 us,2 B,,SP,55,Write Transaction,00 00
0,3714,0:28.578.997,86.600 us,2 B,,SP,55,Read Transaction,00 00*
0,3715,0:28.587.829,79.100 us,2 B,,SP,55,Write Transaction,00 00
0,3716,0:28.593.182,87.200 us,2 B,,SP,55,Read Transaction,00 08*
0,3717,0:28.598.550,79.000 us,2 B,,SP,55,Write Transaction,12 01
0,3718,0:28.603.900,1.182.500 ms,46 B,,SP,55,Read Transaction,00 F6 FF A8 00 7C FC 30 02 A2 7D 02 A1 F1 16 46 E6 16 45 D9 26 E7 66 26 E6 41 00 02 62 64 00 00 00 00 00 00 00 00 00 00 00 00 00 00 01 03*
0,3719,0:28.606.742,79.200 us,2 B,,SP,55,Write Transaction,00 00
0,3720,0:28.612.092,86.600 us,2 B,,SP,55,Read Transaction,00 00*
0,3721,0:28.619.823,79.000 us,2 B,,SP,55,Write Transaction,00 00
0,3722,0:28.625.174,91.200 us,2 B,,SP,55,Read Transaction,00 00*
0,3723,0:28.634.950,79.000 us,2 B,,SP,55,Write Transaction,00 00
0,3724,0:28.640.298,86.600 us,2 B,,SP,55,Read Transaction,00 08*
0,3725,0:28.645.664,79.100 us,2 B,,SP,55,Write Transaction,12 01
0,3726,0:28.651.015,1.182.500 ms,46 B,,SP,55,Read Transaction,00 F7 FF A8 00 82 FC 2B 02 96 13 02 95 8E 16 43 70 16 42 5D 26 E5 E6 26 E4 C2 00 02 62 64 00 00 00 00 00 00 00 00 00 00 00 00 00 00 01 03*
0,3727,0:28.654.885,79.000 us,2 B,,SP,55,Write Transaction,00 00
0,3728,0:28.660.236,86.600 us,2 B,,SP,55,Read Transaction,00 00*
0,3729,0:28.667.972,79.100 us,2 B,,SP,55,Write Transaction,00 00
0,3730,0:28.673.323,87.100 us,2 B,,SP,55,Read Transaction,00 08*
0,3731,0:28.678.689,79.000 us,2 B,,SP,55,Write Transaction,12 01
0,3732,0:28.684.038,1.193.000 ms,46 B,,SP,55,Read Transaction,00 F8 FF A4 00 7B FC 2D 02 8F C4 02 8F 42 16 42 31 16 41 24 26 E5 95 26 E4 71 00 02 62 64 00 00 00 00 00 00 00 00 00 00 00 00 00 00 01 03*
0,3733,0:28.685.645,79.100 us,2 B,,SP,55,Write Transaction,00 00
0,3734,0:28.690.995,86.600 us,2 B,,SP,55,Read Transaction,00 00*
0,3735,0:28.699.899,79.100 us,2 B,,SP,55,Write Transaction,00 00
0,3736,0:28.705.251,91.200 us,2 B,,SP,55,Read Transaction,00 00*
0,3737,0:28.714.789,79.100 us,2 B,,SP,55,Write Transaction,00 00
0,3738,0:28.720.136,99.300 us,2 B,,SP,55,Read Transaction,00 08*
0,3739,0:28.725.516,79.000 us,2 B,,SP,55,Write Transaction,12 01
0,3740,0:28.730.867,1.182.600 ms,46 B,,SP,55,Read Transaction,00 F9 FF A6 00 7E FC 30 02 8B 68 02 8A EB 16 41 3F 16 40 2F 26 E5 42 26 E4 1E 00 02 62 64 00 00 00 00 00 00 00 00 00 00 00 00 00 00 01 03*
0,3741,0:28.733.510,79.100 us,2 B,,SP,55,Write Transaction,00 00
0,3742,0:28.738.861,86.600 us,2 B,,SP,55,Read Transaction,00 00*
0,3743,0:28.747.985,79.000 us,2 B,,SP,55,Write Transaction,00 00
0,3744,0:28.753.335,87.100 us,2 B,,SP,55,Read Transaction,00 08*
0,3745,0:28.758.700,79.100 us,2 B,,SP,55,Write Transaction,12 01
0,3746,0:28.764.050,1.182.400 ms,46 B,,SP,55,Read Transaction,00 FA FF A6 00 7B FC 38 02 87 7F 02 86 F1 16 40 38 16 3F 29 26 E4 FA 26 E3 D3 00 02 62 64 00 00 00 00 00 00 00 00 00 00 00 00 00 00 01 03*
0,3747,0:28.766.933,79.100 us,2 B,,SP,55,Write Transaction,00 00
0,3748,0:28.772.281,86.500 us,2 B,,SP,55,Read Transaction,00 00*
0,3749,0:28.779.976,79.000 us,2 B,,SP,55,Write Transaction,00 00
0,3750,0:28.785.328,91.100 us,2 B,,SP,55,Read Transaction,00 00*
0,3751,0:28.794.859,79.100 us,2 B,,SP,55,Write Transaction,00 00
0,3752,0:28.800.210,86.600 us,2 B,,SP,55,Read Transaction,00 08*
0,3753,0:28.805.576,79.000 us,2 B,,SP,55,Write Transaction,12 01
0,3754,0:28.810.925,1.182.300 ms,46 B,,SP,55,Read Transaction,00 FB FF A5 00 80 FC 32 02 86 57 02 85 D7 16 40 A5 16 3F 94 26 E5 68 26 E4 3D 00 02 62 64 00 00 00 00 00 00 00 00 00 00 00 00 00 00 01 03*
0,3755,0:28.814.792,79.100 us,2 B,,SP,55,Write Transaction,00 00
0,3756,0:28.820.146,86.600 us,2 B,,SP,55,Read Transaction,00 00*
0,3757,0:28.827.817,79.100 us,2 B,,SP,55,Write Transaction,00 00
0,3758,0:28.833.166,87.000 us,2 B,,SP,55,Read Transaction,00 08*
0,3759,0:28.838.537,79.100 us,2 B,,SP,55,Write Transaction,12 01
0,3760,0:28.843.886,1.182.400 ms,46 B,,SP,55,Read Transaction,00 FC FF A3 00 80 FC 2D 02 88 DD 02 88 58 16 42 6A 16 41 58 26 E6 79 26 E5 4C 00 02 62 64 00 00 00 00 00 00 00 00 00 00 00 00 00 00 01 03*
0,3761,0:28.845.469,79.100 us,2 B,,SP,55,Write Transaction,00 00
0,3762,0:28.850.817,86.600 us,2 B,,SP,55,Read Transaction,00 00*
0,3763,0:28.859.792,79.200 us,2 B,,SP,55,Write Transaction,00 00
0,3764,0:28.865.145,91.200 us,2 B,,SP,55,Read Transaction,00 00*
0,3765,0:28.874.943,79.100 us,2 B,,SP,55,Write Transaction,00 00
0,3766,0:28.880.294,87.000 us,2 B,,SP,55,Read Transaction,00 08*
0,3767,0:28.885.658,79.100 us,2 B,,SP,55,Write Transaction,12 01
0,3768,0:28.891.007,1.182.400 ms,46 B,,SP,55,Read Transaction,00 FD FF A8 00 7A FC 32 02 8B 8D 02 8B 0F 16 43 BA 16 42 A2 26 E7 45 26 E6 1C 00 02 62 64 00 00 00 00 00 00 00 00 00 00 00 00 00 00 01 03*
0,3769,0:28.893.651,79.100 us,2 B,,SP,55,Write Transaction,00 00
0,3770,0:28.899.001,86.500 us,2 B,,SP,55,Read Transaction,00 00*
0,3771,0:28.907.898,79.100 us,2 B,,SP,55,Write Transaction,00 00
0,3772,0:28.913.262,87.000 us,2 B,,SP,55,Read Transaction,00 08*
0,3773,0:28.918.627,79.000 us,2 B,,SP,55,Write Transaction,12 01
0,3774,0:28.923.976,1.182.500 ms,46 B,,SP,55,Read Transaction,00 FE FF A5 00 81 FC 30 02 8D E2 02 8D 56 16 44 EB 16 43 D9 26 E7 EA 26 E6 C1 00 02 62 64 25 B4 64 00 00 00 00 00 00 00 00 00 00 00 01 03*
0,3775,0:28.925.559,79.000 us,2 B,,SP,55,Write Transaction,00 00
0,3776,0:28.930.909,86.600 us,2 B,,SP,55,Read Transaction,00 00*
0,3777,0:28.939.874,79.000 us,2 B,,SP,55,Write Transaction,00 00
0,3778,0:28.945.222,91.200 us,2 B,,SP,55,Read Transaction,00 00*
0,3779,0:28.955.005,79.000 us,2 B,,SP,55,Write Transaction,00 00
0,3780,0:28.960.355,86.600 us,2 B,,SP,55,Read Transaction,00 08*
0,3781,0:28.965.771,79.000 us,2 B,,SP,55,Write Transaction,12 01
0,3782,0:28.971.119,1.182.300 ms,46 B,,SP,55,Read Transaction,00 FF FF A7 00 7E FC 34 02 8F E9 02 8F 5F 16 45 B2 16 44 9A 26 E8 8B 26 E7 5B 00 02 62 64 00 00 00 00 00 00 00 00 00 00 00 00 00 00 01 03*
0,3783,0:28.973.763,79.100 us,2 B,,SP,55,Write Transaction,00 00
0,3784,0:28.979.115,86.600 us,2 B,,SP,55,Read Transaction,00 00*
0,3785,0:28.987.959,79.100 us,2 B,,SP,55,Write Transaction,00 00
0,3786,0:28.993.310,87.100 us,2 B,,SP,55,Read Transaction,00 08*
0,3787,0:28.998.679,79.200 us,2 B,,SP,55,Write Transaction,12 01
0,3788,0:29.004.038,1.184.000 ms,46 B,,SP,55,Read Transaction,00 00 FF A2 00 7D FC 2F 02 93 0E 02 92 85 16 47 58 16 46 44 26 E9 98 26 E8 6A 00 02 62 64 00 00 00 00 00 00 00 00 00 00 00 00 00 00 01 03*
0,3789,0:29.006.858,79.100 us,2 B,,SP,55,Write Transaction,00 00
0,3790,0:29.012.217,86.700 us,2 B,,SP,55,Read Transaction,00 00*
0,3791,0:29.019.942,79.200 us,2 B,,SP,55,Write Transaction,00 00
0,3792,0:29.025.291,91.200 us,2 B,,SP,55,Read Transaction,00 00*
0,3793,0:29.034.834,79.100 us,2 B,,SP,55,Write Transaction,00 00
0,3794,0:29.040.185,86.500 us,2 B,,SP,55,Read Transaction,00 08*
0,3795,0:29.045.551,79.100 us,2 B,,SP,55,Write Transaction,12 01
0,3796,0:29.050.901,1.182.500 ms,46 B,,SP,55,Read Transaction,00 01 FF A9 00 7C FC 38 02 97 61 02 96 D0 16 49 1E 16 48 12 26 EA A5 26 E9 7C 00 02 62 64 00 00 00 00 00 00 00 00 00 00 00 00 00 00 01 03*
0,3797,0:29.054.874,79.000 us,2 B,,SP,55,Write Transaction,00 00
0,3798,0:29.060.230,86.600 us,2 B,,SP,55,Read Transaction,00 00*
0,3799,0:29.067.789,79.000 us,2 B,,SP,55,Write Transaction,00 00
0,3800,0:29.073.142,87.100 us,2 B,,SP,55,Read Transaction,00 08*
0,3801,0:29.078.506,79.100 us,2 B,,SP,55,Write Transaction,12 01
0,3802,0:29.083.857,1.182.500 ms,46 B,,SP,55,Read Transaction,00 02 FF A9 00 7D FC 2F 02 9B 52 02 9A C8 16 4B 24 16 4A 11 26 EB F2 26 EA C5 00 02 62 64 00 00 00 00 00 00 00 00 00 00 00 00 00 00 01 03*
0,3803,0:29.085.452,79.100 us,2 B,,SP,55,Write Transaction,00 00
0,3804,0:29.090.803,86.600 us,2 B,,SP,55,Read Transaction,00 00*
0,3805,0:29.099.769,79.100 us,2 B,,SP,55,Write Transaction,00 00
0,3806,0:29.105.119,91.100 us,2 B,,SP,55,Read Transaction,00 00*
0,3807,0:29.114.906,79.000 us,2 B,,SP,55,Write Transaction,00 00
0,3808,0:29.120.255,86.500 us,2 B,,SP,55,Read Transaction,00 08*
0,3809,0:29.125.621,79.100 us,2 B,,SP,55,Write Transaction,12 01
0,3810,0:29.130.970,1.182.600 ms,46 B,,SP,55,Read Transaction,00 03 FF AA 00 7C FC 36 02 9F F9 02 9F 71 16 4D 0F 16 4B FB 26 ED 19 26 EB EA 00 02 62 64 00 00 00 00 00 00 00 00 00 00 00 00 00 00 01 03*
0,3811,0:29.133.657,79.100 us,2 B,,SP,55,Write Transaction,00 00
0,3812,0:29.139.010,86.800 us,2 B,,SP,55,Read Transaction,00 00*
0,3813,0:29.147.879,79.100 us,2 B,,SP,55,Write Transaction,00 00
0,3814,0:29.153.231,87.100 us,2 B,,SP,55,Read Transaction,00 08*
0,3815,0:29.158.597,79.100 us,2 B,,SP,55,Write Transaction,12 01
0,3816,0:29.163.946,1.182.600 ms,46 B,,SP,55,Read Transaction,00 04 FF AC 00 7D FC 31 02 A3 BD 02 A3 30 16 4E 5A 16 4D 45 26 ED FC 26 EC D4 00 02 62 64 00 00 00 00 00 00 00 00 00 00 00 00 00 00 01 03*
0,3817,0:29.166.804,79.100 us,2 B,,SP,55,Write Transaction,00 00
0,3818,0:29.172.156,86.600 us,2 B,,SP,55,Read Transaction,00 00*
0,3819,0:29.179.852,79.100 us,2 B,,SP,55,Write Transaction,00 00
0,3820,0:29.185.205,91.200 us,2 B,,SP,55,Read Transaction,00 00*
0,3821,0:29.194.984,79.000 us,2 B,,SP,55,Write Transaction,00 00
0,3822,0:29.200.334,86.600 us,2 B,,SP,55,Read Transaction,00 08*
0,3823,0:29.205.700,79.100 us,2 B,,SP,55,Write Transaction,12 01
0,3824,0:29.211.051,1.182.600 ms,46 B,,SP,55,Read Transaction,00 05 FF AA 00 82 FC 33 02 A7 46 02 A6 C6 16 4F 8C 16 4E 79 26 EE A8 26 ED 7E 00 02 62 64 00 00 00 00 00 00 00 00 00 00 00 00 00 00 01 03*
0,3825,0:29.214.923,79.200 us,2 B,,SP,55,Write Transaction,00 00
0,3826,0:29.220.275,86.500 us,2 B,,SP,55,Read Transaction,00 00*
0,3827,0:29.227.954,79.100 us,2 B,,SP,55,Write Transaction,00 00
0,3828,0:29.233.306,87.100 us,2 B,,SP,55,Read Transaction,00 08*
0,3829,0:29.238.674,79.100 us,2 B,,SP,55,Write Transaction,12 01
0,3830,0:29.244.024,1.182.700 ms,46 B,,SP,55,Read Transaction,00 06 FF A7 00 7F FC 2F 02 AA 80 02 A9 FA 16 50 AD 16 4F 95 26 EF 57 26 EE 30 00 02 62 64 00 00 00 00 00 00 00 00 00 00 00 00 00 00 01 03*
0,3831,0:29.245.644,79.100 us,2 B,,SP,55,Write Transaction,00 00
0,3832,0:29.250.994,86.700 us,2 B,,SP,55,Read Transaction,00 00*
0,3833,0:29.259.935,79.200 us,2 B,,SP,55,Write Transaction,00 00
0,3834,0:29.265.289,91.100 us,2 B,,SP,55,Read Transaction,00 00*
0,3835,0:29.274.817,79.100 us,2 B,,SP,55,Write Transaction,00 00
0,3836,0:29.280.168,86.600 us,2 B,,SP,55,Read Transaction,00 08*
0,3837,0:29.285.533,79.100 us,2 B,,SP,55,Write Transaction,12 01
0,3838,0:29.290.884,1.182.700 ms,46 B,,SP,55,Read Transaction,00 07 FF A7 00 82 FC 32 02 AD AF 02 AD 23 16 51 CD 16 50 B8 26 F0 13 26 EE EE 00 02 62 64 00 00 00 00 00 00 00 00 00 00 00 00 00 00 01 03*
0,3839,0:29.293.530,79.100 us,2 B,,SP,55,Write Transaction,00 00
0,3840,0:29.298.882,86.600 us,2 B,,SP,55,Read Transaction,00 00*
0,3841,0:29.307.790,79.100 us,2 B,,SP,55,Write Transaction,00 00
0,3842,0:29.313.140,87.100 us,2 B,,SP,55,Read Transaction,00 08*
0,3843,0:29.318.507,79.100 us,2 B,,SP,55,Write Transaction,12 01
0,3844,0:29.323.858,1.184.200 ms,46 B,,SP,55,Read Transaction,00 08 FF A7 00 7C FC 31 02 B1 24 02 B0 A0 16 53 2B 16 52 15 26 F1 01 26 EF D8 00 02 62 64 00 00 00 00 00 00 00 00 00 00 00 00 00 00 01 03*
0,3845,0:29.325.497,79.200 us,2 B,,SP,55,Write Transaction,00 00
0,3846,0:29.330.851,86.600 us,2 B,,SP,55,Read Transaction,00 00*
0,3847,0:29.339.759,79.100 us,2 B,,SP,55,Write Transaction,00 00
0,3848,0:29.345.109,91.300 us,2 B,,SP,55,Read Transaction,00 00*
0,3849,0:29.354.895,79.100 us,2 B,,SP,55,Write Transaction,00 00
0,3850,0:29.360.246,86.600 us,2 B,,SP,55,Read Transaction,00 08*
0,3851,0:29.365.609,79.100 us,2 B,,SP,55,Write Transaction,12 01
0,3852,0:29.370.959,1.182.500 ms,46 B,,SP,55,Read Transaction,00 09 FF A8 00 7D FC 31 02 B4 AD 02 B4 1E 16 54 D8 16 53 C3 26 F2 0B 26 F0 DD 00 02 62 64 00 00 00 00 00 00 00 00 00 00 00 00 00 00 01 03*
0,3853,0:29.373.603,79.100 us,2 B,,SP,55,Write Transaction,00 00
0,3854,0:29.378.954,86.600 us,2 B,,SP,55,Read Transaction,00 00*
0,3855,0:29.387.849,79.100 us,2 B,,SP,55,Write Transaction,00 00
0,3856,0:29.393.196,87.100 us,2 B,,SP,55,Read Transaction,00 08*
0,3857,0:29.398.561,79.100 us,2 B,,SP,55,Write Transaction,12 01
0,3858,0:29.403.912,1.182.500 ms,46 B,,SP,55,Read Transaction,00 0A FF A9 00 7D FC 30 02 B8 38 02 B7 A8 16 56 4C 16 55 34 26 F2 E8 26 F1 BD 00 02 62 64 00 00 00 00 00 00 00 00 00 00 00 00 00 00 01 03*
0,3859,0:29.406.731,79.100 us,2 B,,SP,55,Write Transaction,00 00
0,3860,0:29.412.082,86.700 us,2 B,,SP,55,Read Transaction,00 00*
0,3861,0:29.419.835,79.100 us,2 B,,SP,55,Write Transaction,00 00
0,3862,0:29.425.187,91.100 us,2 B,,SP,55,Read Transaction,00 00*
0,3863,0:29.434.979,79.000 us,2 B,,SP,55,Write Transaction,00 00
0,3864,0:29.440.331,86.600 us,2 B,,SP,55,Read Transaction,00 08*
0,3865,0:29.445.696,79.100 us,2 B,,SP,55,Write Transaction,12 01
0,3866,0:29.451.046,1.183.400 ms,46 B,,SP,55,Read Transaction,00 0B FF AA 00 7B FC 2C 02 BB D7 02 BB 48 16 57 D5 16 56 B9 26 F3 E1 26 F2 B8 00 02 62 64 00 00 00 00 00 00 00 00 00 00 00 00 00 00 01 03*
0,3867,0:29.453.863,79.100 us,2 B,,SP,55,Write Transaction,00 00
0,3868,0:29.459.213,86.600 us,2 B,,SP,55,Read Transaction,00 00*
0,3869,0:29.466.958,79.000 us,2 B,,SP,55,Write Transaction,00 00
0,3870,0:29.472.307,87.100 us,2 B,,SP,55,Read Transaction,00 08*
0,3871,0:29.477.676,79.000 us,2 B,,SP,55,Write Transaction,12 01
0,3872,0:29.483.027,1.182.700 ms,46 B,,SP,55,Read Transaction,00 0C FF AC 00 83 FC 2F 02 BF D1 02 BF 42 16 59 B3 16 58 9B 26 F5 19 26 F3 EE 00 02 62 64 00 00 00 00 00 00 00 00 00 00 00 00 00 00 01 03*
0,3873,0:29.485.673,79.000 us,2 B,,SP,55,Write Transaction,00 00
0,3874,0:29.491.023,86.600 us,2 B,,SP,55,Read Transaction,00 00*
0,3875,0:29.499.917,79.200 us,2 B,,SP,55,Write Transaction,00 00
0,3876,0:29.505.273,91.100 us,2 B,,SP,55,Read Transaction,00 00*
0,3877,0:29.514.807,79.100 us,2 B,,SP,55,Write Transaction,00 00
0,3878,0:29.520.160,86.800 us,2 B,,SP,55,Read Transaction,00 08*
0,3879,0:29.525.584,79.100 us,2 B,,SP,55,Write Transaction,12 01
0,3880,0:29.530.935,1.182.700 ms,46 B,,SP,55,Read Transaction,00 0D FF A7 00 7C FC 36 02 C2 A0 02 C2 09 16 5A 61 16 59 47 26 F5 50 26 F4 26 00 02 62 64 00 00 00 00 00 00 00 00 00 00 00 00 00 00 01 03*
0,3881,0:29.532.518,79.100 us,2 B,,SP,55,Write Transaction,00 00
0,3882,0:29.537.869,86.600 us,2 B,,SP,55,Read Transaction,00 00*
0,3883,0:29.546.774,79.100 us,2 B,,SP,55,Write Transaction,00 00
0,3884,0:29.552.125,87.100 us,2 B,,SP,55,Read Transaction,00 08*
0,3885,0:29.557.491,79.000 us,2 B,,SP,55,Write Transaction,12 01
0,3886,0:29.562.841,1.182.500 ms,46 B,,SP,55,Read Transaction,00 0E FF AC 00 7F FC 2E 02 BC 2F 02 BB 9F 16 55 2F 16 54 13 26 F2 19 26 F0 E9 00 02 62 64 00 00 00 00 00 00 00 00 00 00 00 00 00 00 01 03*
0,3887,0:29.566.719,79.200 us,2 B,,SP,55,Write Transaction,00 00
0,3888,0:29.572.073,86.600 us,2 B,,SP,55,Read Transaction,00 00*
0,3889,0:29.579.989,79.000 us,2 B,,SP,55,Write Transaction,00 00
0,3890,0:29.585.339,91.200 us,2 B,,SP,55,Read Transaction,00 00*
0,3891,0:29.594.889,79.000 us,2 B,,SP,55,Write Transaction,00 00
0,3892,0:29.600.240,86.600 us,2 B,,SP,55,Read Transaction,00 08*
0,3893,0:29.605.607,79.000 us,2 B,,SP,55,Write Transaction,12 01
0,3894,0:29.610.955,1.181.900 ms,46 B,,SP,55,Read Transaction,00 0F FF A9 00 7D FC 33 02 AF 3E 02 AE B1 16 50 0F 16 4E F6 26 EF 95 26 EE 66 00 02 62 64 00 00 00 00 00 00 00 00 00 00 00 00 00 00 01 03*
0,3895,0:29.613.778,79.000 us,2 B,,SP,55,Write Transaction,00 00
0,3896,0:29.619.127,86.600 us,2 B,,SP,55,Read Transaction,00 00*
0,3897,0:29.626.853,79.000 us,2 B,,SP,55,Write Transaction,00 00
0,3898,0:29.632.204,87.100 us,2 B,,SP,55,Read Transaction,00 08*
0,3899,0:29.637.568,79.000 us,2 B,,SP,55,Write Transaction,12 01
0,3900,0:29.642.918,1.182.600 ms,46 B,,SP,55,Read Transaction,00 10 FF A9 00 7E FC 2E 02 A3 97 02 A3 10 16 4C 34 16 4B 1B 26 ED E6 26 EC B4 00 02 62 64 00 00 00 00 00 00 00 00 00 00 00 00 00 00 01 03*
0,3901,0:29.645.552,79.100 us,2 B,,SP,55,Write Transaction,00 00
0,3902,0:29.650.902,90.500 us,2 B,,SP,55,Read Transaction,00 00*
0,3903,0:29.659.809,79.200 us,2 B,,SP,55,Write Transaction,00 00
0,3904,0:29.665.161,91.100 us,2 B,,SP,55,Read Transaction,00 00*
0,3905,0:29.674.952,79.000 us,2 B,,SP,55,Write Transaction,00 00
0,3906,0:29.680.300,86.500 us,2 B,,SP,55,Read Transaction,00 08*
0,3907,0:29.685.666,79.100 us,2 B,,SP,55,Write Transaction,12 01
0,3908,0:29.691.014,1.182.600 ms,46 B,,SP,55,Read Transaction,00 11 FF A7 00 7E FC 30 02 9C 47 02 9B BF 16 4A 5F 16 49 44 26 ED 36 26 EC 03 00 02 62 64 00 00 00 00 00 00 00 00 00 00 00 00 00 00 01 03*
0,3909,0:29.692.663,79.100 us,2 B,,SP,55,Write Transaction,00 00
0,3910,0:29.698.012,86.600 us,2 B,,SP,55,Read Transaction,00 00*
0,3911,0:29.706.923,79.000 us,2 B,,SP,55,Write Transaction,00 00
0,3912,0:29.712.274,87.100 us,2 B,,SP,55,Read Transaction,00 08*
0,3913,0:29.717.638,79.100 us,2 B,,SP,55,Write Transaction,12 01
0,3914,0:29.722.989,1.184.200 ms,46 B,,SP,55,Read Transaction,00 12 FF A1 00 81 FC 33 02 97 CD 02 97 4C 16 49 10 16 47 FE 26 EC A4 26 EB 77 00 02 62 64 00 00 00 00 00 00 00 00 00 00 00 00 00 00 01 03*
0,3915,0:29.725.625,79.100 us,2 B,,SP,55,Write Transaction,00 00
0,3916,0:29.730.977,86.600 us,2 B,,SP,55,Read Transaction,00 00*
0,3917,0:29.739.883,79.000 us,2 B,,SP,55,Write Transaction,00 00
0,3918,0:29.745.232,91.300 us,2 B,,SP,55,Read Transaction,00 00*
0,3919,0:29.754.782,79.000 us,2 B,,SP,55,Write Transaction,00 00
0,3920,0:29.760.130,86.600 us,2 B,,SP,55,Read Transaction,00 08*
0,3921,0:29.765.495,79.100 us,2 B,,SP,55,Write Transaction,12 01
0,3922,0:29.770.875,1.182.600 ms,46 B,,SP,55,Read Transaction,00 13 FF A8 00 7D FC 31 02 93 15 02 92 93 16 47 7B 16 46 69 26 EC 01 26 EA D0 00 02 62 64 00 00 00 00 00 00 00 00 00 00 00 00 00 00 01 03*
0,3923,0:29.772.471,79.100 us,2 B,,SP,55,Write Transaction,00 00
0,3924,0:29.777.819,86.500 us,2 B,,SP,55,Read Transaction,00 00*
0,3925,0:29.786.770,79.000 us,2 B,,SP,55,Write Transaction,00 00
0,3926,0:29.792.121,87.000 us,2 B,,SP,55,Read Transaction,00 08*
0,3927,0:29.797.488,79.100 us,2 B,,SP,55,Write Transaction,12 01
0,3928,0:29.802.837,1.182.600 ms,46 B,,SP,55,Read Transaction,00 14 FF AC 00 83 FC 30 02 91 58 02 90 CF 16 47 96 16 46 86 26 EC 3F 26 EB 11 00 02 62 64 00 00 00 00 00 00 00 00 00 00 00 00 00 00 01 03*
0,3929,0:29.806.707,79.000 us,2 B,,SP,55,Write Transaction,00 00
0,3930,0:29.812.057,86.500 us,2 B,,SP,55,Read Transaction,00 00*
0,3931,0:29.819.965,79.100 us,2 B,,SP,55,Write Transaction,00 00
0,3932,0:29.825.319,91.100 us,2 B,,SP,55,Read Transaction,00 00*
0,3933,0:29.834.872,79.200 us,2 B,,SP,55,Write Transaction,00 00
0,3934,0:29.840.227,86.600 us,2 B,,SP,55,Read Transaction,00 08*
0,3935,0:29.845.593,79.100 us,2 B,,SP,55,Write Transaction,12 01
0,3936,0:29.850.944,1.182.600 ms,46 B,,SP,55,Read Transaction,00 15 FF A1 00 7D FC 34 02 92 E4 02 92 5C 16 48 BA 16 47 A5 26 EC E3 26 EB B6 00 02 62 64 00 00 00 00 00 00 00 00 00 00 00 00 00 00 01 03*
0,3937,0:29.853.762,79.000 us,2 B,,SP,55,Write Transaction,00 00
0,3938,0:29.859.110,86.600 us,2 B,,SP,55,Read Transaction,00 00*
0,3939,0:29.866.880,79.200 us,2 B,,SP,55,Write Transaction,00 00
0,3940,0:29.872.237,91.100 us,2 B,,SP,55,Read Transaction,00 00*
0,3941,0:29.881.969,79.100 us,2 B,,SP,55,Write Transaction,00 00
0,3942,0:29.887.321,86.600 us,2 B,,SP,55,Read Transaction,00 08*
0,3943,0:29.892.684,79.100 us,2 B,,SP,55,Write Transaction,12 01
0,3944,0:29.898.034,1.182.500 ms,46 B,,SP,55,Read Transaction,00 16 FF A5 00 7C FC 32 02 93 97 02 93 09 16 48 FB 16 47 EA 26 ED 03 26 EB D8 00 02 62 64 25 83 64 00 00 00 00 00 00 00 00 00 00 00 01 03*
0,3945,0:29.901.925,79.100 us,2 B,,SP,55,Write Transaction,00 00
0,3946,0:29.907.276,91.300 us,2 B,,SP,55,Read Transaction,00 00*
0,3947,0:29.914.940,79.000 us,2 B,,SP,55,Write Transaction,00 00
0,3948,0:29.920.300,86.700 us,2 B,,SP,55,Read Transaction,00 08*
0,3949,0:29.925.667,79.100 us,2 B,,SP,55,Write Transaction,12 01
0,3950,0:29.931.018,1.182.600 ms,46 B,,SP,55,Read Transaction,00 17 FF A8 00 7F FC 2F 02 93 95 02 93 0E 16 49 18 16 48 03 26 ED 3C 26 EC 0B 00 02 62 64 00 00 00 00 00 00 00 00 00 00 00 00 00 00 01 03*
0,3951,0:29.932.602,79.000 us,2 B,,SP,55,Write Transaction,00 00
0,3952,0:29.937.952,86.600 us,2 B,,SP,55,Read Transaction,00 00*
0,3953,0:29.946.916,79.100 us,2 B,,SP,55,Write Transaction,00 00
0,3954,0:29.952.265,87.100 us,2 B,,SP,55,Read Transaction,00 08*
0,3955,0:29.957.631,79.100 us,2 B,,SP,55,Write Transaction,12 01
0,3956,0:29.962.980,1.182.600 ms,46 B,,SP,55,Read Transaction,00 18 FF A8 00 82 FC 30 02 95 1D 02 94 8D 16 4A 84 16 49 73 26 EE 1B 26 EC EE 00 02 62 64 00 00 00 00 00 00 00 00 00 00 00 00 00 00 01 03*
0,3957,0:29.966.912,79.000 us,2 B,,SP,55,Write Transaction,00 00
0,3958,0:29.972.262,86.600 us,2 B,,SP,55,Read Transaction,00 00*
0,3959,0:29.979.880,79.000 us,2 B,,SP,55,Write Transaction,00 00
0,3960,0:29.985.232,91.100 us,2 B,,SP,55,Read Transaction,00 00*
0,3961,0:29.994.761,79.100 us,2 B,,SP,55,Write Transaction,00 00
0,3962,0:30.000.115,86.700 us,2 B,,SP,55,Read Transaction,00 08*
0,3963,0:30.005.488,79.100 us,2 B,,SP,55,Write Transaction,12 01
0,3964,0:30.010.846,1.184.300 ms,46 B,,SP,55,Read Transaction,00 19 FF A8 00 81 FC 2F 02 99 61 02 98 DE 16 4C C6 16 4B B4 26 EF 56 26 EE 2B 00 02 62 64 00 00 00 00 00 00 00 00 00 00 00 00 00 00 01 03*
0,3965,0:30.013.669,79.200 us,2 B,,SP,55,Write Transaction,00 00
0,3966,0:30.019.028,86.700 us,2 B,,SP,55,Read Transaction,00 00*
0,3967,0:30.026.747,79.100 us,2 B,,SP,55,Write Transaction,00 00
0,3968,0:30.032.096,87.100 us,2 B,,SP,55,Read Transaction,00 08*
0,3969,0:30.037.462,79.000 us,2 B,,SP,55,Write Transaction,12 01
0,3970,0:30.042.812,1.182.600 ms,46 B,,SP,55,Read Transaction,00 1A FF AA 00 80 FC 30 02 9C E9 02 9C 65 16 4E 18 16 4C FE 26 F0 3A 26 EF 06 00 02 62 64 00 00 00 00 00 00 00 00 00 00 00 00 00 00 01 03*
0,3971,0:30.045.446,79.100 us,2 B,,SP,55,Write Transaction,00 00
0,3972,0:30.050.797,86.600 us,2 B,,SP,55,Read Transaction,00 00*
0,3973,0:30.059.944,79.000 us,2 B,,SP,55,Write Transaction,00 00
0,3974,0:30.065.294,91.100 us,2 B,,SP,55,Read Transaction,00 00*
0,3975,0:30.074.837,79.000 us,2 B,,SP,55,Write Transaction,00 00
0,3976,0:30.080.193,86.600 us,2 B,,SP,55,Read Transaction,00 08*
0,3977,0:30.085.558,79.100 us,2 B,,SP,55,Write Transaction,12 01
0,3978,0:30.090.910,1.182.900 ms,46 B,,SP,55,Read Transaction,00 1B FF A8 00 81 FC 31 02 A1 43 02 A0 BC 16 50 4E 16 4F 35 26 F1 95 26 F0 6B 00 02 62 64 00 00 00 00 00 00 00 00 00 00 00 00 00 00 01 03*
0,3979,0:30.092.504,79.100 us,2 B,,SP,55,Write Transaction,00 00
0,3980,0:30.097.855,86.600 us,2 B,,SP,55,Read Transaction,00 00*
0,3981,0:30.106.825,79.000 us,2 B,,SP,55,Write Transaction,00 00
0,3982,0:30.112.176,87.100 us,2 B,,SP,55,Read Transaction,00 08*
0,3983,0:30.117.542,79.100 us,2 B,,SP,55,Write Transaction,12 01
0,3984,0:30.122.897,1.182.600 ms,46 B,,SP,55,Read Transaction,00 1C FF AB 00 7A FC 2F 02 A5 CB 02 A5 48 16 52 06 16 50 EB 26 F2 97 26 F1 6B 00 02 62 64 00 00 00 00 00 00 00 00 00 00 00 00 00 00 01 03*
0,3985,0:30.125.530,79.000 us,2 B,,SP,55,Write Transaction,00 00
0,3986,0:30.130.887,86.600 us,2 B,,SP,55,Read Transaction,00 00*
0,3987,0:30.139.772,79.100 us,2 B,,SP,55,Write Transaction,00 00
0,3988,0:30.145.121,91.200 us,2 B,,SP,55,Read Transaction,00 00*
0,3989,0:30.154.923,79.000 us,2 B,,SP,55,Write Transaction,00 00
0,3990,0:30.160.275,86.600 us,2 B,,SP,55,Read Transaction,00 08*
0,3991,0:30.165.648,79.200 us,2 B,,SP,55,Write Transaction,12 01
0,3992,0:30.171.003,1.181.900 ms,46 B,,SP,55,Read Transaction,00 1D FF A6 00 7B FC 2F 02 A9 43 02 A8 B6 16 53 20 16 52 09 26 F3 5A 26 F2 28 00 02 62 64 00 00 00 00 00 00 00 00 00 00 00 00 00 00 01 03*
0,3993,0:30.172.596,79.000 us,2 B,,SP,55,Write Transaction,00 00
0,3994,0:30.177.947,86.600 us,2 B,,SP,55,Read Transaction,00 00*
0,3995,0:30.186.903,79.100 us,2 B,,SP,55,Write Transaction,00 00
0,3996,0:30.192.260,87.000 us,2 B,,SP,55,Read Transaction,00 08*
0,3997,0:30.197.623,79.100 us,2 B,,SP,55,Write Transaction,12 01
0,3998,0:30.202.974,1.183.800 ms,46 B,,SP,55,Read Transaction,00 1E FF AC 00 7A FC 2F 02 AC 1A 02 AB 8F 16 53 FF 16 52 E2 26 F3 D5 26 F2 AA 00 02 62 64 00 00 00 00 00 00 00 00 00 00 00 00 00 00 01 03*
0,3999,0:30.206.842,79.100 us,2 B,,SP,55,Write Transaction,00 00
0,4000,0:30.212.193,86.600 us,2 B,,SP,55,Read Transaction,00 00*
0,4001,0:30.219.852,79.000 us,2 B,,SP,55,Write Transaction,00 00
0,4002,0:30.225.200,91.100 us,2 B,,SP,55,Read Transaction,00 00*
0,4003,0:30.234.742,79.100 us,2 B,,SP,55,Write Transaction,00 00
0,4004,0:30.240.091,86.600 us,2 B,,SP,55,Read Transaction,00 08*
0,4005,0:30.245.459,79.100 us,2 B,,SP,55,Write Transaction,12 01
0,4006,0:30.250.812,1.182.500 ms,46 B,,SP,55,Read Transaction,00 1F FF AE 00 7B FC 30 02 AE 58 02 AD CF 16 54 4B 16 53 2F 26 F4 11 26 F2 DD 00 02 62 64 00 00 00 00 00 00 00 00 00 00 00 00 00 00 01 03*
0,4007,0:30.253.695,79.200 us,2 B,,SP,55,Write Transaction,00 00
0,4008,0:30.259.051,86.700 us,2 B,,SP,55,Read Transaction,00 00*
0,4009,0:30.266.722,79.100 us,2 B,,SP,55,Write Transaction,00 00
0,4010,0:30.272.073,87.100 us,2 B,,SP,55,Read Transaction,00 08*
0,4011,0:30.277.437,79.100 us,2 B,,SP,55,Write Transaction,12 01
0,4012,0:30.282.791,1.182.400 ms,46 B,,SP,55,Read Transaction,00 20 FF A7 00 80 FC 2F 02 B0 91 02 B0 05 16 54 D4 16 53 B8 26 F4 74 26 F3 4A 00 02 62 64 00 00 00 00 00 00 00 00 00 00 00 00 00 00 01 03*
0,4013,0:30.285.435,79.000 us,2 B,,SP,55,Write Transaction,00 00
0,4014,0:30.290.783,86.600 us,2 B,,SP,55,Read Transaction,00 00*
0,4015,0:30.299.943,79.200 us,2 B,,SP,55,Write Transaction,00 00
0,4016,0:30.305.302,91.300 us,2 B,,SP,55,Read Transaction,00 00*
0,4017,0:30.314.820,79.100 us,2 B,,SP,55,Write Transaction,00 00
0,4018,0:30.320.169,86.700 us,2 B,,SP,55,Read Transaction,00 08*
0,4019,0:30.325.536,79.100 us,2 B,,SP,55,Write Transaction,12 01
0,4020,0:30.330.950,1.182.400 ms,46 B,,SP,55,Read Transaction,00 21 FF A5 00 7E FC 30 02 B3 10 02 B2 86 16 55 CA 16 54 AD 26 F5 10 26 F3 DB 00 02 62 64 00 00 00 00 00 00 00 00 00 00 00 00 00 00 01 03*
0,4021,0:30.332.533,79.100 us,2 B,,SP,55,Write Transaction,00 00
0,4022,0:30.337.883,86.700 us,2 B,,SP,55,Read Transaction,00 00*
0,4023,0:30.346.795,79.000 us,2 B,,SP,55,Write Transaction,00 00
0,4024,0:30.352.146,87.000 us,2 B,,SP,55,Read Transaction,00 08*
0,4025,0:30.357.517,79.200 us,2 B,,SP,55,Write Transaction,12 01
0,4026,0:30.362.871,1.182.500 ms,46 B,,SP,55,Read Transaction,00 22 FF A7 00 7A FC 2F 02 B5 8D 02 B4 F7 16 56 DA 16 55 BF 26 F5 AC 26 F4 77 00 02 62 64 00 00 00 00 00 00 00 00 00 00 00 00 00 00 01 03*
0,4027,0:30.366.749,79.100 us,2 B,,SP,55,Write Transaction,00 00
0,4028,0:30.372.098,86.600 us,2 B,,SP,55,Read Transaction,00 00*
0,4029,0:30.379.757,79.200 us,2 B,,SP,55,Write Transaction,00 00
0,4030,0:30.385.110,91.500 us,2 B,,SP,55,Read Transaction,00 00*
0,4031,0:30.394.899,79.000 us,2 B,,SP,55,Write Transaction,00 00
0,4032,0:30.400.248,86.600 us,2 B,,SP,55,Read Transaction,00 08*
0,4033,0:30.405.616,79.100 us,2 B,,SP,55,Write Transaction,12 01
0,4034,0:30.410.967,1.182.300 ms,46 B,,SP,55,Read Transaction,00 23 FF A3 00 7F FC 32 02 B8 72 02 B7 DC 16 57 C6 16 56 AC 26 F6 5A 26 F5 2B 00 02 62 64 00 00 00 00 00 00 00 00 00 00 00 00 00 00 01 03*
0,4035,0:30.413.785,79.200 us,2 B,,SP,55,Write Transaction,00 00
0,4036,0:30.419.140,86.600 us,2 B,,SP,55,Read Transaction,00 00*
0,4037,0:30.426.954,79.000 us,2 B,,SP,55,Write Transaction,00 00
0,4038,0:30.432.304,87.000 us,2 B,,SP,55,Read Transaction,00 08*
0,4039,0:30.437.669,79.100 us,2 B,,SP,55,Write Transaction,12 01
0,4040,0:30.443.018,1.194.800 ms,46 B,,SP,55,Read Transaction,00 24 FF A9 00 7B FC 30 02 BB 88 02 BA F7 16 59 76 16 58 5D 26 F7 6D 26 F6 43 00 02 62 64 00 00 00 00 00 00 00 00 00 00 00 00 00 00 01 03*
0,4041,0:30.445.743,79.100 us,2 B,,SP,55,Write Transaction,00 00
0,4042,0:30.451.092,86.600 us,2 B,,SP,55,Read Transaction,00 00*
0,4043,0:30.459.837,79.100 us,2 B,,SP,55,Write Transaction,00 00
0,4044,0:30.465.189,91.100 us,2 B,,SP,55,Read Transaction,00 00*
0,4045,0:30.474.724,79.000 us,2 B,,SP,55,Write Transaction,00 00
0,4046,0:30.480.079,86.700 us,2 B,,SP,55,Read Transaction,00 08*
0,4047,0:30.485.443,79.000 us,2 B,,SP,55,Write Transaction,12 01
0,4048,0:30.490.801,1.184.000 ms,46 B,,SP,55,Read Transaction,00 25 FF A8 00 7C FC 32 02 BF F0 02 BF 68 16 5B F2 16 5A D5 26 F8 C7 26 F7 9A 00 02 62 64 00 00 00 00 00 00 00 00 00 00 00 00 00 00 01 03*
0,4049,0:30.492.397,79.200 us,2 B,,SP,55,Write Transaction,00 00
0,4050,0:30.497.747,86.600 us,2 B,,SP,55,Read Transaction,00 00*
0,4051,0:30.506.944,79.100 us,2 B,,SP,55,Write Transaction,00 00
0,4052,0:30.512.294,87.000 us,2 B,,SP,55,Read Transaction,00 08*
0,4053,0:30.517.663,79.000 us,2 B,,SP,55,Write Transaction,12 01
0,4054,0:30.523.011,1.182.600 ms,46 B,,SP,55,Read Transaction,00 26 FF A6 00 7B FC 34 02 C0 AC 02 C0 15 16 5A AE 16 59 8E 26 F7 A0 26 F6 70 00 02 62 64 00 00 00 00 00 00 00 00 00 00 00 00 00 00 01 03*
0,4055,0:30.525.700,79.100 us,2 B,,SP,55,Write Transaction,00 00
0,4056,0:30.531.049,86.500 us,2 B,,SP,55,Read Transaction,00 00*
0,4057,0:30.539.917,79.200 us,2 B,,SP,55,Write Transaction,00 00
0,4058,0:30.545.272,91.100 us,2 B,,SP,55,Read Transaction,00 00*
0,4059,0:30.554.815,79.000 us,2 B,,SP,55,Write Transaction,00 00
0,4060,0:30.560.170,86.700 us,2 B,,SP,55,Read Transaction,00 08*
0,4061,0:30.565.540,79.100 us,2 B,,SP,55,Write Transaction,12 01
0,4062,0:30.570.897,1.184.100 ms,46 B,,SP,55,Read Transaction,00 27 FF AA 00 7A FC 2E 02 B6 F8 02 B6 6A 16 55 2B 16 54 12 26 F4 8C 26 F3 59 00 02 62 64 00 00 00 00 00 00 00 00 00 00 00 00 00 00 01 03*
0,4063,0:30.572.493,79.200 us,2 B,,SP,55,Write Transaction,00 00
0,4064,0:30.577.850,86.600 us,2 B,,SP,55,Read Transaction,00 00*
0,4065,0:30.586.781,79.100 us,2 B,,SP,55,Write Transaction,00 00
0,4066,0:30.592.129,87.000 us,2 B,,SP,55,Read Transaction,00 08*
0,4067,0:30.597.495,79.000 us,2 B,,SP,55,Write Transaction,12 01
0,4068,0:30.602.846,1.182.500 ms,46 B,,SP,55,Read Transaction,00 28 FF A7 00 80 FC 30 02 AA 64 02 A9 DD 16 50 D7 16 4F C0 26 F2 7F 26 F1 52 00 02 62 64 00 00 00 00 00 00 00 00 00 00 00 00 00 00 01 03*
0,4069,0:30.606.714,79.100 us,2 B,,SP,55,Write Transaction,00 00
0,4070,0:30.612.084,86.600 us,2 B,,SP,55,Read Transaction,00 00*
0,4071,0:30.619.768,79.000 us,2 B,,SP,55,Write Transaction,00 00
0,4072,0:30.625.118,91.200 us,2 B,,SP,55,Read Transaction,00 00*
0,4073,0:30.634.888,79.100 us,2 B,,SP,55,Write Transaction,00 00
0,4074,0:30.640.239,86.600 us,2 B,,SP,55,Read Transaction,00 08*
0,4075,0:30.645.603,79.000 us,2 B,,SP,55,Write Transaction,12 01
0,4076,0:30.650.954,1.182.500 ms,46 B,,SP,55,Read Transaction,00 29 FF A9 00 80 FC 31 02 A2 10 02 A1 83 16 4E F6 16 4D E1 26 F1 D8 26 F0 A9 00 02 62 64 00 00 00 00 00 00 00 00 00 00 00 00 00 00 01 03*
0,4077,0:30.653.773,79.100 us,2 B,,SP,55,Write Transaction,00 00
0,4078,0:30.659.123,86.600 us,2 B,,SP,55,Read Transaction,00 00*
0,4079,0:30.666.856,79.000 us,2 B,,SP,55,Write Transaction,00 00
0,4080,0:30.672.245,87.100 us,2 B,,SP,55,Read Transaction,00 08*
0,4081,0:30.677.611,79.200 us,2 B,,SP,55,Write Transaction,12 01
0,4082,0:30.682.969,1.184.200 ms,46 B,,SP,55,Read Transaction,00 2A FF A7 00 7D FC 2B 02 9E E2 02 9E 55 16 4E AA 16 4D 97 26 F1 EE 26 F0 BB 00 02 62 64 00 00 00 00 00 00 00 00 00 00 00 00 00 00 01 03*
0,4083,0:30.685.618,79.200 us,2 B,,SP,55,Write Transaction,00 00
0,4084,0:30.690.976,86.600 us,2 B,,SP,55,Read Transaction,00 00*
0,4085,0:30.701.059,79.100 us,2 B,,SP,55,Write Transaction,00 00
0,4086,0:30.706.408,90.900 us,2 B,,SP,55,Read Transaction,00 00*
0,4087,0:30.715.940,79.000 us,2 B,,SP,55,Write Transaction,00 00
0,4088,0:30.721.289,86.600 us,2 B,,SP,55,Read Transaction,00 08*
0,4089,0:30.726.655,79.100 us,2 B,,SP,55,Write Transaction,12 01
0,4090,0:30.732.004,1.182.700 ms,46 B,,SP,55,Read Transaction,00 2B FF A6 00 84 FC 37 02 9C BF 02 9C 35 16 4E 37 16 4D 1F 26 F1 CA 26 F0 9F 00 02 62 64 00 00 00 00 00 00 00 00 00 00 00 00 00 00 01 03*
0,4091,0:30.733.642,79.100 us,2 B,,SP,55,Write Transaction,00 00
0,4092,0:30.738.991,86.600 us,2 B,,SP,55,Read Transaction,00 00*
0,4093,0:30.747.916,79.000 us,2 B,,SP,55,Write Transaction,00 00
0,4094,0:30.753.266,87.100 us,2 B,,SP,55,Read Transaction,00 08*
0,4095,0:30.758.630,79.000 us,2 B,,SP,55,Write Transaction,12 01
0,4096,0:30.763.980,1.182.500 ms,46 B,,SP,55,Read Transaction,00 2C FF A7 00 7F FC 32 02 9C 5D 02 9B D1 16 4E A7 16 4D 8E 26 F2 4E 26 F1 1D 00 02 62 64 00 00 00 00 00 00 00 00 00 00 00 00 00 00 01 03*
0,4097,0:30.767.867,79.100 us,2 B,,SP,55,Write Transaction,00 00
0,4098,0:30.773.217,86.600 us,2 B,,SP,55,Read Transaction,00 00*
0,4099,0:30.780.875,79.000 us,2 B,,SP,55,Write Transaction,00 00
0,4100,0:30.786.224,91.000 us,2 B,,SP,55,Read Transaction,00 00*
0,4101,0:30.795.756,79.100 us,2 B,,SP,55,Write Transaction,00 00
0,4102,0:30.801.104,86.600 us,2 B,,SP,55,Read Transaction,00 08*
0,4103,0:30.806.470,79.000 us,2 B,,SP,55,Write Transaction,12 01
0,4104,0:30.811.817,1.182.500 ms,46 B,,SP,55,Read Transaction,00 2D FF A6 00 7C FC 30 02 9F 80 02 9E EF 16 50 5D 16 4F 47 26 F3 43 26 F2 10 00 02 62 64 00 00 00 00 00 00 00 00 00 00 00 00 00 00 01 03*
0,4105,0:30.814.692,79.100 us,2 B,,SP,55,Write Transaction,00 00
0,4106,0:30.820.040,86.700 us,2 B,,SP,55,Read Transaction,00 00*
0,4107,0:30.827.754,79.100 us,2 B,,SP,55,Write Transaction,00 00
0,4108,0:30.833.106,87.000 us,2 B,,SP,55,Read Transaction,00 08*
0,4109,0:30.838.520,79.200 us,2 B,,SP,55,Write Transaction,12 01
0,4110,0:30.843.869,1.182.300 ms,46 B,,SP,55,Read Transaction,00 2E FF A5 00 7A FC 36 02 A1 F5 02 A1 6F 16 51 8B 16 50 72 26 F3 E6 26 F2 B6 00 02 62 64 00 00 00 00 00 00 00 00 00 00 00 00 00 00 01 03*
0,4111,0:30.845.448,79.000 us,2 B,,SP,55,Write Transaction,00 00
0,4112,0:30.850.799,86.600 us,2 B,,SP,55,Read Transaction,00 00*
0,4113,0:30.859.733,79.000 us,2 B,,SP,55,Write Transaction,00 00
0,4114,0:30.865.082,91.100 us,2 B,,SP,55,Read Transaction,00 00*
0,4115,0:30.874.866,79.000 us,2 B,,SP,55,Write Transaction,00 00
0,4116,0:30.880.220,87.100 us,2 B,,SP,55,Read Transaction,00 08*
0,4117,0:30.885.588,79.000 us,2 B,,SP,55,Write Transaction,12 01
0,4118,0:30.890.947,1.182.700 ms,46 B,,SP,55,Read Transaction,00 2F FF A7 00 7F FC 35 02 A3 9F 02 A3 0F 16 52 38 16 51 1B 26 F4 61 26 F3 2F 00 02 62 64 26 22 64 00 00 00 00 00 00 00 00 00 00 00 01 03*
0,4119,0:30.893.591,79.000 us,2 B,,SP,55,Write Transaction,00 00
0,4120,0:30.898.941,86.600 us,2 B,,SP,55,Read Transaction,00 00*
0,4121,0:30.907.821,79.100 us,2 B,,SP,55,Write Transaction,00 00
0,4122,0:30.913.174,87.000 us,2 B,,SP,55,Read Transaction,00 08*
0,4123,0:30.918.543,79.100 us,2 B,,SP,55,Write Transaction,12 01
0,4124,0:30.923.892,1.182.300 ms,46 B,,SP,55,Read Transaction,00 30 FF A9 00 84 FC 30 02 A5 50 02 A4 CA 16 53 0E 16 51 F9 26 F5 04 26 F3 D8 00 02 62 64 00 00 00 00 00 00 00 00 00 00 00 00 00 00 01 03*
0,4125,0:30.925.475,79.100 us,2 B,,SP,55,Write Transaction,00 00
0,4126,0:30.930.827,86.600 us,2 B,,SP,55,Read Transaction,00 00*
0,4127,0:30.939.793,79.000 us,2 B,,SP,55,Write Transaction,00 00
0,4128,0:30.945.150,91.200 us,2 B,,SP,55,Read Transaction,00 00*
0,4129,0:30.954.927,79.100 us,2 B,,SP,55,Write Transaction,00 00
0,4130,0:30.960.276,86.600 us,2 B,,SP,55,Read Transaction,00 08*
0,4131,0:30.965.642,79.000 us,2 B,,SP,55,Write Transaction,12 01
0,4132,0:30.970.993,1.182.400 ms,46 B,,SP,55,Read Transaction,00 31 FF A9 00 7E FC 33 02 A8 B6 02 A8 2A 16 54 E1 16 53 CB 26 F6 1A 26 F4 EF 00 02 62 64 00 00 00 00 00 00 00 00 00 00 00 00 00 00 01 03*
0,4133,0:30.973.637,79.100 us,2 B,,SP,55,Write Transaction,00 00
0,4134,0:30.978.988,91.800 us,2 B,,SP,55,Read Transaction,00 00*
0,4135,0:30.987.903,79.100 us,2 B,,SP,55,Write Transaction,00 00
0,4136,0:30.993.254,87.200 us,2 B,,SP,55,Read Transaction,00 08*
0,4137,0:30.998.622,79.000 us,2 B,,SP,55,Write Transaction,12 01
0,4138,0:31.003.973,1.182.400 ms,46 B,,SP,55,Read Transaction,00 32 FF AE 00 81 FC 30 02 AD 2C 02 AC A3 16 57 0F 16 55 F3 26 F7 6A 26 F6 40 00 02 62 64 00 00 00 00 00 00 00 00 00 00 00 00 00 00 01 03*
0,4139,0:31.006.845,79.100 us,2 B,,SP,55,Write Transaction,00 00
0,4140,0:31.012.195,86.700 us,2 B,,SP,55,Read Transaction,00 00*
0,4141,0:31.019.875,79.100 us,2 B,,SP,55,Write Transaction,00 00
0,4142,0:31.025.227,91.100 us,2 B,,SP,55,Read Transaction,00 00*
0,4143,0:31.034.763,79.100 us,2 B,,SP,55,Write Transaction,00 00
0,4144,0:31.040.120,86.600 us,2 B,,SP,55,Read Transaction,00 08*
0,4145,0:31.045.484,79.100 us,2 B,,SP,55,Write Transaction,12 01
0,4146,0:31.050.834,1.182.700 ms,46 B,,SP,55,Read Transaction,00 33 FF AB 00 7D FC 33 02 B0 EF 02 B0 64 16 58 1F 16 57 04 26 F8 10 26 F6 E4 00 02 62 64 00 00 00 00 00 00 00 00 00 00 00 00 00 00 01 03*
0,4147,0:31.054.702,79.000 us,2 B,,SP,55,Write Transaction,00 00
0,4148,0:31.060.059,87.400 us,2 B,,SP,55,Read Transaction,00 00*
0,4149,0:31.067.716,79.100 us,2 B,,SP,55,Write Transaction,00 00
0,4150,0:31.073.067,87.100 us,2 B,,SP,55,Read Transaction,00 08*
0,4151,0:31.078.433,79.100 us,2 B,,SP,55,Write Transaction,12 01
0,4152,0:31.083.785,1.182.500 ms,46 B,,SP,55,Read Transaction,00 34 FF A8 00 7B FC 2F 02 B4 D9 02 B4 50 16 5A 0F 16 58 F9 26 F9 5E 26 F8 33 00 02 62 64 00 00 00 00 00 00 00 00 00 00 00 00 00 00 01 03*
0,4153,0:31.085.379,79.100 us,2 B,,SP,55,Write Transaction,00 00
0,4154,0:31.090.727,86.600 us,2 B,,SP,55,Read Transaction,00 00*
0,4155,0:31.100.648,79.000 us,2 B,,SP,55,Write Transaction,00 00
0,4156,0:31.105.999,90.500 us,2 B,,SP,55,Read Transaction,00 00*
0,4157,0:31.114.837,79.000 us,2 B,,SP,55,Write Transaction,00 00
0,4158,0:31.120.189,86.600 us,2 B,,SP,55,Read Transaction,00 08*
0,4159,0:31.125.553,79.000 us,2 B,,SP,55,Write Transaction,12 01
0,4160,0:31.130.904,1.182.800 ms,46 B,,SP,55,Read Transaction,00 35 FF AE 00 7C FC 30 02 B9 93 02 B9 03 16 5C 31 16 5B 14 26 FA 8A 26 F9 5C 00 02 62 64 00 00 00 00 00 00 00 00 00 00 00 00 00 00 01 03*
0,4161,0:31.133.538,79.000 us,2 B,,SP,55,Write Transaction,00 00
0,4162,0:31.138.894,86.600 us,2 B,,SP,55,Read Transaction,00 00*
0,4163,0:31.147.792,79.200 us,2 B,,SP,55,Write Transaction,00 00
0,4164,0:31.153.149,87.200 us,2 B,,SP,55,Read Transaction,00 08*
0,4165,0:31.158.517,79.100 us,2 B,,SP,55,Write Transaction,12 01
0,4166,0:31.163.868,1.182.700 ms,46 B,,SP,55,Read Transaction,00 36 FF A8 00 83 FC 30 02 BC B8 02 BC 2D 16 5D 35 16 5C 15 26 FB 35 26 FA 03 00 02 62 64 00 00 00 00 00 00 00 00 00 00 00 00 00 00 01 03*
0,4167,0:31.166.697,79.100 us,2 B,,SP,55,Write Transaction,00 00
0,4168,0:31.172.050,86.700 us,2 B,,SP,55,Read Transaction,00 00*
0,4169,0:31.179.851,79.100 us,2 B,,SP,55,Write Transaction,00 00
0,4170,0:31.185.200,91.100 us,2 B,,SP,55,Read Transaction,00 00*
0,4171,0:31.194.918,79.100 us,2 B,,SP,55,Write Transaction,00 00
0,4172,0:31.200.270,86.600 us,2 B,,SP,55,Read Transaction,00 08*
0,4173,0:31.205.635,79.000 us,2 B,,SP,55,Write Transaction,12 01
0,4174,0:31.210.997,1.184.500 ms,46 B,,SP,55,Read Transaction,00 37 FF A4 00 81 FC 30 02 BF F1 02 BF 5D 16 5E 12 16 5C F7 26 FB DB 26 FA AF 00 02 62 64 00 00 00 00 00 00 00 00 00 00 00 00 00 00 01 03*
0,4175,0:31.214.872,79.200 us,2 B,,SP,55,Write Transaction,00 00
0,4176,0:31.220.226,87.500 us,2 B,,SP,55,Read Transaction,00 00*
0,4177,0:31.227.871,79.100 us,2 B,,SP,55,Write Transaction,00 00
0,4178,0:31.233.224,87.000 us,2 B,,SP,55,Read Transaction,00 08*
0,4179,0:31.238.589,79.100 us,2 B,,SP,55,Write Transaction,12 01
0,4180,0:31.243.944,1.182.700 ms,46 B,,SP,55,Read Transaction,00 38 FF A5 00 81 FC 31 02 C2 A4 02 C2 15 16 5F 06 16 5D F2 26 FC 6B 26 FB 3C 00 02 62 64 00 00 00 00 00 00 00 00 00 00 00 00 00 00 01 03*
0,4181,0:31.245.529,79.000 us,2 B,,SP,55,Write Transaction,00 00
0,4182,0:31.250.880,86.600 us,2 B,,SP,55,Read Transaction,00 00*
0,4183,0:31.259.862,79.200 us,2 B,,SP,55,Write Transaction,00 00
0,4184,0:31.265.216,91.100 us,2 B,,SP,55,Read Transaction,00 00*
0,4185,0:31.274.754,79.100 us,2 B,,SP,55,Write Transaction,00 00
0,4186,0:31.280.105,86.600 us,2 B,,SP,55,Read Transaction,00 08*
0,4187,0:31.285.470,79.000 us,2 B,,SP,55,Write Transaction,12 01
0,4188,0:31.290.819,1.182.600 ms,46 B,,SP,55,Read Transaction,00 39 FF A5 00 7D FC 2E 02 C5 EA 02 C5 5E 16 60 43 16 5F 28 26 FD 4E 26 FC 1C 00 02 62 64 00 00 00 00 00 00 00 00 00 00 00 00 00 00 01 03*
0,4189,0:31.293.502,79.100 us,2 B,,SP,55,Write Transaction,00 00
0,4190,0:31.298.853,86.700 us,2 B,,SP,55,Read Transaction,00 00*
0,4191,0:31.307.715,79.100 us,2 B,,SP,55,Write Transaction,00 00
0,4192,0:31.313.068,87.000 us,2 B,,SP,55,Read Transaction,00 08*
0,4193,0:31.318.434,79.100 us,2 B,,SP,55,Write Transaction,12 01
0,4194,0:31.323.786,1.182.400 ms,46 B,,SP,55,Read Transaction,00 3A FF AA 00 7E FC 2F 02 C9 1E 02 C8 8A 16 62 25 16 61 08 26 FE 5F 26 FD 33 00 02 62 64 00 00 00 00 00 00 00 00 00 00 00 00 00 00 01 03*
0,4195,0:31.325.369,79.000 us,2 B,,SP,55,Write Transaction,00 00
0,4196,0:31.330.719,86.600 us,2 B,,SP,55,Read Transaction,00 00*
0,4197,0:31.339.694,79.100 us,2 B,,SP,55,Write Transaction,00 00
0,4198,0:31.345.043,91.100 us,2 B,,SP,55,Read Transaction,00 00*
0,4199,0:31.354.869,79.100 us,2 B,,SP,55,Write Transaction,00 00
0,4200,0:31.360.218,86.700 us,2 B,,SP,55,Read Transaction,00 08*
0,4201,0:31.365.584,79.100 us,2 B,,SP,55,Write Transaction,12 01
0,4202,0:31.370.933,1.182.700 ms,46 B,,SP,55,Read Transaction,00 3B FF AA 00 7D FC 30 02 CD 02 02 CC 6A 16 63 AE 16 62 94 26 FF 5C 26 FE 36 00 02 62 64 00 00 00 00 00 00 00 00 00 00 00 00 00 00 01 03*
0,4203,0:31.373.632,79.100 us,2 B,,SP,55,Write Transaction,00 00
0,4204,0:31.378.983,86.600 us,2 B,,SP,55,Read Transaction,00 00*
0,4205,0:31.387.773,79.100 us,2 B,,SP,55,Write Transaction,00 00
0,4206,0:31.393.125,87.100 us,2 B,,SP,55,Read Transaction,00 08*
0,4207,0:31.398.490,79.100 us,2 B,,SP,55,Write Transaction,12 01
0,4208,0:31.403.840,1.182.600 ms,46 B,,SP,55,Read Transaction,00 3C FF A8 00 7D FC 30 02 D0 1F 02 CF 8F 16 64 FF 16 63 E7 27 00 2D 26 FE FC 00 02 62 64 00 00 00 00 00 00 00 00 00 00 00 00 00 00 01 03*
0,4209,0:31.406.659,79.100 us,2 B,,SP,55,Write Transaction,00 00
0,4210,0:31.412.010,86.600 us,2 B,,SP,55,Read Transaction,00 00*
0,4211,0:31.419.761,79.000 us,2 B,,SP,55,Write Transaction,00 00
0,4212,0:31.425.113,91.100 us,2 B,,SP,55,Read Transaction,00 00*
0,4213,0:31.434.902,79.100 us,2 B,,SP,55,Write Transaction,00 00
0,4214,0:31.440.251,86.600 us,2 B,,SP,55,Read Transaction,00 08*
0,4215,0:31.445.616,79.100 us,2 B,,SP,55,Write Transaction,12 01
0,4216,0:31.450.965,1.182.600 ms,46 B,,SP,55,Read Transaction,00 3D FF AA 00 7F FC 27 02 D4 75 02 D3 E4 16 67 7D 16 66 65 27 01 C6 27 00 9C 00 02 62 64 00 00 00 00 00 00 00 00 00 00 00 00 00 00 01 03*
0,4217,0:31.454.834,79.100 us,2 B,,SP,55,Write Transaction,00 00
0,4218,0:31.460.184,89.300 us,2 B,,SP,55,Read Transaction,00 00*
0,4219,0:31.467.850,79.100 us,2 B,,SP,55,Write Transaction,00 00
0,4220,0:31.473.203,87.100 us,2 B,,SP,55,Read Transaction,00 08*
0,4221,0:31.478.571,79.100 us,2 B,,SP,55,Write Transaction,12 01
0,4222,0:31.483.920,1.182.700 ms,46 B,,SP,55,Read Transaction,00 3E FF A9 00 7E FC 2E 02 D6 5F 02 D5 C7 16 67 07 16 65 ED 27 01 0A 26 FF DF 00 02 62 64 00 00 00 00 00 00 00 00 00 00 00 00 00 00 01 03*
0,4223,0:31.485.515,79.100 us,2 B,,SP,55,Write Transaction,00 00
0,4224,0:31.490.875,86.600 us,2 B,,SP,55,Read Transaction,00 00*
0,4225,0:31.500.234,79.000 us,2 B,,SP,55,Write Transaction,00 00
0,4226,0:31.505.587,90.500 us,2 B,,SP,55,Read Transaction,00 00*
0,4227,0:31.514.735,79.100 us,2 B,,SP,55,Write Transaction,00 00
0,4228,0:31.520.084,86.600 us,2 B,,SP,55,Read Transaction,00 08*
0,4229,0:31.525.449,79.100 us,2 B,,SP,55,Write Transaction,12 01
0,4230,0:31.530.801,1.182.600 ms,46 B,,SP,55,Read Transaction,00 3F FF A8 00 7E FC 2E 02 CB D6 02 CB 44 16 60 37 16 5F 1F 26 FD 2C 26 FB FA 00 02 62 64 00 00 00 00 00 00 00 00 00 00 00 00 00 00 01 03*
0,4231,0:31.533.435,79.100 us,2 B,,SP,55,Write Transaction,00 00
0,4232,0:31.538.786,86.600 us,2 B,,SP,55,Read Transaction,00 00*
0,4233,0:31.547.683,79.100 us,2 B,,SP,55,Write Transaction,00 00
0,4234,0:31.553.033,87.100 us,2 B,,SP,55,Read Transaction,00 08*
0,4235,0:31.558.400,79.000 us,2 B,,SP,55,Write Transaction,12 01
0,4236,0:31.563.749,1.182.700 ms,46 B,,SP,55,Read Transaction,00 40 FF A8 00 7E FC 2C 02 BE 5E 02 BD D6 16 5B 3F 16 5A 2B 26 FA 99 26 F9 70 00 02 62 64 00 00 00 00 00 00 00 00 00 00 00 00 00 00 01 03*
0,4237,0:31.566.632,79.000 us,2 B,,SP,55,Write Transaction,00 00
0,4238,0:31.571.982,86.700 us,2 B,,SP,55,Read Transaction,00 00*
0,4239,0:31.579.908,79.000 us,2 B,,SP,55,Write Transaction,00 00
0,4240,0:31.585.259,90.900 us,2 B,,SP,55,Read Transaction,00 00*
0,4241,0:31.594.816,79.000 us,2 B,,SP,55,Write Transaction,00 00
0,4242,0:31.600.167,86.600 us,2 B,,SP,55,Read Transaction,00 08*
0,4243,0:31.605.532,79.100 us,2 B,,SP,55,Write Transaction,12 01
0,4244,0:31.610.883,1.182.700 ms,46 B,,SP,55,Read Transaction,00 41 FF AA 00 7D FC 35 02 B2 E1 02 B2 51 16 57 67 16 56 4D 26 F8 BD 26 F7 90 00 02 62 64 00 00 00 00 00 00 00 00 00 00 00 00 00 00 01 03*
0,4245,0:31.614.752,79.100 us,2 B,,SP,55,Write Transaction,00 00
0,4246,0:31.620.104,104.300 us,2 B,,SP,55,Read Transaction,00 00*
0,4247,0:31.627.765,79.200 us,2 B,,SP,55,Write Transaction,00 00
0,4248,0:31.633.121,87.200 us,2 B,,SP,55,Read Transaction,00 08*
0,4249,0:31.638.495,79.200 us,2 B,,SP,55,Write Transaction,12 01
0,4250,0:31.643.849,1.182.600 ms,46 B,,SP,55,Read Transaction,00 42 FF AA 00 7F FC 33 02 AB A1 02 AB 1C 16 55 9B 16 54 8A 26 F8 22 26 F6 FF 00 02 62 64 00 00 00 00 00 00 00 00 00 00 00 00 00 00 01 03*
0,4251,0:31.645.432,79.100 us,2 B,,SP,55,Write Transaction,00 00
0,4252,0:31.650.781,86.600 us,2 B,,SP,55,Read Transaction,00 00*
0,4253,0:31.659.737,79.100 us,2 B,,SP,55,Write Transaction,00 00
0,4254,0:31.665.094,91.100 us,2 B,,SP,55,Read Transaction,00 00*
0,4255,0:31.674.871,79.100 us,2 B,,SP,55,Write Transaction,00 00
0,4256,0:31.680.222,86.700 us,2 B,,SP,55,Read Transaction,00 08*
0,4257,0:31.685.587,79.100 us,2 B,,SP,55,Write Transaction,12 01
0,4258,0:31.690.937,1.182.500 ms,46 B,,SP,55,Read Transaction,00 43 FF A5 00 7A FC 32 02 A7 07 02 A6 7E 16 54 83 16 53 6D 26 F7 A7 26 F6 79 00 02 62 64 00 00 00 00 00 00 00 00 00 00 00 00 00 00 01 03*
0,4259,0:31.693.583,79.100 us,2 B,,SP,55,Write Transaction,00 00
0,4260,0:31.698.938,86.900 us,2 B,,SP,55,Read Transaction,00 00*
0,4261,0:31.707.843,79.100 us,2 B,,SP,55,Write Transaction,00 00
0,4262,0:31.713.194,87.000 us,2 B,,SP,55,Read Transaction,00 08*
0,4263,0:31.718.570,79.000 us,2 B,,SP,55,Write Transaction,12 01
0,4264,0:31.723.922,1.182.700 ms,46 B,,SP,55,Read Transaction,00 44 FF A9 00 83 FC 3C 02 A3 18 02 A2 95 16 53 65 16 52 4D 26 F7 32 26 F6 09 00 02 62 64 00 00 00 00 00 00 00 00 00 00 00 00 00 00 01 03*
0,4265,0:31.725.507,79.000 us,2 B,,SP,55,Write Transaction,00 00
0,4266,0:31.730.875,86.600 us,2 B,,SP,55,Read Transaction,00 00*
0,4267,0:31.739.834,79.100 us,2 B,,SP,55,Write Transaction,00 00
0,4268,0:31.745.185,90.500 us,2 B,,SP,55,Read Transaction,00 00*
0,4269,0:31.754.701,79.100 us,2 B,,SP,55,Write Transaction,00 00
0,4270,0:31.760.058,86.700 us,2 B,,SP,55,Read Transaction,00 08*
0,4271,0:31.765.433,79.200 us,2 B,,SP,55,Write Transaction,12 01
0,4272,0:31.770.791,1.182.400 ms,46 B,,SP,55,Read Transaction,00 45 FF A4 00 80 FC 31 02 A3 74 02 A2 EE 16 54 98 16 53 7E 26 F8 23 26 F6 F3 00 02 62 64 00 00 00 00 00 00 00 00 00 00 00 00 00 00 01 03*
0,4273,0:31.773.444,79.100 us,2 B,,SP,55,Write Transaction,00 00
0,4274,0:31.778.796,86.900 us,2 B,,SP,55,Read Transaction,00 00*
0,4275,0:31.787.676,79.100 us,2 B,,SP,55,Write Transaction,00 00
0,4276,0:31.793.027,87.100 us,2 B,,SP,55,Read Transaction,00 08*
0,4277,0:31.798.393,79.100 us,2 B,,SP,55,Write Transaction,12 01
0,4278,0:31.803.743,1.182.700 ms,46 B,,SP,55,Read Transaction,00 46 FF A4 00 80 FC 35 02 A6 49 02 A5 B5 16 56 0C 16 54 EE 26 F8 EF 26 F7 BF 00 02 62 64 00 00 00 00 00 00 00 00 00 00 00 00 00 00 01 03*
0,4279,0:31.806.562,79.100 us,2 B,,SP,55,Write Transaction,00 00
0,4280,0:31.811.913,86.700 us,2 B,,SP,55,Read Transaction,00 00*
0,4281,0:31.819.905,79.100 us,2 B,,SP,55,Write Transaction,00 00
0,4282,0:31.825.253,90.400 us,2 B,,SP,55,Read Transaction,00 00*
0,4283,0:31.834.781,79.100 us,2 B,,SP,55,Write Transaction,00 00
0,4284,0:31.840.132,86.700 us,2 B,,SP,55,Read Transaction,00 08*
0,4285,0:31.845.498,79.000 us,2 B,,SP,55,Write Transaction,12 01
0,4286,0:31.850.847,1.182.800 ms,46 B,,SP,55,Read Transaction,00 47 FF A9 00 7A FC 35 02 A8 B3 02 A8 2B 16 57 55 16 56 35 26 F9 A4 26 F8 75 00 02 62 64 00 00 00 00 00 00 00 00 00 00 00 00 00 00 01 03*
0,4287,0:31.854.745,79.100 us,2 B,,SP,55,Write Transaction,00 00
0,4288,0:31.860.097,91.200 us,2 B,,SP,55,Read Transaction,00 00*
0,4289,0:31.867.745,79.200 us,2 B,,SP,55,Write Transaction,00 00
0,4290,0:31.873.104,87.200 us,2 B,,SP,55,Read Transaction,00 08*
0,4291,0:31.878.470,79.000 us,2 B,,SP,55,Write Transaction,12 01
0,4292,0:31.883.822,1.182.700 ms,46 B,,SP,55,Read Transaction,00 48 FF A5 00 7F FC 2E 02 AB 03 02 AA 79 16 58 8A 16 57 6D 26 FA 67 26 F9 36 00 02 62 64 27 52 64 00 02 3E 63 03 CC 64 00 00 00 00 01 03*
0,4293,0:31.885.419,79.100 us,2 B,,SP,55,Write Transaction,00 00
0,4294,0:31.890.769,86.600 us,2 B,,SP,55,Read Transaction,00 00*
0,4295,0:31.899.861,79.000 us,2 B,,SP,55,Write Transaction,00 00
0,4296,0:31.905.209,91.300 us,2 B,,SP,55,Read Transaction,00 00*
0,4297,0:31.914.938,79.100 us,2 B,,SP,55,Write Transaction,00 00
0,4298,0:31.920.288,86.600 us,2 B,,SP,55,Read Transaction,00 08*
0,4299,0:31.925.654,79.100 us,2 B,,SP,55,Write Transaction,12 01
0,4300,0:31.931.005,1.184.400 ms,46 B,,SP,55,Read Transaction,00 49 FF A6 00 79 FC 34 02 AE 1D 02 AD 8E 16 59 E8 16 58 CF 26 FB 57 26 FA 24 00 02 62 64 00 00 00 00 02 3E 63 03 CC 00 00 00 00 00 01 03*
0,4301,0:31.933.697,79.200 us,2 B,,SP,55,Write Transaction,00 00
0,4302,0:31.939.050,87.300 us,2 B,,SP,55,Read Transaction,00 00*
0,4303,0:31.947.825,79.000 us,2 B,,SP,55,Write Transaction,00 00
0,4304,0:31.953.176,87.100 us,2 B,,SP,55,Read Transaction,00 08*
0,4305,0:31.958.542,79.100 us,2 B,,SP,55,Write Transaction,12 01
0,4306,0:31.963.894,1.184.300 ms,46 B,,SP,55,Read Transaction,00 4A FF A6 00 85 FC 2C 02 B1 D1 02 B1 41 16 5B CB 16 5A B4 26 FC 68 26 FB 3E 00 02 62 64 00 00 00 00 02 3E 63 03 CC 00 00 00 00 00 01 03*
0,4307,0:31.966.727,79.200 us,2 B,,SP,55,Write Transaction,00 00
0,4308,0:31.972.086,86.700 us,2 B,,SP,55,Read Transaction,00 00*
0,4309,0:31.979.803,79.100 us,2 B,,SP,55,Write Transaction,00 00
0,4310,0:31.985.155,89.900 us,2 B,,SP,55,Read Transaction,00 00*
0,4311,0:31.994.687,79.100 us,2 B,,SP,55,Write Transaction,00 00
0,4312,0:32.000.041,86.600 us,2 B,,SP,55,Read Transaction,00 08*
0,4313,0:32.005.406,79.100 us,2 B,,SP,55,Write Transaction,12 01
0,4314,0:32.010.753,1.182.600 ms,46 B,,SP,55,Read Transaction,00 4B FF AE 00 7E FC 2F 02 B6 83 02 B5 F9 16 5D FB 16 5C E1 26 FD C0 26 FC 90 00 02 62 64 00 00 00 00 02 3E 63 03 CC 00 00 00 00 00 01 03*
0,4315,0:32.014.676,79.100 us,2 B,,SP,55,Write Transaction,00 00
0,4316,0:32.020.025,91.100 us,2 B,,SP,55,Read Transaction,00 00*
0,4317,0:32.027.893,79.100 us,2 B,,SP,55,Write Transaction,00 00
0,4318,0:32.033.246,86.600 us,2 B,,SP,55,Read Transaction,00 08*
0,4319,0:32.038.612,79.000 us,2 B,,SP,55,Write Transaction,12 01
0,4320,0:32.043.962,1.182.500 ms,46 B,,SP,55,Read Transaction,00 4C FF A5 00 7E FC 32 02 BB 02 02 BA 7D 16 5F D3 16 5E B9 26 FE D6 26 FD A7 00 02 62 64 00 00 00 00 02 3E 63 03 CC 00 00 00 00 00 01 03*
0,4321,0:32.045.545,79.100 us,2 B,,SP,55,Write Transaction,00 00
0,4322,0:32.050.897,86.600 us,2 B,,SP,55,Read Transaction,00 00*
0,4323,0:32.059.887,79.100 us,2 B,,SP,55,Write Transaction,00 00
0,4324,0:32.065.245,89.300 us,2 B,,SP,55,Read Transaction,00 00*
0,4325,0:32.074.761,79.200 us,2 B,,SP,55,Write Transaction,00 00
0,4326,0:32.080.117,86.600 us,2 B,,SP,55,Read Transaction,00 08*
0,4327,0:32.085.483,79.100 us,2 B,,SP,55,Write Transaction,12 01
0,4328,0:32.090.837,1.184.300 ms,46 B,,SP,55,Read Transaction,00 4D FF AB 00 7C FC 2B 02 BF 4E 02 BE BF 16 61 A3 16 60 86 26 FF FD 26 FE D5 00 02 62 64 00 00 00 00 02 3E 63 03 CC 00 00 00 00 00 01 03*
0,4329,0:32.093.484,79.100 us,2 B,,SP,55,Write Transaction,00 00
0,4330,0:32.098.853,87.300 us,2 B,,SP,55,Read Transaction,00 00*
0,4331,0:32.107.731,79.100 us,2 B,,SP,55,Write Transaction,00 00
0,4332,0:32.113.082,87.100 us,2 B,,SP,55,Read Transaction,00 08*
0,4333,0:32.118.450,79.100 us,2 B,,SP,55,Write Transaction,12 01
0,4334,0:32.123.799,1.182.500 ms,46 B,,SP,55,Read Transaction,00 4E FF A7 00 7F FC 2E 02 C3 3E 02 C2 AB 16 63 4D 16 62 32 27 01 1A 26 FF EB 00 02 62 64 00 00 00 00 02 3E 63 03 CC 00 00 00 00 00 01 03*
0,4335,0:32.125.436,79.000 us,2 B,,SP,55,Write Transaction,00 00
0,4336,0:32.130.787,86.700 us,2 B,,SP,55,Read Transaction,00 00*
0,4337,0:32.139.715,79.100 us,2 B,,SP,55,Write Transaction,00 00
0,4338,0:32.145.066,89.000 us,2 B,,SP,55,Read Transaction,00 00*
0,4339,0:32.154.842,79.000 us,2 B,,SP,55,Write Transaction,00 00
0,4340,0:32.160.195,86.700 us,2 B,,SP,55,Read Transaction,00 08*
0,4341,0:32.165.564,79.200 us,2 B,,SP,55,Write Transaction,12 01
0,4342,0:32.170.916,1.182.800 ms,46 B,,SP,55,Read Transaction,00 4F FF AA 00 7B FC 2F 02 C7 54 02 C6 C1 16 65 66 16 64 4A 27 02 69 27 01 40 00 02 62 64 00 00 00 00 02 3E 63 03 CC 00 00 00 00 00 01 03*
0,4343,0:32.173.561,79.000 us,2 B,,SP,55,Write Transaction,00 00
0,4344,0:32.178.916,87.300 us,2 B,,SP,55,Read Transaction,00 00*
0,4345,0:32.187.795,79.100 us,2 B,,SP,55,Write Transaction,00 00
0,4346,0:32.193.145,87.100 us,2 B,,SP,55,Read Transaction,00 08*
0,4347,0:32.198.510,79.100 us,2 B,,SP,55,Write Transaction,12 01
0,4348,0:32.203.861,1.182.600 ms,46 B,,SP,55,Read Transaction,00 50 FF AA 00 7E FC 2D 02 CB 62 02 CA CE 16 66 D1 16 65 B7 27 03 64 27 02 39 00 02 62 64 00 00 00 00 02 3E 63 03 CC 00 00 00 00 00 01 03*
0,4349,0:32.206.679,79.100 us,2 B,,SP,55,Write Transaction,00 00
0,4350,0:32.212.029,90.300 us,2 B,,SP,55,Read Transaction,00 00*
0,4351,0:32.219.775,79.100 us,2 B,,SP,55,Write Transaction,00 00
0,4352,0:32.225.130,87.200 us,2 B,,SP,55,Read Transaction,00 00*
0,4353,0:32.234.682,79.100 us,2 B,,SP,55,Write Transaction,00 00
0,4354,0:32.240.035,86.600 us,2 B,,SP,55,Read Transaction,00 08*
0,4355,0:32.245.401,79.000 us,2 B,,SP,55,Write Transaction,12 01
0,4356,0:32.250.754,1.182.800 ms,46 B,,SP,55,Read Transaction,00 51 FF A8 00 7B FC 34 02 CE 52 02 CD BD 16 67 9C 16 66 7E 27 03 E0 27 02 AE 00 02 62 64 00 00 00 00 02 3E 63 03 CC 00 00 00 00 00 01 03*
0,4357,0:32.253.570,79.100 us,2 B,,SP,55,Write Transaction,00 00
0,4358,0:32.258.924,87.400 us,2 B,,SP,55,Read Transaction,00 00*
0,4359,0:32.266.664,79.000 us,2 B,,SP,55,Write Transaction,00 00
0,4360,0:32.272.013,87.000 us,2 B,,SP,55,Read Transaction,00 08*
0,4361,0:32.277.380,79.100 us,2 B,,SP,55,Write Transaction,12 01
0,4362,0:32.282.731,1.184.400 ms,46 B,,SP,55,Read Transaction,00 52 FF AF 00 81 FC 34 02 D0 F7 02 D0 65 16 68 66 16 67 4D 27 04 72 27 03 43 00 02 62 64 00 00 00 00 02 3E 63 03 CC 00 00 00 00 00 01 03*
0,4363,0:32.285.387,79.200 us,2 B,,SP,55,Write Transaction,00 00
0,4364,0:32.290.742,86.500 us,2 B,,SP,55,Read Transaction,00 00*
0,4365,0:32.299.855,79.100 us,2 B,,SP,55,Write Transaction,00 00
0,4366,0:32.305.205,87.100 us,2 B,,SP,55,Read Transaction,00 08*
0,4367,0:32.310.573,79.000 us,2 B,,SP,55,Write Transaction,12 01
0,4368,0:32.315.923,1.182.700 ms,46 B,,SP,55,Read Transaction,00 53 FF AC 00 7D FC 2B 02 D4 0A 02 D3 7B 16 69 B3 16 68 94 27 05 36 27 03 FF 00 02 62 64 00 00 00 00 02 3E 63 03 CC 00 00 00 00 00 01 03*
0,4369,0:32.317.569,79.100 us,2 B,,SP,55,Write Transaction,00 00
0,4370,0:32.322.918,86.700 us,2 B,,SP,55,Read Transaction,00 00*
0,4371,0:32.331.830,79.000 us,2 B,,SP,55,Write Transaction,00 00
0,4372,0:32.337.182,86.600 us,2 B,,SP,55,Read Transaction,00 00*
0,4373,0:32.346.721,79.100 us,2 B,,SP,55,Write Transaction,00 00
0,4374,0:32.352.069,87.000 us,2 B,,SP,55,Read Transaction,00 08*
0,4375,0:32.357.436,79.100 us,2 B,,SP,55,Write Transaction,12 01
0,4376,0:32.362.788,1.183.800 ms,46 B,,SP,55,Read Transaction,00 54 FF A6 00 7D FC 2F 02 D6 84 02 D5 ED 16 6A 3D 16 69 1D 27 05 AB 27 04 75 00 02 62 64 00 00 00 00 02 3E 63 03 CC 00 00 00 00 00 01 03*
0,4377,0:32.366.671,79.200 us,2 B,,SP,55,Write Transaction,00 00
0,4378,0:32.372.029,86.700 us,2 B,,SP,55,Read Transaction,00 00*
0,4379,0:32.379.695,79.100 us,2 B,,SP,55,Write Transaction,00 00
0,4380,0:32.385.045,87.000 us,2 B,,SP,55,Read Transaction,00 08*
0,4381,0:32.390.411,79.100 us,2 B,,SP,55,Write Transaction,12 01
0,4382,0:32.395.760,1.182.800 ms,46 B,,SP,55,Read Transaction,00 55 FF AC 00 7E FC 31 02 D8 E2 02 D8 49 16 6B 3B 16 6A 12 27 06 5E 27 05 28 00 02 62 64 00 00 00 00 02 3E 63 03 CC 00 00 00 00 00 01 03*
0,4383,0:32.397.398,79.000 us,2 B,,SP,55,Write Transaction,00 00
0,4384,0:32.402.747,86.600 us,2 B,,SP,55,Read Transaction,00 00*
0,4385,0:32.411.662,79.200 us,2 B,,SP,55,Write Transaction,00 00
0,4386,0:32.417.015,86.800 us,2 B,,SP,55,Read Transaction,00 00*
0,4387,0:32.426.816,79.100 us,2 B,,SP,55,Write Transaction,00 00
0,4388,0:32.432.168,87.100 us,2 B,,SP,55,Read Transaction,00 08*
0,4389,0:32.437.532,79.100 us,2 B,,SP,55,Write Transaction,12 01
0,4390,0:32.442.882,1.182.700 ms,46 B,,SP,55,Read Transaction,00 56 FF AD 00 7C FC 31 02 DB A6 02 DB 0F 16 6C 3D 16 6B 1B 27 06 D4 27 05 A3 00 02 62 64 00 00 00 00 02 3E 63 03 CC 00 00 00 00 00 01 03*
0,4391,0:32.445.515,79.100 us,2 B,,SP,55,Write Transaction,00 00
0,4392,0:32.450.870,86.600 us,2 B,,SP,55,Read Transaction,00 00*
0,4393,0:32.459.756,79.000 us,2 B,,SP,55,Write Transaction,00 00
0,4394,0:32.465.107,87.100 us,2 B,,SP,55,Read Transaction,00 08*
0,4395,0:32.470.473,79.100 us,2 B,,SP,55,Write Transaction,12 01
0,4396,0:32.475.825,1.182.500 ms,46 B,,SP,55,Read Transaction,00 57 FF AD 00 7D FC 2F 02 D6 27 02 D5 8C 16 67 1A 16 65 F3 27 03 56 27 02 1E 00 02 62 64 00 00 00 00 02 3E 63 03 CC 00 00 00 00 00 01 03*
0,4397,0:32.477.419,79.000 us,2 B,,SP,55,Write Transaction,00 00
0,4398,0:32.482.769,86.600 us,2 B,,SP,55,Read Transaction,00 00*
0,4399,0:32.491.745,79.100 us,2 B,,SP,55,Write Transaction,00 00
0,4400,0:32.497.097,86.600 us,2 B,,SP,55,Read Transaction,00 00*
0,4401,0:32.506.878,79.100 us,2 B,,SP,55,Write Transaction,00 00
0,4402,0:32.512.228,87.100 us,2 B,,SP,55,Read Transaction,00 08*
0,4403,0:32.517.595,79.200 us,2 B,,SP,55,Write Transaction,12 01
0,4404,0:32.522.950,1.184.500 ms,46 B,,SP,55,Read Transaction,00 58 FF A8 00 80 FC 30 02 C6 9E 02 C6 0C 16 60 3D 16 5F 21 26 FF C0 26 FE 8E 00 02 62 64 00 00 00 00 02 3E 63 03 CC 00 00 00 00 00 01 03*
0,4405,0:32.525.588,79.200 us,2 B,,SP,55,Write Transaction,00 00
0,4406,0:32.530.969,86.600 us,2 B,,SP,55,Read Transaction,00 00*
0,4407,0:32.539.830,79.000 us,2 B,,SP,55,Write Transaction,00 00
0,4408,0:32.545.181,87.100 us,2 B,,SP,55,Read Transaction,00 08*
0,4409,0:32.550.545,79.100 us,2 B,,SP,55,Write Transaction,12 01
0,4410,0:32.555.895,1.182.600 ms,46 B,,SP,55,Read Transaction,00 59 FF AB 00 7D FC 2D 02 B8 5A 02 B7 D2 16 5B CC 16 5A AF 26 FD A7 26 FC 76 00 02 62 64 00 00 00 00 02 3E 63 03 CC 00 00 00 00 00 01 03*
0,4411,0:32.558.725,79.100 us,2 B,,SP,55,Write Transaction,00 00
0,4412,0:32.564.074,86.500 us,2 B,,SP,55,Read Transaction,00 00*
0,4413,0:32.571.814,79.100 us,2 B,,SP,55,Write Transaction,00 00
0,4414,0:32.577.162,86.600 us,2 B,,SP,55,Read Transaction,00 00*
0,4415,0:32.586.710,79.100 us,2 B,,SP,55,Write Transaction,00 00
0,4416,0:32.592.061,87.100 us,2 B,,SP,55,Read Transaction,00 08*
0,4417,0:32.597.433,79.100 us,2 B,,SP,55,Write Transaction,12 01
0,4418,0:32.602.783,1.197.100 ms,46 B,,SP,55,Read Transaction,00 5A FF A8 00 7A FC 30 02 AF 4E 02 AE C2 16 59 68 16 58 4D 26 FC 7C 26 FB 4D 00 02 62 64 00 00 00 00 02 3E 63 03 CC 00 00 00 00 00 01 03*
0,4419,0:32.606.671,79.100 us,2 B,,SP,55,Write Transaction,00 00
0,4420,0:32.612.022,86.600 us,2 B,,SP,55,Read Transaction,00 00*
0,4421,0:32.619.673,79.000 us,2 B,,SP,55,Write Transaction,00 00
0,4422,0:32.625.025,87.000 us,2 B,,SP,55,Read Transaction,00 08*
0,4423,0:32.630.391,79.100 us,2 B,,SP,55,Write Transaction,12 01
0,4424,0:32.635.745,1.184.400 ms,46 B,,SP,55,Read Transaction,00 5B FF AA 00 80 FC 30 02 A9 59 02 A8 D0 16 57 CA 16 56 B2 26 FB CD 26 FA A3 00 02 62 64 00 00 00 00 02 3E 63 03 CC 00 00 00 00 00 01 03*
0,4425,0:32.637.332,79.200 us,2 B,,SP,55,Write Transaction,00 00
0,4426,0:32.642.686,86.600 us,2 B,,SP,55,Read Transaction,00 00*
0,4427,0:32.651.645,79.100 us,2 B,,SP,55,Write Transaction,00 00
0,4428,0:32.656.994,86.600 us,2 B,,SP,55,Read Transaction,00 00*
0,4429,0:32.666.785,79.100 us,2 B,,SP,55,Write Transaction,00 00
0,4430,0:32.672.136,87.100 us,2 B,,SP,55,Read Transaction,00 08*
0,4431,0:32.677.503,79.100 us,2 B,,SP,55,Write Transaction,12 01
0,4432,0:32.682.853,1.182.500 ms,46 B,,SP,55,Read Transaction,00 5C FF A8 00 80 FC 34 02 A4 42 02 A3 B4 16 56 71 16 55 54 26 FB 3E 26 FA 13 00 02 62 64 00 00 00 00 02 3E 63 03 CC 00 00 00 00 00 01 03*
0,4433,0:32.685.606,79.000 us,2 B,,SP,55,Write Transaction,00 00
0,4434,0:32.690.962,86.800 us,2 B,,SP,55,Read Transaction,00 00*
0,4435,0:32.699.739,79.100 us,2 B,,SP,55,Write Transaction,00 00
0,4436,0:32.705.091,87.100 us,2 B,,SP,55,Read Transaction,00 08*
0,4437,0:32.710.457,79.100 us,2 B,,SP,55,Write Transaction,12 01
0,4438,0:32.715.808,1.182.500 ms,46 B,,SP,55,Read Transaction,00 5D FF A6 00 7F FC 35 02 A1 FF 02 A1 75 16 56 E5 16 55 CB 26 FB D5 26 FA A7 00 02 62 64 00 00 00 00 02 3E 63 03 CC 00 00 00 00 00 01 03*
0,4439,0:32.717.393,79.100 us,2 B,,SP,55,Write Transaction,00 00
0,4440,0:32.722.750,86.700 us,2 B,,SP,55,Read Transaction,00 00*
0,4441,0:32.731.727,79.100 us,2 B,,SP,55,Write Transaction,00 00
0,4442,0:32.737.075,86.600 us,2 B,,SP,55,Read Transaction,00 00*
0,4443,0:32.746.861,79.100 us,2 B,,SP,55,Write Transaction,00 00
0,4444,0:32.752.210,87.000 us,2 B,,SP,55,Read Transaction,00 08*
0,4445,0:32.757.579,79.100 us,2 B,,SP,55,Write Transaction,12 01
0,4446,0:32.762.936,1.184.400 ms,46 B,,SP,55,Read Transaction,00 5E FF A6 00 7F FC 30 02 A5 3A 02 A4 B6 16 59 44 16 58 2C 26 FD 4B 26 FC 1D 00 02 62 64 00 00 00 00 02 3E 63 03 CC 00 00 00 00 00 01 03*
0,4447,0:32.766.873,79.100 us,2 B,,SP,55,Write Transaction,00 00
0,4448,0:32.772.227,86.600 us,2 B,,SP,55,Read Transaction,00 00*
0,4449,0:32.779.819,79.100 us,2 B,,SP,55,Write Transaction,00 00
0,4450,0:32.785.172,87.100 us,2 B,,SP,55,Read Transaction,00 08*
0,4451,0:32.790.541,79.100 us,2 B,,SP,55,Write Transaction,12 01
0,4452,0:32.795.897,1.184.500 ms,46 B,,SP,55,Read Transaction,00 5F FF AD 00 7A FC 2C 02 A8 C1 02 A8 32 16 5A BA 16 59 A5 26 FE 0B 26 FC DD 00 02 62 64 00 00 00 00 02 3E 63 03 CC 00 00 00 00 00 01 03*
0,4453,0:32.797.493,79.200 us,2 B,,SP,55,Write Transaction,00 00
0,4454,0:32.802.852,86.700 us,2 B,,SP,55,Read Transaction,00 00*
0,4455,0:32.811.810,79.100 us,2 B,,SP,55,Write Transaction,00 00
0,4456,0:32.817.163,86.600 us,2 B,,SP,55,Read Transaction,00 00*
0,4457,0:32.826.693,79.100 us,2 B,,SP,55,Write Transaction,00 00
0,4458,0:32.832.043,87.100 us,2 B,,SP,55,Read Transaction,00 08*
0,4459,0:32.837.409,79.100 us,2 B,,SP,55,Write Transaction,12 01
0,4460,0:32.842.761,1.182.700 ms,46 B,,SP,55,Read Transaction,00 60 FF A9 00 7C FC 2C 02 AA A2 02 AA 17 16 5B 91 16 5A 7A 26 FE AC 26 FD 7E 00 02 62 64 26 2D 64 00 02 3E 63 03 CC 00 00 00 00 00 01 03*
0,4461,0:32.845.394,79.100 us,2 B,,SP,55,Write Transaction,00 00
0,4462,0:32.850.743,86.600 us,2 B,,SP,55,Read Transaction,00 00*
0,4463,0:32.859.652,79.100 us,2 B,,SP,55,Write Transaction,00 00
0,4464,0:32.865.008,91.000 us,2 B,,SP,55,Read Transaction,00 00*
0,4465,0:32.874.784,79.100 us,2 B,,SP,55,Write Transaction,00 00
0,4466,0:32.880.135,86.600 us,2 B,,SP,55,Read Transaction,00 08*
0,4467,0:32.885.499,79.100 us,2 B,,SP,55,Write Transaction,12 01
0,4468,0:32.890.850,1.182.100 ms,46 B,,SP,55,Read Transaction,00 61 FF A7 00 82 FC 34 02 AC F4 02 AC 65 16 5C A9 16 5B 8D 26 FF 57 26 FE 28 00 02 62 64 00 00 00 00 02 3E 63 03 CC 64 00 00 00 00 01 03*
0,4469,0:32.892.445,79.100 us,2 B,,SP,55,Write Transaction,00 00
0,4470,0:32.897.796,87.300 us,2 B,,SP,55,Read Transaction,00 00*
0,4471,0:32.906.772,79.100 us,2 B,,SP,55,Write Transaction,00 00
0,4472,0:32.912.120,92.100 us,2 B,,SP,55,Read Transaction,00 08*
0,4473,0:32.917.493,79.100 us,2 B,,SP,55,Write Transaction,12 01
0,4474,0:32.922.844,1.182.600 ms,46 B,,SP,55,Read Transaction,00 62 FF AA 00 7F FC 29 02 AF 6F 02 AE ED 16 5D 66 16 5C 4B 26 FF DD 26 FE AF 00 02 62 64 00 00 00 00 02 3E 63 03 CC 00 00 00 00 00 01 03*
0,4475,0:32.925.479,79.100 us,2 B,,SP,55,Write Transaction,00 00
0,4476,0:32.930.830,86.600 us,2 B,,SP,55,Read Transaction,00 00*
0,4477,0:32.939.723,79.100 us,2 B,,SP,55,Write Transaction,00 00
0,4478,0:32.945.073,87.100 us,2 B,,SP,55,Read Transaction,00 08*
0,4479,0:32.950.440,79.100 us,2 B,,SP,55,Write Transaction,12 01
0,4480,0:32.955.794,1.182.700 ms,46 B,,SP,55,Read Transaction,00 63 FF AA 00 80 FC 32 02 B2 A0 02 B2 15 16 5E 9E 16 5D 83 27 00 9B 26 FF 6F 00 02 62 64 00 00 00 00 02 3E 63 03 CC 00 00 00 00 00 01 03*
0,4481,0:32.958.680,79.100 us,2 B,,SP,55,Write Transaction,00 00
0,4482,0:32.964.031,86.600 us,2 B,,SP,55,Read Transaction,00 00*
0,4483,0:32.971.718,79.100 us,2 B,,SP,55,Write Transaction,00 00
0,4484,0:32.977.070,88.000 us,2 B,,SP,55,Read Transaction,00 00*
0,4485,0:32.986.852,79.100 us,2 B,,SP,55,Write Transaction,00 00
0,4486,0:32.992.203,87.000 us,2 B,,SP,55,Read Transaction,00 08*
0,4487,0:32.997.568,79.100 us,2 B,,SP,55,Write Transaction,12 01
0,4488,0:33.002.921,1.182.500 ms,46 B,,SP,55,Read Transaction,00 64 FF AE 00 7B FC 31 02 B6 18 02 B5 86 16 60 45 16 5F 2F 27 01 A5 27 00 7D 00 02 62 64 00 00 00 00 02 3E 63 03 CC 00 00 00 00 00 01 03*
0,4489,0:33.006.790,79.100 us,2 B,,SP,55,Write Transaction,00 00
0,4490,0:33.012.141,86.600 us,2 B,,SP,55,Read Transaction,00 00*
0,4491,0:33.019.801,79.000 us,2 B,,SP,55,Write Transaction,00 00
0,4492,0:33.025.149,87.100 us,2 B,,SP,55,Read Transaction,00 08*
0,4493,0:33.030.520,79.200 us,2 B,,SP,55,Write Transaction,12 01
0,4494,0:33.035.873,1.182.800 ms,46 B,,SP,55,Read Transaction,00 65 FF B1 00 7F FC 2F 02 BA 6E 02 B9 E6 16 62 8D 16 61 74 27 03 05 27 01 D8 00 02 62 64 00 00 00 00 02 3E 63 03 CC 00 00 00 00 00 01 03*
0,4495,0:33.037.457,79.100 us,2 B,,SP,55,Write Transaction,00 00
0,4496,0:33.042.806,86.600 us,2 B,,SP,55,Read Transaction,00 00*
0,4497,0:33.051.788,79.100 us,2 B,,SP,55,Write Transaction,00 00
0,4498,0:33.057.139,87.200 us,2 B,,SP,55,Read Transaction,00 00*
0,4499,0:33.066.682,79.100 us,2 B,,SP,55,Write Transaction,00 00
0,4500,0:33.072.033,87.000 us,2 B,,SP,55,Read Transaction,00 08*
0,4501,0:33.077.398,79.100 us,2 B,,SP,55,Write Transaction,12 01
0,4502,0:33.082.748,1.182.700 ms,46 B,,SP,55,Read Transaction,00 66 FF AF 00 7E FC 30 02 BE D4 02 BE 46 16 64 3E 16 63 20 27 04 16 27 02 DF 00 02 62 64 00 00 00 00 02 3E 63 03 CC 00 00 00 00 00 01 03*
0,4503,0:33.085.395,79.100 us,2 B,,SP,55,Write Transaction,00 00
0,4504,0:33.090.783,86.700 us,2 B,,SP,55,Read Transaction,00 00*
0,4505,0:33.099.644,79.100 us,2 B,,SP,55,Write Transaction,00 00
0,4506,0:33.104.997,87.100 us,2 B,,SP,55,Read Transaction,00 08*
0,4507,0:33.110.369,79.100 us,2 B,,SP,55,Write Transaction,12 01
0,4508,0:33.115.719,1.182.700 ms,46 B,,SP,55,Read Transaction,00 67 FF AF 00 80 FC 2F 02 C2 D5 02 C2 46 16 65 F7 16 64 DD 27 04 FC 27 03 CB 00 02 62 64 00 00 00 00 02 3E 63 03 CC 00 00 00 00 00 01 03*
0,4509,0:33.117.304,79.100 us,2 B,,SP,55,Write Transaction,00 00
0,4510,0:33.122.656,86.600 us,2 B,,SP,55,Read Transaction,00 00*
0,4511,0:33.131.866,79.000 us,2 B,,SP,55,Write Transaction,00 00
0,4512,0:33.137.217,87.200 us,2 B,,SP,55,Read Transaction,00 00*
0,4513,0:33.146.742,79.200 us,2 B,,SP,55,Write Transaction,00 00
0,4514,0:33.152.101,87.200 us,2 B,,SP,55,Read Transaction,00 08*
0,4515,0:33.157.475,79.200 us,2 B,,SP,55,Write Transaction,12 01
0,4516,0:33.162.830,1.182.900 ms,46 B,,SP,55,Read Transaction,00 68 FF AE 00 81 FC 34 02 C6 D1 02 C6 43 16 67 99 16 66 7E 27 05 F2 27 04 C3 00 02 62 64 00 00 00 00 02 3E 63 03 CC 00 00 00 00 00 01 03*
0,4517,0:33.166.713,79.200 us,2 B,,SP,55,Write Transaction,00 00
0,4518,0:33.172.065,86.700 us,2 B,,SP,55,Read Transaction,00 00*
0,4519,0:33.179.720,79.100 us,2 B,,SP,55,Write Transaction,00 00
0,4520,0:33.185.072,87.100 us,2 B,,SP,55,Read Transaction,00 08*
0,4521,0:33.190.439,79.100 us,2 B,,SP,55,Write Transaction,12 01
0,4522,0:33.195.791,1.182.800 ms,46 B,,SP,55,Read Transaction,00 69 FF AE 00 83 FC 32 02 CA 9F 02 CA 12 16 69 1B 16 68 02 27 06 E9 27 05 BA 00 02 62 64 00 00 00 00 02 3E 63 03 CC 00 00 00 00 00 01 03*
0,4523,0:33.197.376,79.100 us,2 B,,SP,55,Write Transaction,00 00
0,4524,0:33.202.732,86.600 us,2 B,,SP,55,Read Transaction,00 00*
0,4525,0:33.211.681,79.200 us,2 B,,SP,55,Write Transaction,00 00
0,4526,0:33.217.037,87.300 us,2 B,,SP,55,Read Transaction,00 00*
0,4527,0:33.226.820,79.100 us,2 B,,SP,55,Write Transaction,00 00
0,4528,0:33.232.174,87.200 us,2 B,,SP,55,Read Transaction,00 08*
0,4529,0:33.237.547,79.100 us,2 B,,SP,55,Write Transaction,12 01
0,4530,0:33.242.898,1.183.800 ms,46 B,,SP,55,Read Transaction,00 6A FF B2 00 80 FC 2E 02 CE 3E 02 CD B1 16 6A 97 16 69 80 27 07 D7 27 06 AE 00 02 62 64 00 00 00 00 02 3E 63 03 CC 00 00 00 00 00 01 03*
0,4531,0:33.245.639,79.000 us,2 B,,SP,55,Write Transaction,00 00
0,4532,0:33.250.989,86.600 us,2 B,,SP,55,Read Transaction,00 00*
0,4533,0:33.260.765,79.000 us,2 B,,SP,55,Write Transaction,00 00
0,4534,0:33.266.116,87.100 us,2 B,,SP,55,Read Transaction,00 08*
0,4535,0:33.271.484,79.000 us,2 B,,SP,55,Write Transaction,12 01
0,4536,0:33.276.832,1.182.700 ms,46 B,,SP,55,Read Transaction,00 6B FF B5 00 7C FC 36 02 D2 45 02 D1 B7 16 6C 92 16 6B 7A 27 09 18 27 07 EE 00 02 62 64 00 00 00 00 02 3E 63 03 CC 00 00 00 00 00 01 03*
0,4537,0:33.278.426,79.100 us,2 B,,SP,55,Write Transaction,00 00
0,4538,0:33.283.783,86.800 us,2 B,,SP,55,Read Transaction,00 00*
0,4539,0:33.292.752,79.000 us,2 B,,SP,55,Write Transaction,00 00
0,4540,0:33.298.105,91.200 us,2 B,,SP,55,Read Transaction,00 00*
0,4541,0:33.307.643,79.200 us,2 B,,SP,55,Write Transaction,00 00
0,4542,0:33.313.000,87.000 us,2 B,,SP,55,Read Transaction,00 08*
0,4543,0:33.318.370,79.100 us,2 B,,SP,55,Write Transaction,12 01
0,4544,0:33.323.720,1.182.800 ms,46 B,,SP,55,Read Transaction,00 6C FF B3 00 81 FC 36 02 D6 43 02 D5 B5 16 6E 77 16 6D 59 27 0A 38 27 09 0A 00 02 62 64 00 00 00 00 02 3E 63 03 CC 00 00 00 00 00 01 03*
0,4545,0:33.326.356,79.200 us,2 B,,SP,55,Write Transaction,00 00
0,4546,0:33.331.713,86.800 us,2 B,,SP,55,Read Transaction,00 00*
0,4547,0:33.340.919,79.100 us,2 B,,SP,55,Write Transaction,00 00
0,4548,0:33.346.281,87.100 us,2 B,,SP,55,Read Transaction,00 08*
0,4549,0:33.351.649,79.100 us,2 B,,SP,55,Write Transaction,12 01
0,4550,0:33.356.999,1.182.700 ms,46 B,,SP,55,Read Transaction,00 6D FF B5 00 80 FC 2D 02 DA DF 02 DA 4C 16 70 AD 16 6F 95 27 0B B7 27 0A 92 00 02 62 64 00 00 00 00 02 3E 63 03 CC 00 00 00 00 00 01 03*
0,4551,0:33.359.860,79.100 us,2 B,,SP,55,Write Transaction,00 00
0,4552,0:33.365.211,86.600 us,2 B,,SP,55,Read Transaction,00 00*
0,4553,0:33.372.816,79.100 us,2 B,,SP,55,Write Transaction,00 00
0,4554,0:33.378.169,91.400 us,2 B,,SP,55,Read Transaction,00 00*
0,4555,0:33.387.699,79.100 us,2 B,,SP,55,Write Transaction,00 00
0,4556,0:33.393.047,87.000 us,2 B,,SP,55,Read Transaction,00 08*
0,4557,0:33.398.415,79.100 us,2 B,,SP,55,Write Transaction,12 01
0,4558,0:33.403.768,1.184.300 ms,46 B,,SP,55,Read Transaction,00 6E FF B0 00 7E FC 35 02 DE C5 02 DE 2C 16 72 50 16 71 35 27 0C 82 27 0B 57 00 02 62 64 00 00 00 00 02 3E 63 03 CC 00 00 00 00 00 01 03*
0,4559,0:33.407.642,79.200 us,2 B,,SP,55,Write Transaction,00 00
0,4560,0:33.412.992,86.600 us,2 B,,SP,55,Read Transaction,00 00*
0,4561,0:33.420.671,79.100 us,2 B,,SP,55,Write Transaction,00 00
0,4562,0:33.426.020,87.100 us,2 B,,SP,55,Read Transaction,00 08*
0,4563,0:33.431.386,79.100 us,2 B,,SP,55,Write Transaction,12 01
0,4564,0:33.436.736,1.182.600 ms,46 B,,SP,55,Read Transaction,00 6F FF B5 00 7F FC 31 02 DA 06 02 D9 72 16 6D 5B 16 6C 3B 27 09 09 27 07 D8 00 02 62 64 00 00 00 00 02 3E 63 03 CC 00 00 00 00 00 01 03*
0,4565,0:33.438.374,79.000 us,2 B,,SP,55,Write Transaction,00 00
0,4566,0:33.443.724,86.600 us,2 B,,SP,55,Read Transaction,00 00*
0,4567,0:33.452.656,79.100 us,2 B,,SP,55,Write Transaction,00 00
0,4568,0:33.458.008,91.100 us,2 B,,SP,55,Read Transaction,00 00*
0,4569,0:33.467.784,79.000 us,2 B,,SP,55,Write Transaction,00 00
0,4570,0:33.473.137,86.800 us,2 B,,SP,55,Read Transaction,00 08*
0,4571,0:33.478.507,79.200 us,2 B,,SP,55,Write Transaction,12 01
0,4572,0:33.483.861,1.182.700 ms,46 B,,SP,55,Read Transaction,00 70 FF B2 00 7C FC 2D 02 CC 5D 02 CB CF 16 67 0A 16 65 F0 27 05 DB 27 04 A8 00 02 62 64 00 00 00 00 02 3E 63 03 CC 00 00 00 00 00 01 03*
0,4573,0:33.486.506,79.100 us,2 B,,SP,55,Write Transaction,00 00
0,4574,0:33.491.882,86.600 us,2 B,,SP,55,Read Transaction,00 00*
0,4575,0:33.500.751,79.100 us,2 B,,SP,55,Write Transaction,00 00
0,4576,0:33.506.102,87.000 us,2 B,,SP,55,Read Transaction,00 08*
0,4577,0:33.511.469,79.100 us,2 B,,SP,55,Write Transaction,12 01
0,4578,0:33.516.820,1.182.600 ms,46 B,,SP,55,Read Transaction,00 71 FF B5 00 7F FC 30 02 C2 4A 02 C1 B9 16 63 C1 16 62 AC 27 04 4F 27 03 23 00 02 62 64 00 00 00 00 02 3E 63 03 CC 00 00 00 00 00 01 03*
0,4579,0:33.518.403,79.100 us,2 B,,SP,55,Write Transaction,00 00
0,4580,0:33.523.752,86.700 us,2 B,,SP,55,Read Transaction,00 00*
0,4581,0:33.532.721,79.100 us,2 B,,SP,55,Write Transaction,00 00
0,4582,0:33.538.072,91.200 us,2 B,,SP,55,Read Transaction,00 00*
0,4583,0:33.548.410,79.000 us,2 B,,SP,55,Write Transaction,00 00
0,4584,0:33.553.762,86.600 us,2 B,,SP,55,Read Transaction,00 08*
0,4585,0:33.559.126,79.200 us,2 B,,SP,55,Write Transaction,12 01
0,4586,0:33.564.478,1.182.400 ms,46 B,,SP,55,Read Transaction,00 72 FF B1 00 7D FC 34 02 BB 1D 02 BA 8F 16 61 B1 16 60 92 27 03 59 27 02 2A 00 02 62 64 00 00 00 00 02 3E 63 03 CC 00 00 00 00 00 01 03*
0,4587,0:33.567.122,79.100 us,2 B,,SP,55,Write Transaction,00 00
0,4588,0:33.572.473,86.600 us,2 B,,SP,55,Read Transaction,00 00*
0,4589,0:33.581.792,79.100 us,2 B,,SP,55,Write Transaction,00 00
0,4590,0:33.587.144,87.100 us,2 B,,SP,55,Read Transaction,00 08*
0,4591,0:33.592.509,79.000 us,2 B,,SP,55,Write Transaction,12 01
0,4592,0:33.597.860,1.182.600 ms,46 B,,SP,55,Read Transaction,00 73 FF B4 00 82 FC 32 02 B6 67 02 B5 DC 16 60 8A 16 5F 74 27 03 02 27 01 DC 00 02 62 64 00 00 00 00 02 3E 63 03 CC 00 00 00 00 00 01 03*
0,4593,0:33.600.678,79.000 us,2 B,,SP,55,Write Transaction,00 00
0,4594,0:33.606.030,86.600 us,2 B,,SP,55,Read Transaction,00 00*
0,4595,0:33.613.777,79.000 us,2 B,,SP,55,Write Transaction,00 00
0,4596,0:33.619.127,91.300 us,2 B,,SP,55,Read Transaction,00 00*
0,4597,0:33.628.657,79.100 us,2 B,,SP,55,Write Transaction,00 00
0,4598,0:33.634.008,86.700 us,2 B,,SP,55,Read Transaction,00 08*
0,4599,0:33.639.375,79.000 us,2 B,,SP,55,Write Transaction,12 01
0,4600,0:33.644.724,1.183.800 ms,46 B,,SP,55,Read Transaction,00 74 FF B1 00 80 FC 2F 02 B3 86 02 B2 FB 16 5F E7 16 5E CF 27 02 E0 27 01 B3 00 02 62 64 00 00 00 00 02 3E 63 03 CC 00 00 00 00 00 01 03*
0,4601,0:33.646.306,79.000 us,2 B,,SP,55,Write Transaction,00 00
0,4602,0:33.651.657,86.600 us,2 B,,SP,55,Read Transaction,00 00*
0,4603,0:33.660.650,79.100 us,2 B,,SP,55,Write Transaction,00 00
0,4604,0:33.666.002,87.100 us,2 B,,SP,55,Read Transaction,00 08*
0,4605,0:33.671.367,79.100 us,2 B,,SP,55,Write Transaction,12 01
0,4606,0:33.676.718,1.182.700 ms,46 B,,SP,55,Read Transaction,00 75 FF B2 00 7E FC 2B 02 B3 67 02 B2 D6 16 60 A7 16 5F 90 27 03 80 27 02 5A 00 02 62 64 00 00 00 00 02 3E 63 03 CC 00 00 00 00 00 01 03*
0,4607,0:33.679.364,79.100 us,2 B,,SP,55,Write Transaction,00 00
0,4608,0:33.684.714,103.300 us,2 B,,SP,55,Read Transaction,00 00*
0,4609,0:33.693.613,79.100 us,2 B,,SP,55,Write Transaction,00 00
0,4610,0:33.698.964,91.100 us,2 B,,SP,55,Read Transaction,00 00*
0,4611,0:33.708.746,79.000 us,2 B,,SP,55,Write Transaction,00 00
0,4612,0:33.714.101,86.600 us,2 B,,SP,55,Read Transaction,00 08*
0,4613,0:33.719.472,79.200 us,2 B,,SP,55,Write Transaction,12 01
0,4614,0:33.724.821,1.182.500 ms,46 B,,SP,55,Read Transaction,00 76 FF AF 00 81 FC 31 02 B6 67 02 B5 DE 16 62 54 16 61 3D 27 04 96 27 03 6E 00 02 62 64 00 00 00 00 02 3E 63 03 CC 00 00 00 00 00 01 03*
0,4615,0:33.726.416,79.100 us,2 B,,SP,55,Write Transaction,00 00
0,4616,0:33.731.766,86.600 us,2 B,,SP,55,Read Transaction,00 00*
0,4617,0:33.740.730,79.100 us,2 B,,SP,55,Write Transaction,00 00
0,4618,0:33.746.080,87.100 us,2 B,,SP,55,Read Transaction,00 08*
0,4619,0:33.751.445,79.100 us,2 B,,SP,55,Write Transaction,12 01
0,4620,0:33.756.795,1.182.500 ms,46 B,,SP,55,Read Transaction,00 77 FF B1 00 83 FC 32 02 B9 12 02 B8 89 16 63 8B 16 62 7D 27 05 2E 27 04 09 00 02 62 64 00 00 00 00 02 3E 63 03 CC 00 00 00 00 00 01 03*
0,4621,0:33.760.672,79.100 us,2 B,,SP,55,Write Transaction,00 00
0,4622,0:33.766.023,86.500 us,2 B,,SP,55,Read Transaction,00 00*
0,4623,0:33.773.675,79.100 us,2 B,,SP,55,Write Transaction,00 00
0,4624,0:33.779.027,91.100 us,2 B,,SP,55,Read Transaction,00 00*
0,4625,0:33.788.825,79.100 us,2 B,,SP,55,Write Transaction,00 00
0,4626,0:33.794.173,86.600 us,2 B,,SP,55,Read Transaction,00 08*
0,4627,0:33.799.538,79.100 us,2 B,,SP,55,Write Transaction,12 01
0,4628,0:33.804.908,1.182.500 ms,46 B,,SP,55,Read Transaction,00 78 FF B3 00 7F FC 33 02 BB 28 02 BA 9F 16 64 5C 16 63 4A 27 05 D4 27 04 AE 00 02 62 64 00 00 00 00 02 3E 63 03 CC 00 00 00 00 00 01 03*
0,4629,0:33.807.736,79.000 us,2 B,,SP,55,Write Transaction,00 00
0,4630,0:33.813.086,86.600 us,2 B,,SP,55,Read Transaction,00 00*
0,4631,0:33.820.789,79.100 us,2 B,,SP,55,Write Transaction,00 00
0,4632,0:33.826.140,87.100 us,2 B,,SP,55,Read Transaction,00 08*
0,4633,0:33.831.505,79.000 us,2 B,,SP,55,Write Transaction,12 01
0,4634,0:33.836.854,1.182.600 ms,46 B,,SP,55,Read Transaction,00 79 FF B2 00 7D FC 31 02 BD BF 02 BD 2F 16 65 CE 16 64 BA 27 06 C6 27 05 9C 00 02 62 64 26 03 64 00 02 3E 63 03 CC 00 00 00 00 00 01 03*
0,4635,0:33.839.485,79.100 us,2 B,,SP,55,Write Transaction,00 00
0,4636,0:33.844.838,86.600 us,2 B,,SP,55,Read Transaction,00 00*
0,4637,0:33.853.758,79.100 us,2 B,,SP,55,Write Transaction,00 00
0,4638,0:33.859.109,91.100 us,2 B,,SP,55,Read Transaction,00 00*
0,4639,0:33.868.640,79.000 us,2 B,,SP,55,Write Transaction,00 00
0,4640,0:33.873.991,87.100 us,2 B,,SP,55,Read Transaction,00 08*
0,4641,0:33.879.356,79.000 us,2 B,,SP,55,Write Transaction,12 01
0,4642,0:33.884.706,1.182.700 ms,46 B,,SP,55,Read Transaction,00 7A FF B7 00 81 FC 30 02 C1 71 02 C0 E4 16 67 F4 16 66 E1 27 08 31 27 07 09 00 02 62 64 00 00 00 00 02 3F 64 03 CC 64 00 00 00 00 01 03*
0,4643,0:33.886.300,79.100 us,2 B,,SP,55,Write Transaction,00 00
0,4644,0:33.891.650,86.500 us,2 B,,SP,55,Read Transaction,00 00*
0,4645,0:33.900.630,79.000 us,2 B,,SP,55,Write Transaction,00 00
0,4646,0:33.905.982,87.000 us,2 B,,SP,55,Read Transaction,00 08*
0,4647,0:33.911.348,79.100 us,2 B,,SP,55,Write Transaction,12 01
0,4648,0:33.916.697,1.182.400 ms,46 B,,SP,55,Read Transaction,00 7B FF B5 00 82 FC 33 02 C6 FE 02 C6 6E 16 6B 31 16 6A 1F 27 0A 25 27 08 FA 00 02 62 64 00 00 00 00 02 3F 64 03 CC 00 00 00 00 00 01 03*
0,4649,0:33.919.435,79.100 us,2 B,,SP,55,Write Transaction,00 00
0,4650,0:33.924.785,86.700 us,2 B,,SP,55,Read Transaction,00 00*
0,4651,0:33.933.823,79.100 us,2 B,,SP,55,Write Transaction,00 00
0,4652,0:33.939.176,91.100 us,2 B,,SP,55,Read Transaction,00 00*
0,4653,0:33.948.719,79.000 us,2 B,,SP,55,Write Transaction,00 00
0,4654,0:33.954.070,86.600 us,2 B,,SP,55,Read Transaction,00 08*
0,4655,0:33.959.436,79.000 us,2 B,,SP,55,Write Transaction,12 01
0,4656,0:33.964.784,1.182.600 ms,46 B,,SP,55,Read Transaction,00 7C FF B1 00 82 FC 31 02 CC 30 02 CB 99 16 6D 8B 16 6C 6B 27 0B B6 27 0A 89 00 02 62 64 00 00 00 00 02 3F 64 03 CC 00 00 00 00 00 01 03*
0,4657,0:33.966.378,79.100 us,2 B,,SP,55,Write Transaction,00 00
0,4658,0:33.971.728,86.600 us,2 B,,SP,55,Read Transaction,00 00*
0,4659,0:33.980.703,79.000 us,2 B,,SP,55,Write Transaction,00 00
0,4660,0:33.986.051,87.100 us,2 B,,SP,55,Read Transaction,00 08*
0,4661,0:33.991.418,79.000 us,2 B,,SP,55,Write Transaction,12 01
0,4662,0:33.996.765,1.182.400 ms,46 B,,SP,55,Read Transaction,00 7D FF B3 00 7F FC 2D 02 D0 CE 02 D0 41 16 6F A4 16 6E 8C 27 0C FD 27 0B D3 00 02 62 64 00 00 00 00 02 3F 64 03 CC 00 00 00 00 00 01 03*
0,4663,0:34.000.689,79.100 us,2 B,,SP,55,Write Transaction,00 00
0,4664,0:34.006.039,86.600 us,2 B,,SP,55,Read Transaction,00 00*
0,4665,0:34.013.655,79.000 us,2 B,,SP,55,Write Transaction,00 00
0,4666,0:34.019.007,91.400 us,2 B,,SP,55,Read Transaction,00 00*
0,4667,0:34.028.799,79.000 us,2 B,,SP,55,Write Transaction,00 00
0,4668,0:34.034.150,86.500 us,2 B,,SP,55,Read Transaction,00 08*
0,4669,0:34.039.518,79.200 us,2 B,,SP,55,Write Transaction,12 01
0,4670,0:34.044.872,1.184.300 ms,46 B,,SP,55,Read Transaction,00 7E FF B2 00 7E FC 30 02 D5 14 02 D4 82 16 71 40 16 70 28 27 0E 19 27 0C EF 00 02 62 64 00 00 00 00 02 3F 64 03 CC 00 00 00 00 00 01 03*
0,4671,0:34.046.460,79.100 us,2 B,,SP,55,Write Transaction,00 00
0,4672,0:34.051.813,86.600 us,2 B,,SP,55,Read Transaction,00 00*
0,4673,0:34.060.784,79.100 us,2 B,,SP,55,Write Transaction,00 00
0,4674,0:34.066.136,87.100 us,2 B,,SP,55,Read Transaction,00 08*
0,4675,0:34.071.502,79.100 us,2 B,,SP,55,Write Transaction,12 01
0,4676,0:34.076.853,1.183.200 ms,46 B,,SP,55,Read Transaction,00 7F FF B7 00 7B FC 26 02 D8 D0 02 D8 3A 16 72 E0 16 71 C5 27 0F 11 27 0D E2 00 02 62 64 00 00 00 00 02 3F 64 03 CC 00 00 00 00 00 01 03*
0,4677,0:34.079.500,79.000 us,2 B,,SP,55,Write Transaction,00 00
0,4678,0:34.084.849,86.600 us,2 B,,SP,55,Read Transaction,00 00*
0,4679,0:34.093.810,79.100 us,2 B,,SP,55,Write Transaction,00 00
0,4680,0:34.099.160,91.200 us,2 B,,SP,55,Read Transaction,00 00*
0,4681,0:34.108.632,79.100 us,2 B,,SP,55,Write Transaction,00 00
0,4682,0:34.113.981,86.600 us,2 B,,SP,55,Read Transaction,00 08*
0,4683,0:34.119.345,79.100 us,2 B,,SP,55,Write Transaction,12 01
0,4684,0:34.124.696,1.182.600 ms,46 B,,SP,55,Read Transaction,00 80 FF B9 00 82 FC 3D 02 DB BA 02 DB 2C 16 73 93 16 72 7F 27 0F 7B 27 0E 51 00 02 62 64 00 00 00 00 02 3F 64 03 CC 00 00 00 00 00 01 03*
0,4685,0:34.126.280,79.000 us,2 B,,SP,55,Write Transaction,00 00
0,4686,0:34.131.632,86.500 us,2 B,,SP,55,Read Transaction,00 00*
0,4687,0:34.140.619,79.100 us,2 B,,SP,55,Write Transaction,00 00
0,4688,0:34.145.968,87.100 us,2 B,,SP,55,Read Transaction,00 08*
0,4689,0:34.151.338,79.200 us,2 B,,SP,55,Write Transaction,12 01
0,4690,0:34.156.695,1.182.800 ms,46 B,,SP,55,Read Transaction,00 81 FF B1 00 7E FC 30 02 DE D0 02 DE 39 16 74 AA 16 73 95 27 10 36 27 0F 0B 00 02 62 64 00 00 00 00 02 3F 64 03 CC 00 00 00 00 00 01 03*
0,4691,0:34.160.578,79.200 us,2 B,,SP,55,Write Transaction,00 00
0,4692,0:34.165.930,86.600 us,2 B,,SP,55,Read Transaction,00 00*
0,4693,0:34.173.814,79.100 us,2 B,,SP,55,Write Transaction,00 00
0,4694,0:34.179.162,91.200 us,2 B,,SP,55,Read Transaction,00 00*
0,4695,0:34.188.708,79.100 us,2 B,,SP,55,Write Transaction,00 00
0,4696,0:34.194.058,86.500 us,2 B,,SP,55,Read Transaction,00 08*
0,4697,0:34.199.425,79.100 us,2 B,,SP,55,Write Transaction,12 01
0,4698,0:34.204.774,1.181.900 ms,46 B,,SP,55,Read Transaction,00 82 FF B1 00 7C FC 2B 02 E1 1A 02 E0 83 16 75 4B 16 74 35 27 10 B2 27 0F 87 00 02 62 64 00 00 00 00 02 3F 64 03 CC 00 00 00 00 00 01 03*
0,4699,0:34.207.592,79.000 us,2 B,,SP,55,Write Transaction,00 00
0,4700,0:34.212.941,86.600 us,2 B,,SP,55,Read Transaction,00 00*
0,4701,0:34.220.676,79.100 us,2 B,,SP,55,Write Transaction,00 00
0,4702,0:34.226.026,87.100 us,2 B,,SP,55,Read Transaction,00 08*
0,4703,0:34.231.391,79.100 us,2 B,,SP,55,Write Transaction,12 01
0,4704,0:34.236.742,1.182.600 ms,46 B,,SP,55,Read Transaction,00 83 FF B4 00 7E FC 30 02 E4 0C 02 E3 76 16 76 A9 16 75 8F 27 11 8D 27 10 63 00 02 62 64 00 00 00 00 02 3F 64 03 CC 00 00 00 00 00 01 03*
0,4705,0:34.239.376,79.100 us,2 B,,SP,55,Write Transaction,00 00
0,4706,0:34.244.734,86.700 us,2 B,,SP,55,Read Transaction,00 00*
0,4707,0:34.253.648,79.100 us,2 B,,SP,55,Write Transaction,00 00
0,4708,0:34.258.997,91.100 us,2 B,,SP,55,Read Transaction,00 00*
0,4709,0:34.268.790,79.100 us,2 B,,SP,55,Write Transaction,00 00
0,4710,0:34.274.140,86.600 us,2 B,,SP,55,Read Transaction,00 08*
0,4711,0:34.279.505,79.000 us,2 B,,SP,55,Write Transaction,12 01
0,4712,0:34.284.855,1.182.600 ms,46 B,,SP,55,Read Transaction,00 84 FF B1 00 82 FC 31 02 E7 05 02 E6 71 16 77 D4 16 76 C5 27 12 4B 27 11 24 00 02 62 64 00 00 00 00 02 3F 64 03 CC 00 00 00 00 00 01 03*
0,4713,0:34.286.460,79.100 us,2 B,,SP,55,Write Transaction,00 00
0,4714,0:34.291.810,86.600 us,2 B,,SP,55,Read Transaction,00 00*
0,4715,0:34.300.769,79.200 us,2 B,,SP,55,Write Transaction,00 00
0,4716,0:34.306.122,87.100 us,2 B,,SP,55,Read Transaction,00 08*
0,4717,0:34.311.486,79.100 us,2 B,,SP,55,Write Transaction,12 01
0,4718,0:34.316.836,1.183.800 ms,46 B,,SP,55,Read Transaction,00 85 FF B6 00 7D FC 36 02 EA 3B 02 E9 A0 16 79 5B 16 78 45 27 13 63 27 12 35 00 02 62 64 00 00 00 00 02 3F 64 03 CC 00 00 00 00 00 01 03*
0,4719,0:34.319.481,79.200 us,2 B,,SP,55,Write Transaction,00 00
0,4720,0:34.324.831,86.700 us,2 B,,SP,55,Read Transaction,00 00*
0,4721,0:34.333.716,79.100 us,2 B,,SP,55,Write Transaction,00 00
0,4722,0:34.339.068,91.100 us,2 B,,SP,55,Read Transaction,00 00*
0,4723,0:34.348.606,79.000 us,2 B,,SP,55,Write Transaction,00 00
0,4724,0:34.353.955,86.600 us,2 B,,SP,55,Read Transaction,00 08*
0,4725,0:34.359.321,79.100 us,2 B,,SP,55,Write Transaction,12 01
0,4726,0:34.364.669,1.182.400 ms,46 B,,SP,55,Read Transaction,00 86 FF B2 00 7F FC 2E 02 ED 86 02 EC EA 16 7B 19 16 7A 04 27 14 58 27 13 29 00 02 62 64 00 00 00 00 02 3F 64 03 CC 00 00 00 00 00 01 03*
0,4727,0:34.366.317,79.000 us,2 B,,SP,55,Write Transaction,00 00
0,4728,0:34.371.665,86.600 us,2 B,,SP,55,Read Transaction,00 00*
0,4729,0:34.380.594,79.100 us,2 B,,SP,55,Write Transaction,00 00
0,4730,0:34.385.945,87.100 us,2 B,,SP,55,Read Transaction,00 08*
0,4731,0:34.391.310,79.100 us,2 B,,SP,55,Write Transaction,12 01
0,4732,0:34.396.661,1.182.700 ms,46 B,,SP,55,Read Transaction,00 87 FF B1 00 85 FC 33 02 EB A9 02 EB 14 16 77 F1 16 76 D9 27 11 E7 27 10 C0 00 02 62 64 00 00 00 00 02 3F 64 03 CC 00 00 00 00 00 01 03*
0,4733,0:34.400.530,79.100 us,2 B,,SP,55,Write Transaction,00 00
0,4734,0:34.405.880,86.600 us,2 B,,SP,55,Read Transaction,00 00*
0,4735,0:34.413.797,79.100 us,2 B,,SP,55,Write Transaction,00 00
0,4736,0:34.419.148,91.200 us,2 B,,SP,55,Read Transaction,00 00*
0,4737,0:34.428.690,79.100 us,2 B,,SP,55,Write Transaction,00 00
0,4738,0:34.434.044,86.600 us,2 B,,SP,55,Read Transaction,00 08*
0,4739,0:34.439.412,79.100 us,2 B,,SP,55,Write Transaction,12 01
0,4740,0:34.444.762,1.182.700 ms,46 B,,SP,55,Read Transaction,00 88 FF B3 00 80 FC 30 02 DC 7B 02 DB EA 16 6F F0 16 6E D9 27 0D 8E 27 0C 63 00 02 62 64 00 00 00 00 02 3F 64 03 CC 00 00 00 00 00 01 03*
0,4741,0:34.447.580,79.100 us,2 B,,SP,55,Write Transaction,00 00
0,4742,0:34.452.934,86.600 us,2 B,,SP,55,Read Transaction,00 00*
0,4743,0:34.460.664,79.100 us,2 B,,SP,55,Write Transaction,00 00
0,4744,0:34.466.018,87.000 us,2 B,,SP,55,Read Transaction,00 08*
0,4745,0:34.471.384,79.100 us,2 B,,SP,55,Write Transaction,12 01
0,4746,0:34.476.733,1.182.100 ms,46 B,,SP,55,Read Transaction,00 89 FF B0 00 7E FC 30 02 CF 2E 02 CE 99 16 6B 7C 16 6A 68 27 0B 7A 27 0A 57 00 02 62 64 00 00 00 00 02 3F 64 03 CC 00 00 00 00 00 01 03*
0,4747,0:34.479.485,79.000 us,2 B,,SP,55,Write Transaction,00 00
0,4748,0:34.484.835,86.600 us,2 B,,SP,55,Read Transaction,00 00*
0,4749,0:34.493.627,79.000 us,2 B,,SP,55,Write Transaction,00 00
0,4750,0:34.498.980,91.100 us,2 B,,SP,55,Read Transaction,00 00*
0,4751,0:34.508.770,79.000 us,2 B,,SP,55,Write Transaction,00 00
0,4752,0:34.514.123,86.600 us,2 B,,SP,55,Read Transaction,00 08*
0,4753,0:34.519.488,79.100 us,2 B,,SP,55,Write Transaction,12 01
0,4754,0:34.524.840,1.182.800 ms,46 B,,SP,55,Read Transaction,00 8A FF B3 00 7F FC 2F 02 C6 02 02 C5 7B 16 69 61 16 68 52 27 0A 86 27 09 61 00 02 62 64 00 00 00 00 02 3F 64 03 CC 00 00 00 00 00 01 03*
0,4755,0:34.526.423,79.100 us,2 B,,SP,55,Write Transaction,00 00
0,4756,0:34.531.773,86.600 us,2 B,,SP,55,Read Transaction,00 00*
0,4757,0:34.540.735,79.100 us,2 B,,SP,55,Write Transaction,00 00
0,4758,0:34.546.085,87.200 us,2 B,,SP,55,Read Transaction,00 08*
0,4759,0:34.551.458,79.200 us,2 B,,SP,55,Write Transaction,12 01
0,4760,0:34.556.807,1.182.700 ms,46 B,,SP,55,Read Transaction,00 8B FF B1 00 80 FC 32 02 BE BC 02 BE 33 16 67 8A 16 66 77 27 09 BF 27 08 98 00 02 62 64 00 00 00 00 02 3F 64 03 CC 00 00 00 00 00 01 03*
0,4761,0:34.560.744,79.200 us,2 B,,SP,55,Write Transaction,00 00
0,4762,0:34.566.100,86.600 us,2 B,,SP,55,Read Transaction,00 00*
0,4763,0:34.573.707,79.100 us,2 B,,SP,55,Write Transaction,00 00
0,4764,0:34.579.059,91.100 us,2 B,,SP,55,Read Transaction,00 00*
0,4765,0:34.588.583,79.100 us,2 B,,SP,55,Write Transaction,00 00
0,4766,0:34.593.935,86.600 us,2 B,,SP,55,Read Transaction,00 08*
0,4767,0:34.599.301,79.100 us,2 B,,SP,55,Write Transaction,12 01
0,4768,0:34.604.651,1.182.700 ms,46 B,,SP,55,Read Transaction,00 8C FF B1 00 83 FC 30 02 B8 EB 02 B8 60 16 65 E7 16 64 D6 27 08 EF 27 07 CC 00 02 62 64 00 00 00 00 02 3F 64 03 CC 00 00 00 00 00 01 03*
0,4769,0:34.607.470,79.100 us,2 B,,SP,55,Write Transaction,00 00
0,4770,0:34.612.821,86.500 us,2 B,,SP,55,Read Transaction,00 00*
0,4771,0:34.620.571,79.100 us,2 B,,SP,55,Write Transaction,00 00
0,4772,0:34.625.920,87.100 us,2 B,,SP,55,Read Transaction,00 08*
0,4773,0:34.631.286,79.200 us,2 B,,SP,55,Write Transaction,12 01
0,4774,0:34.636.638,1.182.600 ms,46 B,,SP,55,Read Transaction,00 8D FF B0 00 84 FC 30 02 B5 32 02 B4 A8 16 65 4B 16 64 34 27 08 EC 27 07 C3 00 02 62 64 00 00 00 00 02 3F 64 03 CC 00 00 00 00 00 01 03*
0,4775,0:34.639.272,79.000 us,2 B,,SP,55,Write Transaction,00 00
0,4776,0:34.644.621,86.600 us,2 B,,SP,55,Read Transaction,00 00*
0,4777,0:34.653.794,79.100 us,2 B,,SP,55,Write Transaction,00 00
0,4778,0:34.659.145,91.100 us,2 B,,SP,55,Read Transaction,00 00*
0,4779,0:34.668.660,79.100 us,2 B,,SP,55,Write Transaction,00 00
0,4780,0:34.674.011,86.600 us,2 B,,SP,55,Read Transaction,00 08*
0,4781,0:34.679.376,79.100 us,2 B,,SP,55,Write Transaction,12 01
0,4782,0:34.684.727,1.182.700 ms,46 B,,SP,55,Read Transaction,00 8E FF AF 00 80 FC 34 02 B5 E3 02 B5 57 16 66 66 16 65 58 27 09 AA 27 08 80 00 02 62 64 00 00 00 00 02 3F 64 03 CC 00 00 00 00 00 01 03*
0,4783,0:34.686.321,79.100 us,2 B,,SP,55,Write Transaction,00 00
0,4784,0:34.691.672,86.700 us,2 B,,SP,55,Read Transaction,00 00*
0,4785,0:34.700.652,79.200 us,2 B,,SP,55,Write Transaction,00 00
0,4786,0:34.706.028,87.200 us,2 B,,SP,55,Read Transaction,00 08*
0,4787,0:34.711.402,79.200 us,2 B,,SP,55,Write Transaction,12 01
0,4788,0:34.716.757,1.182.500 ms,46 