# Total Phase Data Center(tm) v6.73,,,,,,,,,,,,,,,,,,,,
# (c) 2005-2017 Total Phase, Inc.,,,,,,,,,,,,,,,,,,,
# www.totalphase.com,,,,,,,,,,,,,,,,,,,,
#,,,,,,,,,,,,,2680,get cal result,,,,,,
# ,,,,,,,,,,,,,2748,,,,,,,
#,,,,,,,,,,,,,,,,,,,,
# Level,Index,m:s.ms.us,Dur,Len,Err,S/P,Addr,Record,Data,ASCII,,,,,,,,,,
0,0,0:00.000.000,,,,,,Capture started,[01/13/22 13:22:31],,,,,,,,,,,
0,1,0:59.329.952,333.583.100 ms,1 B,TMP2,,None,Corrupt Transaction,C0*,,,,,,,,,,,
0,2,1:00.598.590,103.900 us,3 B,,SP,55,Write Transaction,10 00 03,...,,"sensor, algo",,,,,,,,
0,3,1:00.612.988,57.400 us,1 B,,SP,55,Read Transaction,00*,.,,,,,,,,,,
0,4,1:00.613.481,103.900 us,3 B,,SP,55,Write Transaction,10 01 01,...,,interrupt threshold 1,,,,,,,,
0,5,1:00.623.172,57.100 us,1 B,,SP,55,Read Transaction,00*,.,,,,,,,,,,
0,6,1:00.623.597,79.000 us,2 B,,SP,55,Write Transaction,02 00,..,,oper mode,,,,,,,,
0,7,1:00.629.122,82.000 us,2 B,,SP,55,Read Transaction,00 00*,..,,,,,,,,,,
0,8,1:00.629.536,78.900 us,2 B,,SP,55,Write Transaction,FF 03,..,,ver,,,,,,,,
0,9,1:00.638.571,142.600 us,4 B,,SP,55,Read Transaction,00 32 04 01*,.2..,,,,,,,,,,
0,10,1:00.652.200,79.000 us,2 B,,SP,55,Write Transaction,54 00,T.,,algo hub,,,,,,,,
0,11,1:00.659.780,57.100 us,1 B,,SP,55,Read Transaction,00*,.,,,,,,,,,,
0,12,1:19.650.225,79.000 us,2 B,,SP,55,Write Transaction,B3 00,..,,DHPARAMS ,,,,,,,,
0,13,1:19.655.571,207.100 us,7 B,,SP,55,Read Transaction,00 3B 60 6A F2 78 7E*,.;`j.x~,,AUTHEN,,,,,,,,
0,14,1:20.010.564,377.700 us,14 B,,SP,55,Write Transaction,B4 00 30 4B 17 26 31 7E 14 13 70 7C 35 05,..0K.&1~..p|5.,,,,,,,,,,
0,15,1:20.016.209,57.600 us,1 B,,SP,55,Read Transaction,00*,.,,,,,,,,,,
0,16,1:20.190.305,79.000 us,2 B,,SP,55,Write Transaction,B5 00,..,,,,,,,,,,
0,17,1:20.195.654,356.900 us,13 B,,SP,55,Read Transaction,00 32 C9 06 CA 33 FC 05 FF 72 FE 24 E9*,.2...3...r.$.,,,,,,,,,,
0,18,1:20.280.621,79.100 us,2 B,,SP,55,Write Transaction,B2 00,..,,,,,,,,,,
0,19,1:20.285.967,854.100 us,33 B,,SP,55,Read Transaction,00 13 FD F5 16 61 1A EE 67 6B 49 2F 47 D1 ED 89 60 2F 70 04 BE A6 6E 9B D0 FF 09 CD 3D E3 2D 81 B5*,.....a..gkI/G...`/p...n.,,,,,,,,,,
0,20,1:20.595.401,128.800 us,4 B,,SP,55,Write Transaction,46 07 05 70,F..p,,read initia hr,,,,,,,,
0,21,1:20.600.795,57.100 us,1 B,,SP,55,Read Transaction,00*,.,,,,,,,,,,
0,22,1:20.865.440,153.700 us,5 B,,SP,55,Write Transaction,46 07 06 04 31,F...1,,,,,,,,,,
0,23,1:20.870.860,57.000 us,1 B,,SP,55,Read Transaction,00*,.,,,,,,,,,,
0,24,1:21.135.425,153.700 us,5 B,,SP,55,Write Transaction,46 07 07 00 33,F...3,,,,,,,,,,
0,25,1:21.140.847,57.000 us,1 B,,SP,55,Read Transaction,00*,.,,,,,,,,,,
0,26,1:21.405.530,128.800 us,4 B,,SP,55,Write Transaction,46 07 08 52,F..R,,,,,,,,,,
0,27,1:21.410.925,57.100 us,1 B,,SP,55,Read Transaction,00*,.,,,,,,,,,,
0,28,1:21.675.581,129.000 us,4 B,,SP,55,Write Transaction,46 07 09 00,F...,,,,,,,,,,
0,29,1:21.680.979,57.000 us,1 B,,SP,55,Read Transaction,00*,.,,,,,,,,,,
0,30,2:13.746.755,178.600 us,6 B,,SP,55,Write Transaction,50 08 62 00 78 51,P.b.xQ,,"writ cal idx, sys dia",,,,,,,,
0,31,2:13.752.200,57.200 us,1 B,,SP,55,Read Transaction,00*,.,,,,,,,,,,
0,32,2:14.203.221,79.000 us,2 B,,SP,55,Write Transaction,54 01,T.,,sh mode,,,,,,,,
0,33,2:14.208.567,57.000 us,1 B,,SP,55,Read Transaction,00*,.,,,,,,,,,,
0,34,2:14.210.069,128.800 us,4 B,,SP,55,Write Transaction,50 08 0B 01,P...,,en AEC,,,,,,,,
0,35,2:14.215.464,57.000 us,1 B,,SP,55,Read Transaction,00*,.,,,,,,,,,,
0,36,2:14.215.793,128.800 us,4 B,,SP,55,Write Transaction,50 08 12 01,P...,,enable/disable automatic calculation of target PD current,,,,,,,,
0,37,2:14.221.187,57.000 us,1 B,,SP,55,Read Transaction,00*,.,,,,,,,,,,
0,38,2:14.221.517,153.700 us,5 B,,SP,55,Write Transaction,50 08 1A 00 03,P....,,Set PPG measurement 1 AFE integration time to 117.3us,,,,,,,,
0,39,2:14.226.936,57.300 us,1 B,,SP,55,Read Transaction,00*,.,,,,,,,,,,
0,40,2:14.227.266,153.700 us,5 B,,SP,55,Write Transaction,50 08 15 01 03,P....,,Set PPG measurement 2 AFE maximum integration time to 117.3us,,,,,,,,
0,41,2:14.232.685,57.000 us,1 B,,SP,55,Read Transaction,00*,.,,,,,,,,,,
0,42,2:14.233.014,153.700 us,5 B,,SP,55,Write Transaction,50 08 15 02 03,P....,,Set PPG measurement 3 AFE maximum integration time to 117.3us,,,,,,,,
0,43,2:14.238.433,57.100 us,1 B,,SP,55,Read Transaction,00*,.,,,,,,,,,,
0,44,2:14.238.762,153.700 us,5 B,,SP,55,Write Transaction,50 08 1B 00 01,P....,,"Write initial sampling rate and averaging PPG measurement 1 to 25sps, avg = 1",,,,,,,,
0,45,2:14.244.184,57.300 us,1 B,,SP,55,Read Transaction,00*,.,,,,,,,,,,
0,46,2:14.244.515,153.700 us,5 B,,SP,55,Write Transaction,50 08 1B 01 04,P....,,"Write initial sampling rate and averaging PPG measurement 2 to 400sps, avg = 4",,,,,,,,
0,47,2:14.249.934,57.300 us,1 B,,SP,55,Read Transaction,00*,.,,,,,,,,,,
0,48,2:14.250.263,153.700 us,5 B,,SP,55,Write Transaction,50 08 14 01 04,P....,,"Write minimum sampling rate and averaging PPG measurement 2 to 400sps, avg = 4",,,,,,,,
0,49,2:14.255.686,57.100 us,1 B,,SP,55,Read Transaction,00*,.,,,,,,,,,,
0,50,2:14.256.015,153.700 us,5 B,,SP,55,Write Transaction,50 08 16 01 10,P....,,"Write maximum sampling rate and averaging PPG measurement 2 to ???400sps, avg = 4",,,,,,,,
0,51,2:14.261.434,57.200 us,1 B,,SP,55,Read Transaction,00*,.,,CFG_PARAM_WHRM_MAX_F_SMP_OPTION ,,,,,,,128,MEAS_SAMPLE_AVERAGING_MAX
0,52,2:14.261.764,153.700 us,5 B,,SP,55,Write Transaction,50 08 1B 02 04,P....,,"Write initial sampling rate and averaging PPG measurement 3 to 400sps, avg = 4",,,,,,,,
0,53,2:14.267.183,57.200 us,1 B,,SP,55,Read Transaction,00*,.,,,,,,,,,,
0,54,2:14.267.512,153.600 us,5 B,,SP,55,Write Transaction,50 08 14 02 04,P....,,"Write minimum sampling rate and averaging PPG measurement 3 to 400sps, avg = 4",,,,,,,,
0,55,2:14.272.932,57.100 us,1 B,,SP,55,Read Transaction,00*,.,,,,,,,,,,
0,56,2:14.273.262,153.900 us,5 B,,SP,55,Write Transaction,50 08 16 02 10,P....,,"Write maximum sampling rate and averaging PPG measurement 3 to ???400sps, avg = 16",,,,,,,,
0,57,2:14.278.689,57.200 us,1 B,,SP,55,Read Transaction,00*,.,,,,,,,,,,
0,58,2:14.279.020,153.900 us,5 B,,SP,55,Write Transaction,50 08 0F 00 7D,P...},,Write minimum PD current 12.5uA,,,,,,,,
0,59,2:14.284.442,57.100 us,1 B,,SP,55,Read Transaction,00*,.,,,,,,,,,,
0,60,2:14.284.771,153.700 us,5 B,,SP,55,Write Transaction,50 08 10 01 38,P...8,,Write initial PD current 31.2,,,,,,,,
0,61,2:14.290.193,57.100 us,1 B,,SP,55,Read Transaction,00*,.,,,,,,,,,,
0,62,2:14.290.524,153.700 us,5 B,,SP,55,Write Transaction,50 08 0D 07 08,P....,def,Write adjusted target PD current period 1800s,,,,,,,,
0,63,2:14.295.944,57.000 us,1 B,,SP,55,Read Transaction,00*,.,,,,,,,,,,
0,64,2:14.296.273,153.700 us,5 B,,SP,55,Write Transaction,50 08 0E 00 32,P...2,,"Write HR motion magnitude  threshold, .05g",,,,,,,,
0,65,2:14.301.693,57.000 us,1 B,,SP,55,Read Transaction,00*,.,,,,,,,,,,
0,66,2:14.302.022,153.700 us,5 B,,SP,55,Write Transaction,50 08 23 00 00,P.#..,,"Write DAC offset for PD channel 1, PPG measurement 1 , 0uA",,,,,,,,
0,67,2:14.307.441,57.600 us,1 B,,SP,55,Read Transaction,00*,.,,,,,,,,,,
0,68,2:14.307.771,153.600 us,5 B,,SP,55,Write Transaction,50 08 24 00 00,P.$..,,"Write DAC offset for PD channel 2, PPG measurement 1 , 0uA",,,,,,,,
0,69,2:14.313.190,57.300 us,1 B,,SP,55,Read Transaction,00*,.,,,,,,,,,,
0,70,2:14.313.520,153.700 us,5 B,,SP,55,Write Transaction,50 08 1C 00 00,P....,,Set the maximum DAC offset for PPG measurement 1 to 0,,,,,,,,
0,71,2:14.318.940,57.100 us,1 B,,SP,55,Read Transaction,00*,.,,,,,,,,,,
0,72,2:14.319.269,153.700 us,5 B,,SP,55,Write Transaction,50 08 23 01 00,P.#..,,Set the DAC offset for PD channel 1  for PPG measurement 2 ,,,,,,,,
0,73,2:14.324.689,57.600 us,1 B,,SP,55,Read Transaction,00*,.,,,,,,,,,,
0,74,2:14.325.018,153.700 us,5 B,,SP,55,Write Transaction,50 08 24 01 00,P.$..,,,,,,,,,,
0,75,2:14.330.437,57.300 us,1 B,,SP,55,Read Transaction,00*,.,,,,,,,,,,
0,76,2:14.330.766,153.600 us,5 B,,SP,55,Write Transaction,50 08 23 02 00,P.#..,,,,,,,,,,
0,77,2:14.336.187,57.600 us,1 B,,SP,55,Read Transaction,00*,.,,,,,,,,,,
0,78,2:14.336.519,153.700 us,5 B,,SP,55,Write Transaction,50 08 24 02 00,P.$..,,,,,,,,,,
0,79,2:14.341.940,57.300 us,1 B,,SP,55,Read Transaction,00*,.,,,,,,,,,,
0,80,2:14.342.270,178.600 us,6 B,,SP,55,Write Transaction,50 08 25 00 00 64,P.%..d,,,,,,,,,,
0,81,2:14.347.716,57.200 us,1 B,,SP,55,Read Transaction,00*,.,,,,,,,,,,
0,82,2:14.348.046,178.500 us,6 B,,SP,55,Write Transaction,50 08 25 01 00 C8,P.%...,,,,,,,,,,
0,83,2:14.353.489,57.100 us,1 B,,SP,55,Read Transaction,00*,.,,,,,,,,,,
0,84,2:14.353.819,178.400 us,6 B,,SP,55,Write Transaction,50 08 25 02 00 C8,P.%...,,,,,,,,,,
0,85,2:14.359.263,57.200 us,1 B,,SP,55,Read Transaction,00*,.,,,,,,,,,,
0,86,2:14.359.593,153.700 us,5 B,,SP,55,Write Transaction,50 08 11 01 38,P...8,,,,,,,,,,
0,87,2:14.365.013,57.200 us,1 B,,SP,55,Read Transaction,00*,.,,,,,,,,,,
0,88,2:14.365.343,129.000 us,4 B,,SP,55,Write Transaction,50 08 0C 01,P...,,,,,,,,,,
0,89,2:14.370.741,57.100 us,1 B,,SP,55,Read Transaction,00*,.,,,,,,,,,,
0,90,2:14.371.072,103.900 us,3 B,,SP,55,Write Transaction,10 00 07,...,,,,,,,,,,
0,91,2:14.376.443,57.000 us,1 B,,SP,55,Read Transaction,00*,.,,,,,,,,,,
0,92,2:14.376.772,103.900 us,3 B,,SP,55,Write Transaction,10 02 05,...,,Set the WAS algorithm operation mode.,,,,,,,,
0,93,2:14.382.142,57.000 us,1 B,,SP,55,Read Transaction,00*,.,,CFG_PARAM_ALGO_MODE,,,,algo_suite_mode,,,,
0,94,2:14.382.471,128.800 us,4 B,,SP,55,Write Transaction,40 06 10 01,@...,,,,,,,,,,
0,95,2:14.387.866,57.300 us,1 B,,SP,55,Read Transaction,00*,.,,,,,,,,,,
0,96,2:14.388.195,128.800 us,4 B,,SP,55,Write Transaction,40 06 10 02,@...,,,,,,,,,,
0,97,2:14.393.590,57.300 us,1 B,,SP,55,Read Transaction,00*,.,,,,,,,,,,
0,98,2:14.393.919,128.800 us,4 B,,SP,55,Write Transaction,40 06 15 1E,@...,,,,,,,,,,
0,99,2:14.399.314,57.300 us,1 B,,SP,55,Read Transaction,00*,.,,,,,,,,,,
0,100,2:14.399.643,128.800 us,4 B,,SP,55,Write Transaction,40 06 18 80,@...,,,,,,,,,,
0,101,2:14.405.038,57.400 us,1 B,,SP,55,Read Transaction,00*,.,,,,,,,,,,
0,102,2:14.405.367,128.800 us,4 B,,SP,55,Write Transaction,40 06 19 9F,@...,,,,,,,,,,
0,103,2:14.410.761,57.300 us,1 B,,SP,55,Read Transaction,00*,.,,,,,,,,,,
0,104,2:14.411.091,128.800 us,4 B,,SP,55,Write Transaction,40 06 1A 3F,@..?,,,,,,,,,,
0,105,2:14.416.485,57.300 us,1 B,,SP,55,Read Transaction,00*,.,,,,,,,,,,
0,106,2:14.416.815,128.800 us,4 B,,SP,55,Write Transaction,40 06 1C 20,@.. ,,,,,,,,,,
0,107,2:14.422.212,57.300 us,1 B,,SP,55,Read Transaction,00*,.,,,,,,,,,,
0,108,2:14.422.542,128.800 us,4 B,,SP,55,Write Transaction,40 06 1D 05,@...,,,,,,,,,,
0,109,2:14.427.933,57.300 us,1 B,,SP,55,Read Transaction,00*,.,,,,,,,,,,
0,110,2:14.428.263,128.800 us,4 B,,SP,55,Write Transaction,40 06 1E 1F,@...,,,,,,,,,,
0,111,2:14.433.658,57.300 us,1 B,,SP,55,Read Transaction,00*,.,,,,,,,,,,
0,112,2:14.433.987,128.800 us,4 B,,SP,55,Write Transaction,40 06 0D E8,@...,,,,,,,,,,
0,113,2:14.439.382,57.300 us,1 B,,SP,55,Read Transaction,00*,.,,,,,,,,,,
0,114,2:14.439.711,128.800 us,4 B,,SP,55,Write Transaction,40 06 86 80,@...,,,,,,,,,,
0,115,2:14.445.105,57.400 us,1 B,,SP,55,Read Transaction,00*,.,,,,,,,,,,
0,116,2:14.445.433,128.800 us,4 B,,SP,55,Write Transaction,44 04 01 00,D...,,,,,,,,,,
0,117,2:14.945.059,57.800 us,1 B,,SP,55,Read Transaction,00*,.,,,,,,,,,,
0,118,2:14.945.388,128.800 us,4 B,,SP,55,Write Transaction,44 06 01 00,D...,,,,,,,,,,
0,119,2:15.444.981,57.600 us,1 B,,SP,55,Read Transaction,00*,.,,,,,,,,,,
0,120,2:15.445.312,128.800 us,4 B,,SP,55,Write Transaction,50 08 40 03,P.@.,,,,,,,,,,
0,121,2:15.450.706,57.000 us,1 B,,SP,55,Read Transaction,00*,.,,,,,,,,,,
0,122,2:15.451.082,128.800 us,4 B,,SP,55,Write Transaction,50 08 51 00,P.Q.,,,,,,,,,,
0,123,2:15.456.479,57.100 us,1 B,,SP,55,Read Transaction,00*,.,,,,,,,,,,
0,124,2:15.456.808,103.900 us,3 B,,SP,55,Write Transaction,52 08 02,R..,,Enable the biometric operation mode for BPT+WAS extended  report algorithm,,,,,,,,
0,125,2:15.956.371,60.300 us,1 B,,SP,55,Read Transaction,00*,.,,,,,,,,,,
0,126,2:15.956.790,79.000 us,2 B,,SP,55,Write Transaction,00 00,..,,,,,,,,,,
0,127,2:15.962.136,81.900 us,2 B,,SP,55,Read Transaction,00 08*,..,,,,,,,,,,
0,128,2:15.962.494,79.000 us,2 B,,SP,55,Write Transaction,12 01,..,,,,,,,,,,
0,129,2:15.970.835,2.322.200 ms,92 B,,SP,55,Read Transaction,00 04 FD 6B 02 52 01 E4 02 B9 26 02 B8 AB B7 FF FF B7 FF FF B7 FF FF B7 FF FF 02 02 58 00 00 00 00 01 00 00 00 00 00 00 00 00 00 00 00 02 00 00 00 00 00 00 00 00 00 00 00 00 00 00 00 00 00 00 00 00 00 00 00 00 00 00 80 00 00 00 00 80 00 00 00 00 00 00 04 00 00 00 00 00 00 00*,...k.R....&.............…,,,,,,,,,,
0,130,2:15.976.517,79.000 us,2 B,,SP,55,Write Transaction,00 00,..,,,,,,,,,,
0,131,2:15.981.864,82.000 us,2 B,,SP,55,Read Transaction,00 08*,..,,,,,,,,,,
0,132,2:15.982.222,79.100 us,2 B,,SP,55,Write Transaction,12 01,..,,,,,,,,,,
0,133,2:15.990.561,2.324.600 ms,92 B,,SP,55,Read Transaction,00 09 FD 6E 02 59 01 E1 02 B8 C4 02 B8 50 1F FF FD 1F FF FD 20 00 03 20 00 03 02 02 58 00 00 00 00 01 00 00 00 00 00 00 00 00 00 00 00 02 00 00 00 00 00 00 00 00 00 00 00 00 00 00 00 00 81 18 00 00 00 81 18 00 00 00 00 00 00 00 00 00 00 00 00 00 02 01 04 00 00 00 00 00 00 00*,...n.Y.......P...... .. …,,,,,,,,,,
0,134,2:15.996.526,79.000 us,2 B,,SP,55,Write Transaction,00 00,..,,,,,,,,,,
0,135,2:16.001.874,81.900 us,2 B,,SP,55,Read Transaction,00 08*,..,,,,,,,,,,
0,136,2:16.002.234,79.000 us,2 B,,SP,55,Write Transaction,12 01,..,,,,,,,,,,
0,137,2:16.010.575,2.324.600 ms,92 B,,SP,55,Read Transaction,00 0E FD 6E 02 54 01 DD 02 8F DB 02 8F 6B 10 00 07 10 00 08 20 00 03 20 00 05 02 02 58 00 00 00 00 01 00 00 00 00 00 00 00 00 00 00 00 02 00 00 00 00 00 00 00 00 00 00 00 00 00 00 00 00 81 0E 00 00 00 81 0E 00 00 00 00 00 00 00 00 00 00 00 00 00 02 01 04 00 00 00 00 00 00 00*,...n.T.......k...... .. …,,,,,,,,,,
0,138,2:16.016.547,79.000 us,2 B,,SP,55,Write Transaction,00 00,..,,,,,,,,,,
0,139,2:16.021.894,81.900 us,2 B,,SP,55,Read Transaction,00 08*,..,,,,,,,,,,
0,140,2:16.022.252,79.000 us,2 B,,SP,55,Write Transaction,12 01,..,,,,,,,,,,
0,141,2:16.030.591,2.325.100 ms,92 B,,SP,55,Read Transaction,00 13 FD 6F 02 59 01 E1 02 66 5B 02 65 F5 10 00 03 10 00 02 2F FF F8 2F FF F7 02 02 58 00 00 00 00 01 00 00 00 00 00 00 00 00 00 00 00 02 00 00 00 00 00 00 00 00 00 00 00 00 00 00 00 00 00 00 00 00 00 00 00 00 00 00 00 00 00 00 00 00 00 00 00 00 02 01 04 00 00 00 00 00 00 00*,...o.Y...f[.e......./../…,,,,,,,,,,
0,142,2:16.036.567,79.000 us,2 B,,SP,55,Write Transaction,00 00,..,,,,,,,,,,
0,143,2:16.041.940,82.000 us,2 B,,SP,55,Read Transaction,00 08*,..,,,,,,,,,,
0,144,2:16.042.307,79.000 us,2 B,,SP,55,Write Transaction,12 01,..,,,,,,,,,,
0,145,2:16.050.647,2.320.300 ms,92 B,,SP,55,Read Transaction,00 18 FD 6C 02 55 01 E0 02 67 14 02 66 B0 1F FF FC 1F FF FF 20 00 07 20 00 0A 02 02 58 00 00 00 00 01 00 00 00 00 00 00 00 00 00 00 00 02 00 00 00 00 00 00 00 00 00 00 00 00 00 00 00 00 00 00 00 00 00 00 00 00 00 00 00 00 00 00 00 00 00 00 00 00 02 01 04 00 00 00 00 00 00 00*,...l.U...g..f....... .. …,,,,,,,,,,
0,146,2:16.056.583,79.000 us,2 B,,SP,55,Write Transaction,00 00,..,,,,,,,,,,
0,147,2:16.061.928,82.000 us,2 B,,SP,55,Read Transaction,00 08*,..,,,,,,,,,,
0,148,2:16.062.286,79.000 us,2 B,,SP,55,Write Transaction,12 01,..,,,,,,,,,,
0,149,2:16.070.625,2.325.000 ms,92 B,,SP,55,Read Transaction,00 1D FD 6E 02 57 01 DA 02 67 F1 02 67 8A 1F FF FC 1F FF FE 20 00 09 20 00 09 02 02 58 00 00 00 00 01 00 00 00 00 00 00 00 00 00 00 00 02 00 00 00 00 00 00 00 00 00 00 00 00 00 00 00 00 00 00 00 00 00 00 00 00 00 00 00 00 00 00 00 00 00 00 00 00 02 01 04 00 00 00 00 00 00 00*,...n.W...g..g....... .. …,,,,,,,,,,
0,150,2:16.076.602,79.000 us,2 B,,SP,55,Write Transaction,00 00,..,,,,,,,,,,
0,151,2:16.081.949,81.900 us,2 B,,SP,55,Read Transaction,00 08*,..,,,,,,,,,,
0,152,2:16.082.307,79.000 us,2 B,,SP,55,Write Transaction,12 01,..,,,,,,,,,,
0,153,2:16.090.648,2.322.300 ms,92 B,,SP,55,Read Transaction,00 22 FD 69 02 59 01 E2 02 69 24 02 68 BC 1F FF F4 1F FF F4 20 00 04 20 00 04 02 02 58 00 00 00 00 01 00 00 00 00 00 00 00 00 00 00 00 02 00 00 00 00 00 00 00 00 00 00 00 00 00 00 00 00 00 00 00 00 00 00 00 00 00 00 00 00 00 00 00 00 00 00 00 00 02 01 04 00 00 00 00 00 00 00*,"."".i.Y...i$.h....... .. …",,,,,,,,,,
0,154,2:16.096.631,79.100 us,2 B,,SP,55,Write Transaction,00 00,..,,,,,,,,,,
0,155,2:16.101.977,82.000 us,2 B,,SP,55,Read Transaction,00 08*,..,,,,,,,,,,
0,156,2:16.102.336,79.000 us,2 B,,SP,55,Write Transaction,12 01,..,,,,,,,,,,
0,157,2:16.110.676,2.325.100 ms,92 B,,SP,55,Read Transaction,00 27 FD 6B 02 5E 01 DD 02 6A 82 02 6A 1E 1F FF F5 1F FF F4 2F FF F8 2F FF F8 02 02 58 00 00 00 00 01 00 00 00 00 00 00 00 00 00 00 00 02 00 00 00 00 00 00 00 00 00 00 00 00 00 00 00 00 00 00 00 00 00 00 00 00 00 00 00 00 00 00 00 00 00 00 00 00 02 01 04 00 00 00 00 00 00 00*,.'.k.^...j..j......./../…,,,,,,,,,,
0,158,2:16.116.400,79.100 us,2 B,,SP,55,Write Transaction,00 00,..,,,,,,,,,,
0,159,2:16.121.746,81.900 us,2 B,,SP,55,Read Transaction,00 08*,..,,,,,,,,,,
0,160,2:16.122.104,79.000 us,2 B,,SP,55,Write Transaction,12 01,..,,,,,,,,,,
0,161,2:16.130.443,2.322.400 ms,92 B,,SP,55,Read Transaction,00 2C FD 6A 02 56 01 DF 02 6B E9 02 6B 85 1F FF FF 1F FF FE 2F FF F7 2F FF FB 02 02 58 00 00 00 00 01 00 00 00 00 00 00 00 00 00 00 00 02 00 00 00 00 00 00 00 00 00 00 00 00 00 00 00 00 00 00 00 00 00 00 00 00 00 00 00 00 00 00 00 00 00 00 00 00 02 01 04 00 00 00 00 00 00 00*,.,.j.V...k..k......./../…,,,,,,,,,
0,162,2:16.136.442,79.200 us,2 B,,SP,55,Write Transaction,00 00,..,,,,,,,,,,
0,163,2:16.141.795,81.900 us,2 B,,SP,55,Read Transaction,00 08*,..,,,,,,,,,,
0,164,2:16.142.155,79.000 us,2 B,,SP,55,Write Transaction,12 01,..,,,,,,,,,,
0,165,2:16.150.495,2.325.100 ms,92 B,,SP,55,Read Transaction,00 31 FD 6D 02 54 01 DD 02 6D 99 02 6D 33 10 00 0B 10 00 0C 2F FF F4 2F FF F5 02 02 58 00 00 00 00 01 00 00 00 00 00 00 00 00 00 00 00 02 00 00 00 00 00 00 00 00 00 00 00 00 00 00 00 00 00 00 00 00 00 00 00 00 00 00 00 00 00 00 00 00 00 00 00 00 02 01 04 00 00 00 00 00 00 00*,.1.m.T...m..m3....../../…,,,,,,,,,,
0,166,2:16.156.434,79.000 us,2 B,,SP,55,Write Transaction,00 00,..,,,,,,,,,,
0,167,2:16.161.780,82.100 us,2 B,,SP,55,Read Transaction,00 08*,..,,,,,,,,,,
0,168,2:16.162.139,79.000 us,2 B,,SP,55,Write Transaction,12 01,..,,,,,,,,,,
0,169,2:16.170.479,2.322.400 ms,92 B,,SP,55,Read Transaction,00 36 FD 6A 02 56 01 DB 02 6F 5C 02 6E FA 1F FF F7 1F FF F7 20 00 01 20 00 02 02 02 58 00 00 00 00 01 00 00 00 00 00 00 00 00 00 00 00 02 00 00 00 00 00 00 00 00 00 00 00 00 00 00 00 00 00 00 00 00 00 00 00 00 00 00 00 00 00 00 00 00 00 00 00 00 02 01 04 00 00 00 00 00 00 00*,.6.j.V...o\.n....... .. …,,,,,,,,,,
0,170,2:16.176.461,79.000 us,2 B,,SP,55,Write Transaction,00 00,..,,,,,,,,,,
0,171,2:16.181.810,81.900 us,2 B,,SP,55,Read Transaction,00 08*,..,,,,,,,,,,
0,172,2:16.182.170,79.000 us,2 B,,SP,55,Write Transaction,12 01,..,,,,,,,,,,
0,173,2:16.190.510,2.325.200 ms,92 B,,SP,55,Read Transaction,00 3B FD 6F 02 55 01 E0 02 71 1A 02 70 B2 10 00 02 10 00 01 2F FF FA 2F FF FB 02 02 58 00 00 00 00 01 00 00 00 00 00 00 00 00 00 00 00 02 00 00 00 00 00 00 00 00 00 00 00 00 00 00 00 00 00 00 00 00 00 00 00 00 00 00 00 00 00 00 00 00 00 00 00 00 02 01 04 00 00 00 00 00 00 00*,.;.o.U...q..p......./../…,,,,,,,,,,
0,174,2:16.196.468,79.000 us,2 B,,SP,55,Write Transaction,00 00,..,,,,,,,,,,
0,175,2:16.201.814,81.900 us,2 B,,SP,55,Read Transaction,00 08*,..,,,,,,,,,,
0,176,2:16.202.172,78.900 us,2 B,,SP,55,Write Transaction,12 01,..,,,,,,,,,,
0,177,2:16.210.511,2.322.100 ms,92 B,,SP,55,Read Transaction,00 40 FD 6D 02 55 01 D8 02 72 D0 02 72 66 10 00 03 10 00 01 20 00 01 20 00 00 02 02 58 00 00 00 00 01 00 00 00 00 00 00 00 00 00 00 00 02 00 00 00 00 00 00 00 00 00 00 00 00 00 00 00 00 00 00 00 00 00 00 00 00 00 00 00 00 00 00 00 00 00 00 00 00 02 01 04 00 00 00 00 00 00 00*,.@.m.U...r..rf...... .. …,,,,,,,,,,
0,178,2:16.216.484,79.000 us,2 B,,SP,55,Write Transaction,00 00,..,,,,,,,,,,
0,179,2:16.221.833,81.900 us,2 B,,SP,55,Read Transaction,00 08*,..,,,,,,,,,,
0,180,2:16.222.193,79.000 us,2 B,,SP,55,Write Transaction,12 01,..,,,,,,,,,,
0,181,2:16.230.535,2.325.300 ms,92 B,,SP,55,Read Transaction,00 45 FD 6B 02 55 01 DE 02 74 74 02 74 08 1F FF F6 1F FF F6 20 00 08 20 00 08 02 02 58 00 00 00 00 01 00 00 00 00 00 00 00 00 00 00 00 02 00 00 00 00 00 00 00 00 00 00 00 00 00 00 00 00 00 00 00 00 00 00 00 00 00 00 00 00 00 00 00 00 00 00 00 00 02 01 04 00 00 00 00 00 00 00*,.E.k.U...tt.t....... .. …,,,,,,,,,,
0,182,2:16.236.509,78.900 us,2 B,,SP,55,Write Transaction,00 00,..,,,,,,,,,,
0,183,2:16.241.854,82.000 us,2 B,,SP,55,Read Transaction,00 08*,..,,,,,,,,,,
0,184,2:16.242.212,79.000 us,2 B,,SP,55,Write Transaction,12 01,..,,,,,,,,,,
0,185,2:16.250.551,2.322.200 ms,92 B,,SP,55,Read Transaction,00 4A FD 6A 02 54 01 E2 02 76 3C 02 75 CD 1F FF F3 1F FF F3 2F FF FD 2F FF FD 02 02 58 00 00 00 00 01 00 00 00 00 00 00 00 00 00 00 00 02 00 00 00 00 00 00 00 00 00 00 00 00 00 00 00 00 00 00 00 00 00 00 00 00 00 00 00 00 00 00 00 00 00 00 00 00 02 01 04 00 00 00 00 00 00 00*,.J.j.T...v<.u......./../…,,,,,,,,,,
0,186,2:16.256.524,79.000 us,2 B,,SP,55,Write Transaction,00 00,..,,,,,,,,,,
0,187,2:16.261.870,82.000 us,2 B,,SP,55,Read Transaction,00 00*,..,,,,,,,,,,
0,188,2:16.276.546,79.000 us,2 B,,SP,55,Write Transaction,00 00,..,,,,,,,,,,
0,189,2:16.281.892,82.300 us,2 B,,SP,55,Read Transaction,00 08*,..,,,,,,,,,,
0,190,2:16.282.251,79.000 us,2 B,,SP,55,Write Transaction,12 01,..,,,,,,,,,,
0,191,2:16.290.589,2.322.300 ms,92 B,,SP,55,Read Transaction,00 4F FD 6F 02 58 01 DE 02 77 3D 02 76 D7 10 00 07 10 00 0A 2F FF FC 2F FF FD 02 02 58 00 00 00 00 01 00 00 00 00 00 00 00 00 00 00 00 02 00 00 00 00 00 00 00 00 00 00 00 00 00 00 00 00 00 00 00 00 00 00 00 00 00 00 00 00 00 00 00 00 00 00 00 00 02 01 04 00 00 00 00 00 00 00*,.O.o.X...w=.v......./../…,,,,,,,,,,
0,192,2:16.296.574,79.000 us,2 B,,SP,55,Write Transaction,00 00,..,,,,,,,,,,
0,193,2:16.301.926,82.000 us,2 B,,SP,55,Read Transaction,00 00*,..,,,,,,,,,,
0,194,2:16.316.587,79.100 us,2 B,,SP,55,Write Transaction,00 00,..,,,,,,,,,,
0,195,2:16.321.934,82.300 us,2 B,,SP,55,Read Transaction,00 00*,..,,,,,,,,,,
0,196,2:16.336.603,79.000 us,2 B,,SP,55,Write Transaction,00 00,..,,,,,,,,,,
0,197,2:16.341.949,81.800 us,2 B,,SP,55,Read Transaction,00 00*,..,,,,,,,,,,
0,198,2:16.356.392,79.000 us,2 B,,SP,55,Write Transaction,00 00,..,,,,,,,,,,
0,199,2:16.361.738,82.200 us,2 B,,SP,55,Read Transaction,00 08*,..,,,,,,,,,,
0,200,2:16.362.097,79.100 us,2 B,,SP,55,Write Transaction,12 01,..,,,,,,,,,,
0,201,2:16.370.438,2.323.100 ms,92 B,,SP,55,Read Transaction,00 54 FD 6D 02 55 01 DC 02 76 A5 02 76 3E 1F FF FE 1F FF FC 20 00 02 20 00 02 02 02 58 00 00 00 00 01 00 00 00 00 00 00 00 00 00 00 00 02 00 00 00 00 00 00 00 00 00 00 00 00 00 00 00 00 00 00 00 00 00 00 00 00 00 00 00 00 00 00 00 00 00 00 00 00 02 01 04 00 00 00 00 00 00 00*,.T.m.U...v..v>...... .. …,,,,,,,,,,
0,202,2:16.376.390,79.000 us,2 B,,SP,55,Write Transaction,00 00,..,,,,,,,,,,
0,203,2:16.381.741,82.000 us,2 B,,SP,55,Read Transaction,00 00*,..,,,,,,,,,,
0,204,2:16.396.409,79.000 us,2 B,,SP,55,Write Transaction,00 00,..,,,,,,,,,,
0,205,2:16.401.757,82.300 us,2 B,,SP,55,Read Transaction,00 08*,..,,,,,,,,,,
0,206,2:16.402.117,79.100 us,2 B,,SP,55,Write Transaction,12 01,..,,,,,,,,,,
0,207,2:16.410.459,2.322.500 ms,92 B,,SP,55,Read Transaction,00 59 FD 6B 02 53 01 E1 02 75 98 02 75 36 1F FF FD 1F FF FF 20 00 07 20 00 07 02 02 58 00 00 00 00 01 00 00 00 00 00 00 00 00 00 00 00 02 00 00 00 00 00 00 00 00 00 00 00 00 00 00 00 00 00 00 00 00 00 00 00 00 00 00 00 00 00 00 00 00 00 00 00 00 02 01 04 00 00 00 00 00 00 00*,.Y.k.S...u..u6...... .. …,,,,,,,,,,
0,208,2:16.416.433,79.000 us,2 B,,SP,55,Write Transaction,00 00,..,,,,,,,,,,
0,209,2:16.421.779,81.900 us,2 B,,SP,55,Read Transaction,00 00*,..,,,,,,,,,,
0,210,2:16.436.446,79.000 us,2 B,,SP,55,Write Transaction,00 00,..,,,,,,,,,,
0,211,2:16.441.792,82.200 us,2 B,,SP,55,Read Transaction,00 08*,..,,,,,,,,,,
0,212,2:16.442.150,79.000 us,2 B,,SP,55,Write Transaction,12 01,..,,,,,,,,,,
0,213,2:16.450.490,2.322.500 ms,92 B,,SP,55,Read Transaction,00 5E FD 6E 02 5B 01 DE 02 74 C2 02 74 58 1F FF F9 1F FF F8 2F FF FE 2F FF FF 02 02 58 00 00 00 00 01 00 00 00 00 00 00 00 00 00 00 00 02 00 00 00 00 00 00 00 00 00 00 00 00 00 00 00 00 00 00 00 00 00 00 00 00 00 00 00 00 00 00 00 00 00 00 00 00 02 01 04 00 00 00 00 00 00 00*,.^.n.[...t..tX....../../…,,,,,,,,,,
0,214,2:16.456.479,79.100 us,2 B,,SP,55,Write Transaction,00 00,..,,,,,,,,,,
0,215,2:16.461.826,81.900 us,2 B,,SP,55,Read Transaction,00 00*,..,,,,,,,,,,
0,216,2:16.476.490,79.000 us,2 B,,SP,55,Write Transaction,00 00,..,,,,,,,,,,
0,217,2:16.481.836,82.200 us,2 B,,SP,55,Read Transaction,00 08*,..,,,,,,,,,,
0,218,2:16.482.194,79.000 us,2 B,,SP,55,Write Transaction,12 01,..,,,,,,,,,,
0,219,2:16.490.536,2.322.600 ms,92 B,,SP,55,Read Transaction,00 63 FD 68 02 57 01 DB 02 74 9D 02 74 34 10 00 07 10 00 07 2F FF F4 2F FF F6 02 02 58 00 00 00 00 01 00 00 00 00 00 00 00 00 00 00 00 02 00 00 00 00 00 00 00 00 00 00 00 00 00 00 00 00 00 00 00 00 00 00 00 00 00 00 00 00 00 00 00 00 00 00 00 00 02 01 00 00 00 00 00 00 00 00*,.c.h.W...t..t4....../../…,,,,,,,,,,
0,220,2:16.496.518,79.100 us,2 B,,SP,55,Write Transaction,00 00,..,,,,,,,,,,
0,221,2:16.501.865,81.900 us,2 B,,SP,55,Read Transaction,00 00*,..,,,,,,,,,,
0,222,2:16.516.531,79.000 us,2 B,,SP,55,Write Transaction,00 00,..,,,,,,,,,,
0,223,2:16.521.877,82.300 us,2 B,,SP,55,Read Transaction,00 00*,..,,,,,,,,,,
0,224,2:16.536.545,79.000 us,2 B,,SP,55,Write Transaction,00 00,..,,,,,,,,,,
0,225,2:16.541.894,81.900 us,2 B,,SP,55,Read Transaction,00 00*,..,,,,,,,,,,
0,226,2:16.556.566,79.000 us,2 B,,SP,55,Write Transaction,00 00,..,,,,,,,,,,
0,227,2:16.561.915,82.300 us,2 B,,SP,55,Read Transaction,00 08*,..,,,,,,,,,,
0,228,2:16.562.274,79.100 us,2 B,,SP,55,Write Transaction,12 01,..,,,,,,,,,,
0,229,2:16.570.625,2.324.600 ms,92 B,,SP,55,Read Transaction,00 68 FD 69 02 52 01 D7 02 74 AA 02 74 40 10 00 0E 10 00 0D 20 00 07 20 00 08 02 02 58 00 00 00 00 01 00 00 00 00 00 00 00 00 00 00 00 02 00 00 00 00 00 00 00 00 00 00 00 00 00 00 00 00 00 00 00 00 00 00 00 00 00 00 00 00 00 00 00 00 00 00 00 00 02 01 00 00 00 00 00 00 00 00*,.h.i.R...t..t@...... .. …,,,,,,,,,,
0,230,2:16.576.592,79.000 us,2 B,,SP,55,Write Transaction,00 00,..,,,,,,,,,,
0,231,2:16.581.946,82.100 us,2 B,,SP,55,Read Transaction,00 00*,..,,,,,,,,,,
0,232,2:16.596.605,79.000 us,2 B,,SP,55,Write Transaction,00 00,..,,,,,,,,,,
0,233,2:16.601.951,82.200 us,2 B,,SP,55,Read Transaction,00 08*,..,,,,,,,,,,
0,234,2:16.602.309,79.100 us,2 B,,SP,55,Write Transaction,12 01,..,,,,,,,,,,
0,235,2:16.610.647,2.322.100 ms,92 B,,SP,55,Read Transaction,00 6D FD 65 02 59 01 DC 02 74 FB 02 74 91 1F FF FC 1F FF FC 2F FF F9 2F FF FB 02 02 58 00 00 00 00 01 00 00 00 00 00 00 00 00 00 00 00 02 00 00 00 00 00 00 00 00 00 00 00 00 00 00 00 00 00 00 00 00 00 00 00 00 00 00 00 00 00 00 00 00 00 00 00 00 02 01 00 00 00 00 00 00 00 00*,.m.e.Y...t..t......./../…,,,,,,,,,,
0,236,2:16.616.375,79.100 us,2 B,,SP,55,Write Transaction,00 00,..,,,,,,,,,,
0,237,2:16.621.729,82.000 us,2 B,,SP,55,Read Transaction,00 00*,..,,,,,,,,,,
0,238,2:16.636.394,79.200 us,2 B,,SP,55,Write Transaction,00 00,..,,,,,,,,,,
0,239,2:16.641.745,82.300 us,2 B,,SP,55,Read Transaction,00 08*,..,,,,,,,,,,
0,240,2:16.642.104,79.100 us,2 B,,SP,55,Write Transaction,12 01,..,,,,,,,,,,
0,241,2:16.650.444,2.322.300 ms,92 B,,SP,55,Read Transaction,00 72 FD 67 02 54 01 D5 02 75 89 02 75 1F 1F FF FE 1F FF FC 20 00 0D 20 00 0E 02 02 58 00 00 00 00 01 00 00 00 00 00 00 00 00 00 00 00 02 00 00 00 00 00 00 00 00 00 00 00 00 00 00 00 00 00 00 00 00 00 00 00 00 00 00 00 00 00 00 00 00 00 00 00 00 02 01 00 00 00 00 00 00 00 00*,.r.g.T...u..u....... .. …,,,,,,,,,,
0,242,2:16.656.410,79.100 us,2 B,,SP,55,Write Transaction,00 00,..,,,,,,,,,,
0,243,2:16.661.757,81.900 us,2 B,,SP,55,Read Transaction,00 00*,..,,,,,,,,,,
0,244,2:16.676.437,79.000 us,2 B,,SP,55,Write Transaction,00 00,..,,,,,,,,,,
0,245,2:16.681.783,82.300 us,2 B,,SP,55,Read Transaction,00 08*,..,,,,,,,,,,
0,246,2:16.682.142,79.000 us,2 B,,SP,55,Write Transaction,12 01,..,,,,,,,,,,
0,247,2:16.690.482,2.322.400 ms,92 B,,SP,55,Read Transaction,00 77 FD 6B 02 58 01 D5 02 76 25 02 75 B8 10 00 02 10 00 02 20 00 02 20 00 02 02 02 58 00 00 00 00 01 00 00 00 00 00 00 00 00 00 00 00 02 00 00 00 00 00 00 00 00 00 00 00 00 00 00 00 00 00 00 00 00 00 00 00 00 00 00 00 00 00 00 00 00 00 00 00 00 02 01 00 00 00 00 00 00 00 00*,.w.k.X...v%.u....... .. …,,,,,,,,,,
0,248,2:16.696.448,79.000 us,2 B,,SP,55,Write Transaction,00 00,..,,,,,,,,,,
0,249,2:16.701.796,82.100 us,2 B,,SP,55,Read Transaction,00 00*,..,,,,,,,,,,
0,250,2:16.716.475,79.000 us,2 B,,SP,55,Write Transaction,00 00,..,,,,,,,,,,
0,251,2:16.721.822,82.200 us,2 B,,SP,55,Read Transaction,00 00*,..,,,,,,,,,,
0,252,2:16.736.483,79.000 us,2 B,,SP,55,Write Transaction,00 00,..,,,,,,,,,,
0,253,2:16.741.828,81.900 us,2 B,,SP,55,Read Transaction,00 00*,..,,,,,,,,,,
0,254,2:16.756.512,79.200 us,2 B,,SP,55,Write Transaction,00 00,..,,,,,,,,,,
0,255,2:16.761.869,82.300 us,2 B,,SP,55,Read Transaction,00 08*,..,,,,,,,,,,
0,256,2:16.762.230,79.100 us,2 B,,SP,55,Write Transaction,12 01,..,,,,,,,,,,
0,257,2:16.770.570,2.322.500 ms,92 B,,SP,55,Read Transaction,00 7C FD 66 02 54 01 D5 02 77 17 02 76 B0 1F FF F7 1F FF F7 20 00 0C 20 00 0B 02 02 58 00 00 00 00 01 00 00 00 00 00 00 00 00 00 00 00 02 00 00 00 00 00 00 00 00 00 00 00 00 00 00 00 00 00 00 00 00 00 00 00 00 00 00 00 00 00 00 00 00 00 00 00 00 02 01 00 00 00 00 00 00 00 00*,.|.f.T...w..v....... .. …,,,,,,,,,,
0,258,2:16.776.524,79.000 us,2 B,,SP,55,Write Transaction,00 00,..,,,,,,,,,,
0,259,2:16.781.870,82.000 us,2 B,,SP,55,Read Transaction,00 00*,..,,,,,,,,,,
0,260,2:16.796.537,79.000 us,2 B,,SP,55,Write Transaction,00 00,..,,,,,,,,,,
0,261,2:16.801.883,82.200 us,2 B,,SP,55,Read Transaction,00 08*,..,,,,,,,,,,
0,262,2:16.802.241,79.000 us,2 B,,SP,55,Write Transaction,12 01,..,,,,,,,,,,
0,263,2:16.810.582,2.321.800 ms,92 B,,SP,55,Read Transaction,00 81 FD 67 02 54 01 D9 02 77 D5 02 77 6A 10 00 0A 10 00 0B 20 00 04 20 00 05 02 02 58 00 00 00 00 01 00 00 00 00 00 00 00 00 00 00 00 02 00 00 00 00 00 00 00 00 00 00 00 00 00 00 00 00 00 00 00 00 00 00 00 00 00 00 00 00 00 00 00 00 00 00 00 00 02 01 00 00 00 00 00 00 00 00*,...g.T...w..wj...... .. …,,,,,,,,,,
0,264,2:16.816.567,79.000 us,2 B,,SP,55,Write Transaction,00 00,..,,,,,,,,,,
0,265,2:16.821.913,82.000 us,2 B,,SP,55,Read Transaction,00 00*,..,,,,,,,,,,
0,266,2:16.836.580,79.100 us,2 B,,SP,55,Write Transaction,00 00,..,,,,,,,,,,
0,267,2:16.841.925,82.300 us,2 B,,SP,55,Read Transaction,00 08*,..,,,,,,,,,,
0,268,2:16.842.284,79.000 us,2 B,,SP,55,Write Transaction,12 01,..,,,,,,,,,,
0,269,2:16.850.625,2.322.400 ms,92 B,,SP,55,Read Transaction,00 86 FD 6B 02 5D 01 D4 02 78 CB 02 78 68 10 00 01 10 00 02 2F FF F5 2F FF F6 02 02 58 00 00 00 00 01 00 00 00 00 00 00 00 00 00 00 00 02 00 00 00 00 00 00 00 00 00 00 00 00 00 00 00 00 00 00 00 00 00 00 00 00 00 00 00 00 00 00 00 00 00 00 00 00 02 01 00 00 00 00 00 00 00 00*,...k.]...x..xh....../../…,,,,,,,,,,
0,270,2:16.856.359,79.000 us,2 B,,SP,55,Write Transaction,00 00,..,,,,,,,,,,
0,271,2:16.861.707,82.000 us,2 B,,SP,55,Read Transaction,00 00*,..,,,,,,,,,,
0,272,2:16.876.371,79.000 us,2 B,,SP,55,Write Transaction,00 00,..,,,,,,,,,,
0,273,2:16.881.716,82.300 us,2 B,,SP,55,Read Transaction,00 08*,..,,,,,,,,,,
0,274,2:16.882.075,79.000 us,2 B,,SP,55,Write Transaction,12 01,..,,,,,,,,,,
0,275,2:16.890.414,2.322.300 ms,92 B,,SP,55,Read Transaction,00 8B FD 64 02 59 01 D8 02 79 C9 02 79 60 10 00 01 10 00 01 20 00 0C 20 00 0A 02 02 58 00 00 00 00 01 00 00 00 00 00 00 00 00 00 00 00 02 00 00 00 00 00 00 00 00 00 00 00 00 00 00 00 00 00 00 00 00 00 00 00 00 00 00 00 00 00 00 00 00 00 00 00 00 02 01 00 00 00 00 00 00 00 00*,...d.Y...y..y`...... .. …,,,,,,,,,,
0,276,2:16.896.462,79.000 us,2 B,,SP,55,Write Transaction,00 00,..,,,,,,,,,,
0,277,2:16.901.811,81.900 us,2 B,,SP,55,Read Transaction,00 00*,..,,,,,,,,,,
0,278,2:16.916.414,79.100 us,2 B,,SP,55,Write Transaction,00 00,..,,,,,,,,,,
0,279,2:16.921.764,82.200 us,2 B,,SP,55,Read Transaction,00 00*,..,,,,,,,,,,
0,280,2:16.936.422,79.000 us,2 B,,SP,55,Write Transaction,00 00,..,,,,,,,,,,
0,281,2:16.941.770,82.000 us,2 B,,SP,55,Read Transaction,00 00*,..,,,,,,,,,,
0,282,2:16.956.457,79.100 us,2 B,,SP,55,Write Transaction,00 00,..,,,,,,,,,,
0,283,2:16.961.801,82.200 us,2 B,,SP,55,Read Transaction,00 08*,..,,,,,,,,,,
0,284,2:16.962.160,78.900 us,2 B,,SP,55,Write Transaction,12 01,..,,,,,,,,,,
0,285,2:16.970.499,2.324.900 ms,92 B,,SP,55,Read Transaction,00 90 FD 67 02 57 01 D3 02 7A B1 02 7A 47 1F FF FC 1F FF FC 20 00 0C 20 00 0C 02 02 58 00 00 00 00 01 00 00 00 00 00 00 00 00 00 00 00 02 00 00 00 00 00 00 00 00 00 00 00 00 00 00 00 00 00 00 00 00 00 00 00 00 00 00 00 00 00 00 00 00 00 00 00 00 02 01 00 00 00 00 00 00 00 00*,...g.W...z..zG...... .. …,,,,,,,,,,
0,286,2:16.976.478,79.100 us,2 B,,SP,55,Write Transaction,00 00,..,,,,,,,,,,
0,287,2:16.981.825,82.000 us,2 B,,SP,55,Read Transaction,00 00*,..,,,,,,,,,,
0,288,2:16.996.489,79.000 us,2 B,,SP,55,Write Transaction,00 00,..,,,,,,,,,,
0,289,2:17.001.834,82.300 us,2 B,,SP,55,Read Transaction,00 08*,..,,,,,,,,,,
0,290,2:17.002.193,79.000 us,2 B,,SP,55,Write Transaction,12 01,..,,,,,,,,,,
0,291,2:17.010.534,2.321.500 ms,92 B,,SP,55,Read Transaction,00 95 FD 67 02 59 01 D5 02 7B 8F 02 7B 29 10 00 09 10 00 08 2F FF F5 2F FF F6 02 02 58 00 00 00 00 01 00 00 00 00 00 00 00 00 00 00 00 02 00 00 00 00 00 00 00 00 00 00 00 00 00 00 00 00 00 00 00 00 00 00 00 00 00 00 00 00 00 00 00 00 00 00 00 00 02 01 00 00 00 00 00 00 00 00*,...g.Y...{..{)....../../…,,,,,,,,,,
0,292,2:17.016.515,79.000 us,2 B,,SP,55,Write Transaction,00 00,..,,,,,,,,,,
0,293,2:17.021.862,82.000 us,2 B,,SP,55,Read Transaction,00 00*,..,,,,,,,,,,
0,294,2:17.036.531,79.100 us,2 B,,SP,55,Write Transaction,00 00,..,,,,,,,,,,
0,295,2:17.041.877,82.300 us,2 B,,SP,55,Read Transaction,00 08*,..,,,,,,,,,,
0,296,2:17.042.236,79.000 us,2 B,,SP,55,Write Transaction,12 01,..,,,,,,,,,,
0,297,2:17.050.576,2.322.600 ms,92 B,,SP,55,Read Transaction,00 9A FD 61 02 56 01 D4 02 7C CB 02 7C 63 1F FF FD 1F FF FE 2F FF F7 2F FF F7 02 02 58 00 00 00 00 01 00 00 00 00 00 00 00 00 00 00 00 02 00 00 00 00 00 00 00 00 00 00 00 00 00 00 00 00 00 00 00 00 00 00 00 00 00 00 00 00 00 00 00 00 00 00 00 00 02 01 00 00 00 00 00 00 00 00*,...a.V...|..|c....../../…,,,,,,,,,,
0,298,2:17.056.544,79.000 us,2 B,,SP,55,Write Transaction,00 00,..,,,,,,,,,,
0,299,2:17.061.893,82.100 us,2 B,,SP,55,Read Transaction,00 00*,..,,,,,,,,,,
0,300,2:17.076.572,79.100 us,2 B,,SP,55,Write Transaction,00 00,..,,,,,,,,,,
0,301,2:17.081.922,82.300 us,2 B,,SP,55,Read Transaction,00 08*,..,,,,,,,,,,
0,302,2:17.082.284,79.100 us,2 B,,SP,55,Write Transaction,12 01,..,,,,,,,,,,
0,303,2:17.090.630,2.322.600 ms,92 B,,SP,55,Read Transaction,00 9F FD 67 02 56 01 D2 02 7D F3 02 7D 8A 10 00 06 10 00 09 2F FF F7 2F FF F8 02 02 58 00 00 00 00 01 00 00 00 00 00 00 00 00 00 00 00 02 00 00 00 00 00 00 00 00 00 00 00 00 00 00 00 00 00 00 00 00 00 00 00 00 00 00 00 00 00 00 00 00 00 00 00 00 02 01 00 00 00 00 00 00 00 00*,...g.V...}..}......./../…,,,,,,,,,,
0,304,2:17.096.586,79.100 us,2 B,,SP,55,Write Transaction,00 00,..,,,,,,,,,,
0,305,2:17.101.933,82.000 us,2 B,,SP,55,Read Transaction,00 00*,..,,,,,,,,,,
0,306,2:17.116.359,79.000 us,2 B,,SP,55,Write Transaction,00 00,..,,,,,,,,,,
0,307,2:17.121.706,99.700 us,2 B,,SP,55,Read Transaction,00 00*,..,,,,,,,,,,
0,308,2:17.136.378,79.000 us,2 B,,SP,55,Write Transaction,00 00,..,,,,,,,,,,
0,309,2:17.141.725,81.900 us,2 B,,SP,55,Read Transaction,00 00*,..,,,,,,,,,,
0,310,2:17.156.393,79.000 us,2 B,,SP,55,Write Transaction,00 00,..,,,,,,,,,,
0,311,2:17.161.739,82.400 us,2 B,,SP,55,Read Transaction,00 08*,..,,,,,,,,,,
0,312,2:17.162.098,79.000 us,2 B,,SP,55,Write Transaction,12 01,..,,,,,,,,,,
0,313,2:17.170.442,2.322.900 ms,92 B,,SP,55,Read Transaction,00 A4 FD 6D 02 5C 01 D7 02 7E BF 02 7E 4F 10 00 01 10 00 01 2F FF F8 2F FF F6 02 02 58 00 00 00 00 01 00 00 00 00 00 00 00 00 00 00 00 02 00 00 00 00 00 00 00 00 00 00 00 00 00 00 00 00 00 00 00 00 00 00 00 00 00 00 00 00 00 00 00 00 00 00 00 00 02 01 00 00 00 00 00 00 00 00*,...m.\...~..~O....../../…,,,,,,,,,,
0,314,2:17.176.415,79.000 us,2 B,,SP,55,Write Transaction,00 00,..,,,,,,,,,,
0,315,2:17.181.762,81.900 us,2 B,,SP,55,Read Transaction,00 00*,..,,,,,,,,,,
0,316,2:17.196.428,79.100 us,2 B,,SP,55,Write Transaction,00 00,..,,,,,,,,,,
0,317,2:17.201.783,82.400 us,2 B,,SP,55,Read Transaction,00 08*,..,,,,,,,,,,
0,318,2:17.202.142,79.100 us,2 B,,SP,55,Write Transaction,12 01,..,,,,,,,,,,
0,319,2:17.210.497,2.322.800 ms,92 B,,SP,55,Read Transaction,00 A9 FD 66 02 5E 01 CD 02 7E 2E 02 7D C2 1F FF F9 1F FF F7 20 00 00 20 00 02 02 02 58 00 00 00 00 01 00 00 00 00 00 00 00 00 00 00 00 02 00 00 00 00 00 00 00 00 00 00 00 00 00 00 00 00 00 00 00 00 00 00 00 00 00 00 00 00 00 00 00 00 00 00 00 00 02 01 00 00 00 00 00 00 00 00*,...f.^...~..}....... .. …,,,,,,,,,,
0,320,2:17.216.449,79.100 us,2 B,,SP,55,Write Transaction,00 00,..,,,,,,,,,,
0,321,2:17.221.795,82.000 us,2 B,,SP,55,Read Transaction,00 00*,..,,,,,,,,,,
0,322,2:17.236.459,79.000 us,2 B,,SP,55,Write Transaction,00 00,..,,,,,,,,,,
0,323,2:17.241.804,82.200 us,2 B,,SP,55,Read Transaction,00 08*,..,,,,,,,,,,
0,324,2:17.242.163,79.000 us,2 B,,SP,55,Write Transaction,12 01,..,,,,,,,,,,
0,325,2:17.250.503,2.322.500 ms,92 B,,SP,55,Read Transaction,00 AE FD 69 02 65 01 D4 02 7C EA 02 7C 80 1F FF F6 1F FF F6 2F FF FE 2F FF FD 02 02 58 00 00 00 00 01 00 00 00 00 00 00 00 00 00 00 00 02 00 00 00 00 00 00 00 00 00 00 00 00 00 00 00 00 00 00 00 00 00 00 00 00 00 00 00 00 00 00 00 00 00 00 00 00 02 01 00 00 00 00 00 00 00 00*,...i.e...|..|......./../…,,,,,,,,,,
0,326,2:17.256.528,79.000 us,2 B,,SP,55,Write Transaction,00 00,..,,,,,,,,,,
0,327,2:17.261.877,81.900 us,2 B,,SP,55,Read Transaction,00 00*,..,,,,,,,,,,
0,328,2:17.276.502,79.000 us,2 B,,SP,55,Write Transaction,00 00,..,,,,,,,,,,
0,329,2:17.281.848,82.300 us,2 B,,SP,55,Read Transaction,00 08*,..,,,,,,,,,,
0,330,2:17.282.206,79.100 us,2 B,,SP,55,Write Transaction,12 01,..,,,,,,,,,,
0,331,2:17.290.548,2.322.800 ms,92 B,,SP,55,Read Transaction,00 B3 FD 65 02 56 01 D8 02 7C 1B 02 7B AF 1F FF F6 1F FF F6 20 00 02 20 00 03 02 02 58 00 00 00 00 01 00 00 00 00 00 00 00 00 00 00 00 02 00 00 00 00 00 00 00 00 00 00 00 00 00 00 00 00 00 00 00 00 00 00 00 00 00 00 00 00 00 00 00 00 00 00 00 00 02 01 00 00 00 00 00 00 00 00*,...e.V...|..{....... .. …,,,,,,,,,,
0,332,2:17.296.531,79.000 us,2 B,,SP,55,Write Transaction,00 00,..,,,,,,,,,,
0,333,2:17.301.887,82.100 us,2 B,,SP,55,Read Transaction,00 00*,..,,,,,,,,,,
0,334,2:17.316.550,78.900 us,2 B,,SP,55,Write Transaction,00 00,..,,,,,,,,,,
0,335,2:17.321.893,82.200 us,2 B,,SP,55,Read Transaction,00 00*,..,,,,,,,,,,
0,336,2:17.336.554,79.000 us,2 B,,SP,55,Write Transaction,00 00,..,,,,,,,,,,
0,337,2:17.341.900,82.000 us,2 B,,SP,55,Read Transaction,00 00*,..,,,,,,,,,,
0,338,2:17.356.332,79.000 us,2 B,,SP,55,Write Transaction,00 00,..,,,,,,,,,,
0,339,2:17.361.679,82.200 us,2 B,,SP,55,Read Transaction,00 08*,..,,,,,,,,,,
0,340,2:17.362.037,79.100 us,2 B,,SP,55,Write Transaction,12 01,..,,,,,,,,,,
0,341,2:17.370.386,2.322.700 ms,92 B,,SP,55,Read Transaction,00 B8 FD 65 02 5A 01 D8 02 7B 89 02 7B 22 10 00 03 10 00 05 20 00 03 20 00 02 02 02 58 00 00 00 00 01 00 00 00 00 00 00 00 00 00 00 00 02 00 00 00 00 00 00 00 00 00 00 00 00 00 00 00 00 00 00 00 00 00 00 00 00 00 00 00 00 00 00 00 00 00 00 00 00 02 01 00 00 00 00 00 00 00 00*,"...e.Z...{..{""...... .. …",,,,,,,,,,
0,342,2:17.376.352,79.000 us,2 B,,SP,55,Write Transaction,00 00,..,,,,,,,,,,
0,343,2:17.381.700,82.000 us,2 B,,SP,55,Read Transaction,00 00*,..,,,,,,,,,,
0,344,2:17.396.375,79.000 us,2 B,,SP,55,Write Transaction,00 00,..,,,,,,,,,,
0,345,2:17.401.724,82.200 us,2 B,,SP,55,Read Transaction,00 08*,..,,,,,,,,,,
0,346,2:17.402.083,79.000 us,2 B,,SP,55,Write Transaction,12 01,..,,,,,,,,,,
0,347,2:17.410.421,2.322.500 ms,92 B,,SP,55,Read Transaction,00 BD FD 69 02 57 01 D9 02 7B 82 02 7B 15 1F FF F2 1F FF F1 20 00 06 20 00 05 02 02 58 00 00 00 00 01 00 00 00 00 00 00 00 00 00 00 00 02 00 00 00 00 00 00 00 00 00 00 00 00 00 00 00 00 00 00 00 00 00 00 00 00 00 00 00 00 00 00 00 00 00 00 00 00 02 01 00 00 00 00 00 00 00 00*,...i.W...{..{....... .. …,,,,,,,,,,
0,348,2:17.416.387,79.000 us,2 B,,SP,55,Write Transaction,00 00,..,,,,,,,,,,
0,349,2:17.421.735,81.900 us,2 B,,SP,55,Read Transaction,00 00*,..,,,,,,,,,,
0,350,2:17.436.442,79.000 us,2 B,,SP,55,Write Transaction,00 00,..,,,,,,,,,,
0,351,2:17.441.792,82.200 us,2 B,,SP,55,Read Transaction,00 08*,..,,,,,,,,,,
0,352,2:17.442.152,79.000 us,2 B,,SP,55,Write Transaction,12 01,..,,,,,,,,,,
0,353,2:17.450.493,2.322.400 ms,92 B,,SP,55,Read Transaction,00 C2 FD 69 02 5A 01 DC 02 7B 91 02 7B 27 1F FF FF 1F FF FD 20 00 05 20 00 04 02 02 58 00 00 00 00 01 00 00 00 00 00 00 00 00 00 00 00 02 00 00 00 00 00 00 00 00 00 00 00 00 00 00 00 00 00 00 00 00 00 00 00 00 00 00 00 00 00 00 00 00 00 00 00 00 02 01 00 00 00 00 00 00 00 00*,...i.Z...{..{'...... .. …,,,,,,,,,,
0,354,2:17.456.430,79.000 us,2 B,,SP,55,Write Transaction,00 00,..,,,,,,,,,,
0,355,2:17.461.777,82.000 us,2 B,,SP,55,Read Transaction,00 00*,..,,,,,,,,,,
0,356,2:17.476.451,79.000 us,2 B,,SP,55,Write Transaction,00 00,..,,,,,,,,,,
0,357,2:17.481.807,82.300 us,2 B,,SP,55,Read Transaction,00 08*,..,,,,,,,,,,
0,358,2:17.482.168,79.000 us,2 B,,SP,55,Write Transaction,12 01,..,,,,,,,,,,
0,359,2:17.490.510,2.322.400 ms,92 B,,SP,55,Read Transaction,00 C7 FD 6A 02 58 01 D6 02 7B B7 02 7B 4F 10 00 0D 10 00 0D 2F FF F8 2F FF F8 02 02 58 00 00 00 00 01 00 00 00 00 00 00 00 00 00 00 00 02 00 00 00 00 00 00 00 00 00 00 00 00 00 00 00 00 00 00 00 00 00 00 00 00 00 00 00 00 00 00 00 00 00 00 00 00 02 01 00 00 00 00 00 00 00 00*,...j.X...{..{O....../../…,,,,,,,,,,
0,360,2:17.496.465,79.000 us,2 B,,SP,55,Write Transaction,00 00,..,,,,,,,,,,
0,361,2:17.501.811,81.900 us,2 B,,SP,55,Read Transaction,00 00*,..,,,,,,,,,,
0,362,2:17.516.478,79.000 us,2 B,,SP,55,Write Transaction,00 00,..,,,,,,,,,,
0,363,2:17.521.823,82.400 us,2 B,,SP,55,Read Transaction,00 00*,..,,,,,,,,,,
0,364,2:17.536.515,79.000 us,2 B,,SP,55,Write Transaction,00 00,..,,,,,,,,,,
0,365,2:17.541.862,82.000 us,2 B,,SP,55,Read Transaction,00 00*,..,,,,,,,,,,
0,366,2:17.556.529,79.000 us,2 B,,SP,55,Write Transaction,00 00,..,,,,,,,,,,
0,367,2:17.561.875,82.300 us,2 B,,SP,55,Read Transaction,00 08*,..,,,,,,,,,,
0,368,2:17.562.234,79.000 us,2 B,,SP,55,Write Transaction,12 01,..,,,,,,,,,,
0,369,2:17.570.574,2.322.600 ms,92 B,,SP,55,Read Transaction,00 CC FD 67 02 56 01 D9 02 7C 24 02 7B B9 1F FF F2 1F FF F1 2F FF F3 2F FF F4 02 02 58 00 00 00 00 01 00 00 00 00 00 00 00 00 00 00 00 02 00 00 00 00 00 00 00 00 00 00 00 00 00 00 00 00 00 00 00 00 00 00 00 00 00 00 00 00 00 00 00 00 00 00 00 00 02 01 00 00 00 00 00 00 00 00*,...g.V...|$.{......./../…,,,,,,,,,,
0,370,2:17.576.550,79.000 us,2 B,,SP,55,Write Transaction,00 00,..,,,,,,,,,,
0,371,2:17.581.897,82.000 us,2 B,,SP,55,Read Transaction,00 00*,..,,,,,,,,,,
0,372,2:17.596.564,79.000 us,2 B,,SP,55,Write Transaction,00 00,..,,,,,,,,,,
0,373,2:17.601.911,82.300 us,2 B,,SP,55,Read Transaction,00 08*,..,,,,,,,,,,
0,374,2:17.602.269,79.000 us,2 B,,SP,55,Write Transaction,12 01,..,,,,,,,,,,
0,375,2:17.610.619,2.325.800 ms,92 B,,SP,55,Read Transaction,00 D1 FD 66 02 53 01 D9 02 7C BD 02 7C 4F 1F FF F4 1F FF F5 2F FF FB 2F FF FC 02 02 58 00 00 00 00 01 00 00 00 00 00 00 00 00 00 00 00 02 00 00 00 00 00 00 00 00 00 00 00 00 00 00 00 00 00 00 00 00 00 00 00 00 00 00 00 00 00 00 00 00 00 00 00 00 02 01 00 00 00 00 00 00 00 00*,...f.S...|..|O....../../…,,,,,,,,,,
0,376,2:17.616.335,79.000 us,2 B,,SP,55,Write Transaction,00 00,..,,,,,,,,,,
0,377,2:17.621.685,81.900 us,2 B,,SP,55,Read Transaction,00 00*,..,,,,,,,,,,
0,378,2:17.636.357,79.100 us,2 B,,SP,55,Write Transaction,00 00,..,,,,,,,,,,
0,379,2:17.641.702,82.200 us,2 B,,SP,55,Read Transaction,00 08*,..,,,,,,,,,,
0,380,2:17.642.061,79.000 us,2 B,,SP,55,Write Transaction,12 01,..,,,,,,,,,,
0,381,2:17.650.398,2.322.600 ms,92 B,,SP,55,Read Transaction,00 D6 FD 68 02 5B 01 D7 02 7D 88 02 7D 1F 10 00 0B 10 00 09 20 00 07 20 00 07 02 02 58 00 00 00 00 01 00 00 00 00 00 00 00 00 00 00 00 02 00 00 00 00 00 00 00 00 00 00 00 00 00 00 00 00 00 00 00 00 00 00 00 00 00 00 00 00 00 00 00 00 00 00 00 00 02 01 00 00 00 00 00 00 00 00*,...h.[...}..}....... .. …,,,,,,,,,,
0,382,2:17.656.382,79.000 us,2 B,,SP,55,Write Transaction,00 00,..,,,,,,,,,,
0,383,2:17.661.729,81.900 us,2 B,,SP,55,Read Transaction,00 00*,..,,,,,,,,,,
0,384,2:17.676.391,79.000 us,2 B,,SP,55,Write Transaction,00 00,..,,,,,,,,,,
0,385,2:17.681.737,82.300 us,2 B,,SP,55,Read Transaction,00 08*,..,,,,,,,,,,
0,386,2:17.682.096,79.000 us,2 B,,SP,55,Write Transaction,12 01,..,,,,,,,,,,
0,387,2:17.690.433,2.322.500 ms,92 B,,SP,55,Read Transaction,00 DB FD 67 02 56 01 D6 02 7E 5B 02 7D F4 10 00 06 10 00 07 2F FF FC 2F FF FC 02 02 58 00 00 00 00 01 00 00 00 00 00 00 00 00 00 00 00 02 00 00 00 00 00 00 00 00 00 00 00 00 00 00 00 00 00 00 00 00 00 00 00 00 00 00 00 00 00 00 00 00 00 00 00 00 02 01 00 00 00 00 00 00 00 00*,...g.V...~[.}......./../…,,,,,,,,,,
0,388,2:17.696.416,79.000 us,2 B,,SP,55,Write Transaction,00 00,..,,,,,,,,,,
0,389,2:17.701.763,81.900 us,2 B,,SP,55,Read Transaction,00 00*,..,,,,,,,,,,
0,390,2:17.716.435,79.000 us,2 B,,SP,55,Write Transaction,00 00,..,,,,,,,,,,
0,391,2:17.721.781,82.300 us,2 B,,SP,55,Read Transaction,00 00*,..,,,,,,,,,,
0,392,2:17.736.441,79.100 us,2 B,,SP,55,Write Transaction,00 00,..,,,,,,,,,,
0,393,2:17.741.786,82.000 us,2 B,,SP,55,Read Transaction,00 00*,..,,,,,,,,,,
0,394,2:17.756.471,79.000 us,2 B,,SP,55,Write Transaction,00 00,..,,,,,,,,,,
0,395,2:17.761.817,82.200 us,2 B,,SP,55,Read Transaction,00 08*,..,,,,,,,,,,
0,396,2:17.762.178,79.000 us,2 B,,SP,55,Write Transaction,12 01,..,,,,,,,,,,
0,397,2:17.770.518,2.322.300 ms,92 B,,SP,55,Read Transaction,00 E0 FD 69 02 5A 01 DA 02 7F 5F 02 7E F3 10 00 0A 10 00 0B 2F FF FE 2F FF FE 02 02 58 00 00 00 00 00 00 00 00 00 00 00 00 00 00 00 00 02 00 00 00 00 00 00 00 00 00 00 00 00 00 00 00 00 00 00 00 00 00 00 00 00 00 00 00 00 00 00 00 00 00 00 00 00 02 01 00 00 00 00 00 00 00 00*,...i.Z...._.~......./../…,,,,,,,,,,
0,398,2:17.776.485,79.000 us,2 B,,SP,55,Write Transaction,00 00,..,,,,,,,,,,
0,399,2:17.781.832,82.000 us,2 B,,SP,55,Read Transaction,00 00*,..,,,,,,,,,,
0,400,2:17.796.573,79.100 us,2 B,,SP,55,Write Transaction,00 00,..,,,,,,,,,,
0,401,2:17.801.922,82.300 us,2 B,,SP,55,Read Transaction,00 08*,..,,,,,,,,,,
0,402,2:17.802.283,79.000 us,2 B,,SP,55,Write Transaction,12 01,..,,,,,,,,,,
0,403,2:17.810.622,2.320.500 ms,92 B,,SP,55,Read Transaction,00 E5 FD 6A 02 55 01 D6 02 80 62 02 7F FB 10 00 06 10 00 06 20 00 0D 20 00 0E 02 02 58 00 00 00 00 00 00 00 00 00 00 00 00 00 00 00 00 02 00 00 00 00 00 00 00 00 00 00 00 00 00 00 00 00 00 00 00 00 00 00 00 00 00 00 00 00 00 00 00 00 00 00 00 00 02 01 00 00 00 00 00 00 00 00*,...j.U....b......... .. …,,,,,,,,,,
0,404,2:17.816.525,79.000 us,2 B,,SP,55,Write Transaction,00 00,..,,,,,,,,,,
0,405,2:17.821.872,81.900 us,2 B,,SP,55,Read Transaction,00 00*,..,,,,,,,,,,
0,406,2:17.836.538,79.000 us,2 B,,SP,55,Write Transaction,00 00,..,,,,,,,,,,
0,407,2:17.841.891,82.200 us,2 B,,SP,55,Read Transaction,00 08*,..,,,,,,,,,,
0,408,2:17.842.251,79.100 us,2 B,,SP,55,Write Transaction,12 01,..,,,,,,,,,,
0,409,2:17.850.594,2.322.300 ms,92 B,,SP,55,Read Transaction,00 EA FD 67 02 5B 01 D6 02 81 5F 02 80 F8 1F FF FB 1F FF FB 2F FF F4 2F FF F6 02 02 58 00 00 00 00 00 00 00 00 00 00 00 00 00 00 00 00 02 00 00 00 00 00 00 00 00 00 00 00 00 00 00 00 00 00 00 00 00 00 00 00 00 00 00 00 00 00 00 00 00 00 00 00 00 02 01 00 00 00 00 00 00 00 00*,...g.[...._........./../…,,,,,,,,,,
0,410,2:17.856.323,78.900 us,2 B,,SP,55,Write Transaction,00 00,..,,,,,,,,,,
0,411,2:17.861.668,82.000 us,2 B,,SP,55,Read Transaction,00 00*,..,,,,,,,,,,
0,412,2:17.876.333,79.100 us,2 B,,SP,55,Write Transaction,00 00,..,,,,,,,,,,
0,413,2:17.881.679,82.200 us,2 B,,SP,55,Read Transaction,00 08*,..,,,,,,,,,,
0,414,2:17.882.037,79.100 us,2 B,,SP,55,Write Transaction,12 01,..,,,,,,,,,,
0,415,2:17.890.380,2.322.400 ms,92 B,,SP,55,Read Transaction,00 EF FD 42 02 53 01 D9 02 82 25 02 81 C1 10 00 05 10 00 07 20 00 00 20 00 00 02 02 58 00 00 00 00 00 00 00 00 00 00 00 00 00 00 00 00 02 00 00 00 00 00 00 00 00 00 00 00 00 00 00 00 00 00 00 00 00 00 00 00 00 00 00 00 00 00 00 00 00 00 00 00 00 02 01 00 00 00 00 00 00 00 00*,...B.S....%......... .. …,,,,,,,,,,
0,416,2:17.896.351,79.100 us,2 B,,SP,55,Write Transaction,00 00,..,,,,,,,,,,
0,417,2:17.901.698,82.000 us,2 B,,SP,55,Read Transaction,00 00*,..,,,,,,,,,,
0,418,2:17.916.364,79.000 us,2 B,,SP,55,Write Transaction,00 00,..,,,,,,,,,,
0,419,2:17.921.710,82.300 us,2 B,,SP,55,Read Transaction,00 00*,..,,,,,,,,,,
0,420,2:17.936.389,79.000 us,2 B,,SP,55,Write Transaction,00 00,..,,,,,,,,,,
0,421,2:17.941.736,81.900 us,2 B,,SP,55,Read Transaction,00 00*,..,,,,,,,,,,
0,422,2:17.956.410,79.000 us,2 B,,SP,55,Write Transaction,00 00,..,,,,,,,,,,
0,423,2:17.961.758,82.200 us,2 B,,SP,55,Read Transaction,00 08*,..,,,,,,,,,,
0,424,2:17.962.117,79.000 us,2 B,,SP,55,Write Transaction,12 01,..,,,,,,,,,,
0,425,2:17.970.457,2.322.400 ms,92 B,,SP,55,Read Transaction,00 F4 FD 69 02 55 01 D5 02 82 D6 02 82 6A 1F FF F6 1F FF F2 20 00 08 20 00 06 02 02 58 00 00 00 00 00 00 00 00 00 00 00 00 00 00 00 00 02 00 00 00 00 00 00 00 00 00 00 00 00 00 00 00 00 00 00 00 00 00 00 00 00 00 00 00 00 00 00 00 00 00 00 00 00 02 01 00 00 00 00 00 00 00 00*,...i.U.......j...... .. …,,,,,,,,,,
0,426,2:17.976.434,79.000 us,2 B,,SP,55,Write Transaction,00 00,..,,,,,,,,,,
0,427,2:17.981.784,81.900 us,2 B,,SP,55,Read Transaction,00 00*,..,,,,,,,,,,
0,428,2:17.996.447,79.200 us,2 B,,SP,55,Write Transaction,00 00,..,,,,,,,,,,
0,429,2:18.001.797,82.200 us,2 B,,SP,55,Read Transaction,00 08*,..,,,,,,,,,,
0,430,2:18.002.156,79.000 us,2 B,,SP,55,Write Transaction,12 01,..,,,,,,,,,,
0,431,2:18.010.499,2.326.300 ms,92 B,,SP,55,Read Transaction,00 F9 FD 68 02 58 01 D1 02 83 04 02 82 9C 1F FF FE 10 00 00 2F FF F8 2F FF FA 02 02 58 00 00 00 00 00 00 00 00 00 00 00 00 00 00 00 00 02 00 00 00 00 00 00 00 00 00 00 00 00 00 00 00 00 00 00 00 00 00 00 00 00 00 00 00 00 00 00 00 00 00 00 00 00 02 01 00 00 00 00 00 00 00 00*,...h.X............../../…,,,,,,,,,,
0,432,2:18.016.474,79.200 us,2 B,,SP,55,Write Transaction,00 00,..,,,,,,,,,,
0,433,2:18.021.827,82.000 us,2 B,,SP,55,Read Transaction,00 00*,..,,,,,,,,,,
0,434,2:18.036.477,79.100 us,2 B,,SP,55,Write Transaction,00 00,..,,,,,,,,,,
0,435,2:18.041.823,82.300 us,2 B,,SP,55,Read Transaction,00 08*,..,,,,,,,,,,
0,436,2:18.042.181,79.000 us,2 B,,SP,55,Write Transaction,12 01,..,,,,,,,,,,
0,437,2:18.050.521,2.322.500 ms,92 B,,SP,55,Read Transaction,00 FE FD 4F 02 9D 01 B8 02 81 48 02 80 DD 10 00 03 10 00 03 2F FF FE 2F FF FE 02 02 58 00 00 00 00 00 00 00 00 00 00 00 00 00 00 00 00 02 00 00 00 00 00 00 00 00 00 00 00 00 00 00 00 00 00 00 00 00 00 00 00 00 00 00 00 00 00 00 00 00 00 00 00 00 02 01 00 00 00 00 00 00 00 00*,...O......H........./../…,,,,,,,,,,
0,438,2:18.056.498,79.100 us,2 B,,SP,55,Write Transaction,00 00,..,,,,,,,,,,
0,439,2:18.061.844,81.900 us,2 B,,SP,55,Read Transaction,00 00*,..,,,,,,,,,,
0,440,2:18.076.524,79.000 us,2 B,,SP,55,Write Transaction,00 00,..,,,,,,,,,,
0,441,2:18.081.870,82.200 us,2 B,,SP,55,Read Transaction,00 08*,..,,,,,,,,,,
0,442,2:18.082.229,79.000 us,2 B,,SP,55,Write Transaction,12 01,..,,,,,,,,,,
0,443,2:18.090.570,2.322.300 ms,92 B,,SP,55,Read Transaction,00 03 FD 68 02 5A 01 CE 02 7F 4C 02 7E E1 10 00 00 10 00 02 20 00 08 20 00 08 02 02 58 00 00 00 00 00 00 00 00 00 00 00 00 00 00 00 00 02 00 00 00 00 00 00 00 00 00 00 00 00 00 00 00 00 00 00 00 00 00 00 00 00 00 00 00 00 00 00 00 00 00 00 00 00 02 01 00 00 00 00 00 00 01 01*,...h.Z....L.~....... .. …,,,,,,,,,,
0,444,2:18.096.550,78.900 us,2 B,,SP,55,Write Transaction,00 00,..,,,,,,,,,,
0,445,2:18.101.895,81.900 us,2 B,,SP,55,Read Transaction,00 00*,..,,,,,,,,,,
0,446,2:18.116.330,79.100 us,2 B,,SP,55,Write Transaction,00 00,..,,,,,,,,,,
0,447,2:18.121.679,82.300 us,2 B,,SP,55,Read Transaction,00 00*,..,,,,,,,,,,
0,448,2:18.136.328,79.000 us,2 B,,SP,55,Write Transaction,00 00,..,,,,,,,,,,
0,449,2:18.141.675,82.000 us,2 B,,SP,55,Read Transaction,00 00*,..,,,,,,,,,,
0,450,2:18.156.352,79.100 us,2 B,,SP,55,Write Transaction,00 00,..,,,,,,,,,,
0,451,2:18.161.702,82.300 us,2 B,,SP,55,Read Transaction,00 08*,..,,,,,,,,,,
0,452,2:18.162.062,79.000 us,2 B,,SP,55,Write Transaction,12 01,..,,,,,,,,,,
0,453,2:18.170.400,2.322.200 ms,92 B,,SP,55,Read Transaction,00 08 FD 62 02 54 01 CF 02 7D D3 02 7D 6D 1F FF FC 1F FF FD 2F FF F9 2F FF FA 02 02 58 00 00 00 00 00 00 00 00 00 00 00 00 00 00 00 00 02 00 00 00 00 00 00 00 00 00 00 00 00 00 00 00 00 00 00 00 00 00 00 00 00 00 00 00 00 00 00 00 00 00 00 00 00 02 01 00 00 00 00 00 00 01 01*,...b.T...}..}m....../../…,,,,,,,,,,
0,454,2:18.176.369,79.000 us,2 B,,SP,55,Write Transaction,00 00,..,,,,,,,,,,
0,455,2:18.181.715,82.000 us,2 B,,SP,55,Read Transaction,00 00*,..,,,,,,,,,,
0,456,2:18.196.388,79.000 us,2 B,,SP,55,Write Transaction,00 00,..,,,,,,,,,,
0,457,2:18.201.736,82.300 us,2 B,,SP,55,Read Transaction,00 08*,..,,,,,,,,,,
0,458,2:18.202.095,79.000 us,2 B,,SP,55,Write Transaction,12 01,..,,,,,,,,,,
0,459,2:18.210.438,2.322.200 ms,92 B,,SP,55,Read Transaction,00 0D FD 6A 02 58 01 D8 02 7C DE 02 7C 77 1F FF FB 1F FF FA 20 00 0A 20 00 0C 02 02 58 00 00 00 00 00 00 00 00 00 00 00 00 00 00 00 00 02 00 00 00 00 00 00 00 00 00 00 00 00 00 00 00 00 00 00 00 00 00 00 00 00 00 00 00 00 00 00 00 00 00 00 00 00 02 01 00 00 00 00 00 00 01 01*,...j.X...|..|w...... .. …,,,,,,,,,,
0,460,2:18.216.408,79.000 us,2 B,,SP,55,Write Transaction,00 00,..,,,,,,,,,,
0,461,2:18.221.756,82.000 us,2 B,,SP,55,Read Transaction,00 00*,..,,,,,,,,,,
0,462,2:18.236.423,79.000 us,2 B,,SP,55,Write Transaction,00 00,..,,,,,,,,,,
0,463,2:18.241.774,82.200 us,2 B,,SP,55,Read Transaction,00 08*,..,,,,,,,,,,
0,464,2:18.242.132,79.000 us,2 B,,SP,55,Write Transaction,12 01,..,,,,,,,,,,
0,465,2:18.250.481,2.322.100 ms,92 B,,SP,55,Read Transaction,00 12 FD 66 02 5E 01 D2 02 7C 99 02 7C 33 10 00 04 10 00 04 20 00 0E 20 00 10 02 02 58 00 00 00 00 00 00 00 00 00 00 00 00 00 00 00 00 02 00 00 00 00 00 00 00 00 00 00 00 00 00 00 00 00 00 00 00 00 00 00 00 00 00 00 00 00 00 00 00 00 00 00 00 00 02 01 00 00 00 00 00 00 01 01*,...f.^...|..|3...... .. …,,,,,,,,,,
0,466,2:18.256.453,79.100 us,2 B,,SP,55,Write Transaction,00 00,..,,,,,,,,,,
0,467,2:18.261.800,81.900 us,2 B,,SP,55,Read Transaction,00 00*,..,,,,,,,,,,
0,468,2:18.276.469,79.000 us,2 B,,SP,55,Write Transaction,00 00,..,,,,,,,,,,
0,469,2:18.281.818,82.400 us,2 B,,SP,55,Read Transaction,00 08*,..,,,,,,,,,,
0,470,2:18.282.177,79.100 us,2 B,,SP,55,Write Transaction,12 01,..,,,,,,,,,,
0,471,2:18.290.525,2.320.900 ms,92 B,,SP,55,Read Transaction,00 17 FD 64 02 60 01 CB 02 7C 61 02 7B FB 10 00 03 10 00 02 2F FF F3 2F FF F3 02 02 58 00 00 00 00 00 00 00 00 00 00 00 00 00 00 00 00 02 00 00 00 00 00 00 00 00 00 00 00 00 00 00 00 00 00 00 00 00 00 00 00 00 00 00 00 00 00 00 00 00 00 00 00 00 02 01 00 00 00 00 00 00 01 01*,...d.`...|a.{......./../…,,,,,,,,,,
0,472,2:18.296.490,79.100 us,2 B,,SP,55,Write Transaction,00 00,..,,,,,,,,,,
0,473,2:18.301.837,81.900 us,2 B,,SP,55,Read Transaction,00 00*,..,,,,,,,,,,
0,474,2:18.316.494,79.100 us,2 B,,SP,55,Write Transaction,00 00,..,,,,,,,,,,
0,475,2:18.321.840,82.300 us,2 B,,SP,55,Read Transaction,00 00*,..,,,,,,,,,,
0,476,2:18.336.557,79.100 us,2 B,,SP,55,Write Transaction,00 00,..,,,,,,,,,,
0,477,2:18.341.915,81.900 us,2 B,,SP,55,Read Transaction,00 00*,..,,,,,,,,,,
0,478,2:18.356.292,79.000 us,2 B,,SP,55,Write Transaction,00 00,..,,,,,,,,,,
0,479,2:18.361.639,82.200 us,2 B,,SP,55,Read Transaction,00 08*,..,,,,,,,,,,
0,480,2:18.361.998,79.000 us,2 B,,SP,55,Write Transaction,12 01,..,,,,,,,,,,
0,481,2:18.370.343,2.325.700 ms,92 B,,SP,55,Read Transaction,00 1C FD 67 02 55 01 D2 02 7C 3D 02 7B D7 1F FF FD 10 00 00 20 00 0C 20 00 0D 02 02 58 00 00 00 00 00 00 00 00 00 00 00 00 00 00 00 00 02 00 00 00 00 00 00 00 00 00 00 00 00 00 00 00 00 00 00 00 00 00 00 00 00 00 00 00 00 00 00 00 00 00 00 00 00 02 01 00 00 00 00 00 00 01 01*,...g.U...|=.{....... .. …,,,,,,,,,,
0,482,2:18.376.321,79.100 us,2 B,,SP,55,Write Transaction,00 00,..,,,,,,,,,,
0,483,2:18.381.672,82.000 us,2 B,,SP,55,Read Transaction,00 00*,..,,,,,,,,,,
0,484,2:18.396.343,79.000 us,2 B,,SP,55,Write Transaction,00 00,..,,,,,,,,,,
0,485,2:18.401.687,82.300 us,2 B,,SP,55,Read Transaction,00 08*,..,,,,,,,,,,
0,486,2:18.402.046,79.000 us,2 B,,SP,55,Write Transaction,12 01,..,,,,,,,,,,
0,487,2:18.410.386,2.321.900 ms,92 B,,SP,55,Read Transaction,00 21 FD 5D 02 5B 01 D2 02 7C 7D 02 7C 1B 10 00 02 10 00 03 20 00 0D 20 00 0C 02 02 58 00 00 00 00 00 00 00 00 00 00 00 00 00 00 00 00 02 00 00 00 00 00 00 00 00 00 00 00 00 00 00 00 00 00 00 00 00 00 00 00 00 00 00 00 00 00 00 00 00 00 00 00 00 02 01 00 00 00 00 00 00 01 01*,.!.].[...|}.|....... .. …,,,,,,,,,,
0,488,2:18.416.352,79.000 us,2 B,,SP,55,Write Transaction,00 00,..,,,,,,,,,,
0,489,2:18.421.697,81.900 us,2 B,,SP,55,Read Transaction,00 00*,..,,,,,,,,,,
0,490,2:18.436.378,79.000 us,2 B,,SP,55,Write Transaction,00 00,..,,,,,,,,,,
0,491,2:18.441.724,82.200 us,2 B,,SP,55,Read Transaction,00 08*,..,,,,,,,,,,
0,492,2:18.442.083,79.000 us,2 B,,SP,55,Write Transaction,12 01,..,,,,,,,,,,
0,493,2:18.450.423,2.321.700 ms,92 B,,SP,55,Read Transaction,00 26 FD 63 02 58 01 D3 02 7C C7 02 7C 5B 10 00 00 1F FF FF 20 00 04 20 00 04 02 02 58 00 00 00 00 00 00 00 00 00 00 00 00 00 00 00 00 02 00 00 00 00 00 00 00 00 00 00 00 00 00 00 00 00 00 00 00 00 00 00 00 00 00 00 00 00 00 00 00 00 00 00 00 00 02 01 00 00 00 00 00 00 01 01*,.&.c.X...|..|[...... .. …,,,,,,,,,,
0,494,2:18.456.385,79.000 us,2 B,,SP,55,Write Transaction,00 00,..,,,,,,,,,,
0,495,2:18.461.732,82.000 us,2 B,,SP,55,Read Transaction,00 00*,..,,,,,,,,,,
0,496,2:18.476.443,79.000 us,2 B,,SP,55,Write Transaction,00 00,..,,,,,,,,,,
0,497,2:18.481.788,82.300 us,2 B,,SP,55,Read Transaction,00 08*,..,,,,,,,,,,
0,498,2:18.482.147,79.000 us,2 B,,SP,55,Write Transaction,12 01,..,,,,,,,,,,
0,499,2:18.490.486,2.322.400 ms,92 B,,SP,55,Read Transaction,00 2B FD 63 02 5C 01 CE 02 7D 46 02 7C DF 1F FF FA 1F FF FB 2F FF F4 2F FF F4 02 02 58 00 00 00 00 00 00 00 00 00 00 00 00 00 00 00 00 02 00 00 00 00 00 00 00 00 00 00 00 00 00 00 00 00 00 00 00 00 00 00 00 00 00 00 00 00 00 00 00 00 00 00 00 00 02 01 00 00 00 00 00 00 01 01*,.+.c.\...}F.|......./../…,,,,,,,,,,
0,500,2:18.496.421,79.000 us,2 B,,SP,55,Write Transaction,00 00,..,,,,,,,,,,
0,501,2:18.501.769,81.900 us,2 B,,SP,55,Read Transaction,00 00*,..,,,,,,,,,,
0,502,2:18.516.450,79.000 us,2 B,,SP,55,Write Transaction,00 00,..,,,,,,,,,,
0,503,2:18.521.797,82.200 us,2 B,,SP,55,Read Transaction,00 00*,..,,,,,,,,,,
0,504,2:18.536.457,79.000 us,2 B,,SP,55,Write Transaction,00 00,..,,,,,,,,,,
0,505,2:18.541.804,82.000 us,2 B,,SP,55,Read Transaction,00 00*,..,,,,,,,,,,
0,506,2:18.556.485,79.000 us,2 B,,SP,55,Write Transaction,00 00,..,,,,,,,,,,
0,507,2:18.561.832,82.200 us,2 B,,SP,55,Read Transaction,00 08*,..,,,,,,,,,,
0,508,2:18.562.193,79.100 us,2 B,,SP,55,Write Transaction,12 01,..,,,,,,,,,,
0,509,2:18.570.536,2.322.100 ms,92 B,,SP,55,Read Transaction,00 30 FD 66 02 5C 01 D3 02 7E 0C 02 7D A0 10 00 08 10 00 0A 20 00 03 20 00 03 02 02 58 00 00 00 00 00 00 00 00 00 00 00 00 00 00 00 00 02 00 00 00 00 00 00 00 00 00 00 00 00 00 00 00 00 00 00 00 00 00 00 00 00 00 00 00 00 00 00 00 00 00 00 00 00 02 01 00 00 00 00 00 00 01 01*,.0.f.\...~..}....... .. …,,,,,,,,,,
0,510,2:18.576.505,79.000 us,2 B,,SP,55,Write Transaction,00 00,..,,,,,,,,,,
0,511,2:18.581.851,81.900 us,2 B,,SP,55,Read Transaction,00 00*,..,,,,,,,,,,
0,512,2:18.596.515,79.000 us,2 B,,SP,55,Write Transaction,00 00,..,,,,,,,,,,
0,513,2:18.601.860,82.200 us,2 B,,SP,55,Read Transaction,00 08*,..,,,,,,,,,,
0,514,2:18.602.218,79.100 us,2 B,,SP,55,Write Transaction,12 01,..,,,,,,,,,,
0,515,2:18.610.563,2.322.600 ms,92 B,,SP,55,Read Transaction,00 35 FD 64 02 53 01 CC 02 7E BE 02 7E 54 1F FF F7 1F FF F6 2F FF F8 2F FF F9 02 02 58 00 00 00 00 00 00 00 00 00 00 00 00 00 00 00 00 02 00 00 00 00 00 00 00 00 00 00 00 00 00 00 00 00 00 00 00 00 00 00 00 00 00 00 00 00 00 00 00 00 00 00 00 00 02 01 00 00 00 00 00 00 01 01*,.5.d.S...~..~T....../../…,,,,,,,,,,
0,516,2:18.616.297,79.000 us,2 B,,SP,55,Write Transaction,00 00,..,,,,,,,,,,
0,517,2:18.621.643,82.000 us,2 B,,SP,55,Read Transaction,00 00*,..,,,,,,,,,,
0,518,2:18.636.308,79.000 us,2 B,,SP,55,Write Transaction,00 00,..,,,,,,,,,,
0,519,2:18.641.653,82.300 us,2 B,,SP,55,Read Transaction,00 08*,..,,,,,,,,,,
0,520,2:18.642.011,79.000 us,2 B,,SP,55,Write Transaction,12 01,..,,,,,,,,,,
0,521,2:18.650.352,2.322.500 ms,92 B,,SP,55,Read Transaction,00 3A FD 61 02 5C 01 CD 02 7F 5D 02 7E F4 10 00 09 10 00 07 20 00 02 20 00 02 02 02 58 00 00 00 00 00 00 00 00 00 00 00 00 00 00 00 00 02 00 00 00 00 00 00 00 00 00 00 00 00 00 00 00 00 00 00 00 00 00 00 00 00 00 00 00 00 00 00 00 00 00 00 00 00 02 01 00 00 00 00 00 00 01 01*,.:.a.\....].~....... .. …,,,,,,,,,,
0,522,2:18.656.336,79.000 us,2 B,,SP,55,Write Transaction,00 00,..,,,,,,,,,,
0,523,2:18.661.682,81.900 us,2 B,,SP,55,Read Transaction,00 00*,..,,,,,,,,,,
0,524,2:18.676.349,79.000 us,2 B,,SP,55,Write Transaction,00 00,..,,,,,,,,,,
0,525,2:18.681.696,82.200 us,2 B,,SP,55,Read Transaction,00 08*,..,,,,,,,,,,
0,526,2:18.682.054,78.900 us,2 B,,SP,55,Write Transaction,12 01,..,,,,,,,,,,
0,527,2:18.690.392,2.324.500 ms,92 B,,SP,55,Read Transaction,00 3F FD 60 02 5E 01 CE 02 80 39 02 7F C9 1F FF F7 1F FF F5 20 00 09 20 00 06 02 02 58 00 00 00 00 00 00 00 00 00 00 00 00 00 00 00 00 03 00 00 00 00 00 00 00 00 00 00 00 00 00 00 00 00 00 00 00 00 00 00 00 00 00 00 00 00 00 00 00 00 00 00 00 00 02 01 00 00 00 00 00 00 01 01*,.?.`.^....9......... .. …,,,,,,,,,,
0,528,2:18.696.397,79.000 us,2 B,,SP,55,Write Transaction,00 00,..,,,,,,,,,,
0,529,2:18.701.747,81.900 us,2 B,,SP,55,Read Transaction,00 00*,..,,,,,,,,,,
0,530,2:18.716.386,79.000 us,2 B,,SP,55,Write Transaction,00 00,..,,,,,,,,,,
0,531,2:18.721.731,82.300 us,2 B,,SP,55,Read Transaction,00 00*,..,,,,,,,,,,
0,532,2:18.736.405,79.000 us,2 B,,SP,55,Write Transaction,00 00,..,,,,,,,,,,
0,533,2:18.741.758,82.000 us,2 B,,SP,55,Read Transaction,00 00*,..,,,,,,,,,,
0,534,2:18.756.429,79.000 us,2 B,,SP,55,Write Transaction,00 00,..,,,,,,,,,,
0,535,2:18.761.774,82.400 us,2 B,,SP,55,Read Transaction,00 08*,..,,,,,,,,,,
0,536,2:18.762.133,79.100 us,2 B,,SP,55,Write Transaction,12 01,..,,,,,,,,,,
0,537,2:18.770.479,2.322.100 ms,92 B,,SP,55,Read Transaction,00 44 FD 5F 02 5D 01 D0 02 80 F9 02 80 89 10 00 0C 10 00 0D 2F FF FA 2F FF FB 02 02 58 00 00 00 00 00 00 00 00 00 00 00 00 00 00 00 00 03 00 00 00 00 00 00 00 00 00 00 00 00 00 00 00 00 00 00 00 00 00 00 00 00 00 00 00 00 00 00 00 00 00 00 00 00 02 01 00 00 00 00 00 00 01 01*,.D._.]............../../…,,,,,,,,,,
0,538,2:18.776.444,79.000 us,2 B,,SP,55,Write Transaction,00 00,..,,,,,,,,,,
0,539,2:18.781.789,81.900 us,2 B,,SP,55,Read Transaction,00 00*,..,,,,,,,,,,
0,540,2:18.796.461,79.100 us,2 B,,SP,55,Write Transaction,00 00,..,,,,,,,,,,
0,541,2:18.801.807,82.300 us,2 B,,SP,55,Read Transaction,00 08*,..,,,,,,,,,,
0,542,2:18.802.166,79.000 us,2 B,,SP,55,Write Transaction,12 01,..,,,,,,,,,,
0,543,2:18.810.504,2.322.300 ms,92 B,,SP,55,Read Transaction,00 49 FD 66 02 5C 01 CC 02 81 C5 02 81 5D 10 00 00 1F FF FE 2F FF F6 2F FF F6 02 02 58 00 00 00 00 00 00 00 00 00 00 00 00 00 00 00 00 03 00 00 00 00 00 00 00 00 00 00 00 00 00 00 00 00 00 00 00 00 00 00 00 00 00 00 00 00 00 00 00 00 00 00 00 00 02 01 00 00 00 00 00 00 01 01*,.I.f.\.......]....../../…,,,,,,,,,,
0,544,2:18.816.485,79.100 us,2 B,,SP,55,Write Transaction,00 00,..,,,,,,,,,,
0,545,2:18.821.832,81.900 us,2 B,,SP,55,Read Transaction,00 00*,..,,,,,,,,,,
0,546,2:18.836.510,79.000 us,2 B,,SP,55,Write Transaction,00 00,..,,,,,,,,,,
0,547,2:18.841.856,82.200 us,2 B,,SP,55,Read Transaction,00 08*,..,,,,,,,,,,
0,548,2:18.842.215,79.000 us,2 B,,SP,55,Write Transaction,12 01,..,,,,,,,,,,
0,549,2:18.850.559,2.321.000 ms,92 B,,SP,55,Read Transaction,00 4E FD 65 02 58 01 CD 02 81 B5 02 81 4B 1F FF F6 1F FF F6 2F FF F6 2F FF F7 02 02 58 00 00 00 00 00 00 00 00 00 00 00 00 00 00 00 00 03 00 00 00 00 00 00 00 00 00 00 00 00 00 00 00 00 00 00 00 00 00 00 00 00 00 00 00 00 00 00 00 00 00 00 00 00 02 01 00 00 00 00 00 00 01 01*,.N.e.X.......K....../../…,,,,,,,,,,
0,550,2:18.856.283,79.000 us,2 B,,SP,55,Write Transaction,00 00,..,,,,,,,,,,
0,551,2:18.861.629,82.000 us,2 B,,SP,55,Read Transaction,00 00*,..,,,,,,,,,,
0,552,2:18.876.297,79.000 us,2 B,,SP,55,Write Transaction,00 00,..,,,,,,,,,,
0,553,2:18.881.646,82.300 us,2 B,,SP,55,Read Transaction,00 08*,..,,,,,,,,,,
0,554,2:18.882.006,79.000 us,2 B,,SP,55,Write Transaction,12 01,..,,,,,,,,,,
0,555,2:18.890.349,2.322.500 ms,92 B,,SP,55,Read Transaction,00 53 FD 66 02 5A 01 CB 02 7F C8 02 7F 65 1F FF F5 1F FF F5 20 00 06 20 00 04 02 02 58 00 00 00 00 00 00 00 00 00 00 00 00 00 00 00 00 03 00 00 00 00 00 00 00 00 00 00 00 00 00 00 00 00 00 00 00 00 00 00 00 00 00 00 00 00 00 00 00 00 00 00 00 00 02 01 00 00 00 00 00 00 01 01*,.S.f.Z.......e...... .. …,,,,,,,,,,
0,556,2:18.896.318,79.000 us,2 B,,SP,55,Write Transaction,00 00,..,,,,,,,,,,
0,557,2:18.901.665,82.000 us,2 B,,SP,55,Read Transaction,00 00*,..,,,,,,,,,,
0,558,2:18.916.333,79.000 us,2 B,,SP,55,Write Transaction,00 00,..,,,,,,,,,,
0,559,2:18.921.684,82.300 us,2 B,,SP,55,Read Transaction,00 00*,..,,,,,,,,,,
0,560,2:18.936.350,79.000 us,2 B,,SP,55,Write Transaction,00 00,..,,,,,,,,,,
0,561,2:18.941.697,81.900 us,2 B,,SP,55,Read Transaction,00 00*,..,,,,,,,,,,
0,562,2:18.956.364,79.000 us,2 B,,SP,55,Write Transaction,00 00,..,,,,,,,,,,
0,563,2:18.961.708,82.300 us,2 B,,SP,55,Read Transaction,00 08*,..,,,,,,,,,,
0,564,2:18.962.067,79.000 us,2 B,,SP,55,Write Transaction,12 01,..,,,,,,,,,,
0,565,2:18.970.409,2.321.000 ms,92 B,,SP,55,Read Transaction,00 58 FD 5F 02 55 01 CD 02 7D 87 02 7D 1C 10 00 0B 10 00 0A 20 00 03 20 00 00 02 02 58 00 00 00 00 00 00 00 00 00 00 00 00 00 00 00 00 03 00 00 00 00 00 00 00 00 00 00 00 00 00 00 00 00 00 00 00 00 00 00 00 00 00 00 00 00 00 00 00 00 00 00 00 00 02 01 00 00 00 00 00 00 01 01*,.X._.U...}..}....... .. …,,,,,,,,,,
0,566,2:18.976.394,79.000 us,2 B,,SP,55,Write Transaction,00 00,..,,,,,,,,,,
0,567,2:18.981.740,81.900 us,2 B,,SP,55,Read Transaction,00 00*,..,,,,,,,,,,
0,568,2:18.996.399,79.000 us,2 B,,SP,55,Write Transaction,00 00,..,,,,,,,,,,
0,569,2:19.001.745,82.400 us,2 B,,SP,55,Read Transaction,00 08*,..,,,,,,,,,,
0,570,2:19.002.103,79.000 us,2 B,,SP,55,Write Transaction,12 01,..,,,,,,,,,,
0,571,2:19.010.442,2.322.500 ms,92 B,,SP,55,Read Transaction,00 5D FD 63 02 5A 01 C7 02 7C 0A 02 7B AA 1F FF F8 1F FF F7 20 00 03 20 00 03 02 02 58 00 00 00 00 00 00 00 00 00 00 00 00 00 00 00 00 03 00 00 00 00 00 00 00 00 00 00 00 00 00 00 00 00 00 00 00 00 00 00 00 00 00 00 00 00 00 00 00 00 00 00 00 00 02 01 00 00 00 00 00 00 01 01*,.].c.Z...|..{....... .. …,,,,,,,,,,
0,572,2:19.016.427,79.000 us,2 B,,SP,55,Write Transaction,00 00,..,,,,,,,,,,
0,573,2:19.021.772,81.900 us,2 B,,SP,55,Read Transaction,00 00*,..,,,,,,,,,,
0,574,2:19.036.440,79.200 us,2 B,,SP,55,Write Transaction,00 00,..,,,,,,,,,,
0,575,2:19.041.792,82.300 us,2 B,,SP,55,Read Transaction,00 08*,..,,,,,,,,,,
0,576,2:19.042.151,79.000 us,2 B,,SP,55,Write Transaction,12 01,..,,,,,,,,,,
0,577,2:19.050.490,2.322.300 ms,92 B,,SP,55,Read Transaction,00 62 FD 60 02 59 01 CD 02 7A D9 02 7A 70 1F FF FD 1F FF FE 20 00 07 20 00 07 02 02 58 00 00 00 00 00 00 00 00 00 00 00 00 00 00 00 00 03 00 00 00 00 00 00 00 00 00 00 00 00 00 00 00 00 00 00 00 00 00 00 00 00 00 00 00 00 00 00 00 00 00 00 00 00 02 01 00 00 00 00 00 00 01 01*,.b.`.Y...z..zp...... .. …,,,,,,,,,,
0,578,2:19.056.468,79.000 us,2 B,,SP,55,Write Transaction,00 00,..,,,,,,,,,,
0,579,2:19.061.814,81.900 us,2 B,,SP,55,Read Transaction,00 00*,..,,,,,,,,,,
0,580,2:19.076.482,79.000 us,2 B,,SP,55,Write Transaction,00 00,..,,,,,,,,,,
0,581,2:19.081.828,82.300 us,2 B,,SP,55,Read Transaction,00 08*,..,,,,,,,,,,
0,582,2:19.082.186,79.100 us,2 B,,SP,55,Write Transaction,12 01,..,,,,,,,,,,
0,583,2:19.090.526,2.322.500 ms,92 B,,SP,55,Read Transaction,00 67 FD 62 02 5B 01 CF 02 7A 53 02 79 ED 1F FF F8 1F FF F7 20 00 06 20 00 08 02 02 4E 00 00 00 00 00 00 00 00 00 00 00 00 00 00 00 00 03 00 00 00 00 00 00 00 00 00 00 00 00 00 00 00 00 00 00 00 00 00 00 00 00 00 00 00 00 00 00 00 00 00 00 00 00 02 01 00 00 00 00 00 00 01 01*,.g.b.[...zS.y....... .. …,,,,,,,,,,
0,584,2:19.096.504,79.000 us,2 B,,SP,55,Write Transaction,00 00,..,,,,,,,,,,
0,585,2:19.101.849,81.900 us,2 B,,SP,55,Read Transaction,00 00*,..,,,,,,,,,,
0,586,2:19.116.276,79.000 us,2 B,,SP,55,Write Transaction,00 00,..,,,,,,,,,,
0,587,2:19.121.622,82.200 us,2 B,,SP,55,Read Transaction,00 00*,..,,,,,,,,,,
0,588,2:19.136.298,79.100 us,2 B,,SP,55,Write Transaction,00 00,..,,,,,,,,,,
0,589,2:19.141.645,82.000 us,2 B,,SP,55,Read Transaction,00 00*,..,,,,,,,,,,
0,590,2:19.156.315,79.200 us,2 B,,SP,55,Write Transaction,00 00,..,,,,,,,,,,
0,591,2:19.161.670,82.400 us,2 B,,SP,55,Read Transaction,00 08*,..,,,,,,,,,,
0,592,2:19.162.030,79.100 us,2 B,,SP,55,Write Transaction,12 01,..,,,,,,,,,,
0,593,2:19.170.371,2.322.400 ms,92 B,,SP,55,Read Transaction,00 6C FD 5F 02 56 01 C9 02 79 E9 02 79 86 10 00 0D 10 00 0E 20 00 04 20 00 03 02 02 4E 00 00 00 00 00 00 00 00 00 00 00 00 00 00 00 00 03 00 00 00 00 00 00 00 00 00 00 00 00 00 00 00 00 00 00 00 00 00 00 00 00 00 00 00 00 00 00 00 00 00 00 00 00 02 01 00 00 00 00 00 00 01 01*,.l._.V...y..y....... .. …,,,,,,,,,,
0,594,2:19.176.337,79.000 us,2 B,,SP,55,Write Transaction,00 00,..,,,,,,,,,,
0,595,2:19.181.681,82.100 us,2 B,,SP,55,Read Transaction,00 00*,..,,,,,,,,,,
0,596,2:19.196.353,79.100 us,2 B,,SP,55,Write Transaction,00 00,..,,,,,,,,,,
0,597,2:19.201.704,82.300 us,2 B,,SP,55,Read Transaction,00 08*,..,,,,,,,,,,
0,598,2:19.202.063,78.900 us,2 B,,SP,55,Write Transaction,12 01,..,,,,,,,,,,
0,599,2:19.210.400,2.322.300 ms,92 B,,SP,55,Read Transaction,00 71 FD 5F 02 58 01 CF 02 79 C1 02 79 58 10 00 07 10 00 05 2F FF FC 2F FF FC 02 02 4E 00 00 00 00 00 00 00 00 00 00 00 00 00 00 00 00 03 00 00 00 00 00 00 00 00 00 00 00 00 00 00 00 00 00 00 00 00 00 00 00 00 00 00 00 00 00 00 00 00 00 00 00 00 02 01 00 00 00 00 00 00 01 01*,.q._.X...y..yX....../../…,,,,,,,,,,
0,600,2:19.216.367,79.200 us,2 B,,SP,55,Write Transaction,00 00,..,,,,,,,,,,
0,601,2:19.221.723,82.000 us,2 B,,SP,55,Read Transaction,00 00*,..,,,,,,,,,,
0,602,2:19.236.398,79.100 us,2 B,,SP,55,Write Transaction,00 00,..,,,,,,,,,,
0,603,2:19.241.755,82.400 us,2 B,,SP,55,Read Transaction,00 08*,..,,,,,,,,,,
0,604,2:19.242.116,79.100 us,2 B,,SP,55,Write Transaction,12 01,..,,,,,,,,,,
0,605,2:19.250.469,2.326.100 ms,92 B,,SP,55,Read Transaction,00 76 FD 5F 02 5E 01 CC 02 79 C3 02 79 62 1F FF FE 1F FF FC 20 00 05 20 00 05 02 02 4E 00 00 00 00 00 00 00 00 00 00 00 00 00 00 00 00 03 00 00 00 00 00 00 00 00 00 00 00 00 00 00 00 00 00 00 00 00 00 00 00 00 00 00 00 00 00 00 00 00 00 00 00 00 02 01 00 00 00 00 00 00 01 01*,.v._.^...y..yb...... .. …,,,,,,,,,,
0,606,2:19.256.415,79.100 us,2 B,,SP,55,Write Transaction,00 00,..,,,,,,,,,,
0,607,2:19.261.765,82.000 us,2 B,,SP,55,Read Transaction,00 00*,..,,,,,,,,,,
0,608,2:19.276.416,79.000 us,2 B,,SP,55,Write Transaction,00 00,..,,,,,,,,,,
0,609,2:19.281.767,82.300 us,2 B,,SP,55,Read Transaction,00 08*,..,,,,,,,,,,
0,610,2:19.282.128,79.000 us,2 B,,SP,55,Write Transaction,12 01,..,,,,,,,,,,
0,611,2:19.290.472,2.322.400 ms,92 B,,SP,55,Read Transaction,00 7B FD 5E 02 5C 01 CC 02 7A 10 02 79 A3 1F FF F8 1F FF F9 2F FF F4 2F FF F4 02 02 4E 00 00 00 00 00 00 00 00 00 00 00 00 00 00 00 00 03 00 00 00 00 00 00 00 00 00 00 00 00 00 00 00 00 00 00 00 00 00 00 00 00 00 00 00 00 00 00 00 00 00 00 00 00 02 01 00 00 00 00 00 00 01 01*,.{.^.\...z..y......./../…,,,,,,,,,,
0,612,2:19.296.443,79.000 us,2 B,,SP,55,Write Transaction,00 00,..,,,,,,,,,,
0,613,2:19.301.789,81.900 us,2 B,,SP,55,Read Transaction,00 00*,..,,,,,,,,,,
0,614,2:19.316.456,79.100 us,2 B,,SP,55,Write Transaction,00 00,..,,,,,,,,,,
0,615,2:19.321.810,82.400 us,2 B,,SP,55,Read Transaction,00 00*,..,,,,,,,,,,
0,616,2:19.336.488,79.100 us,2 B,,SP,55,Write Transaction,00 00,..,,,,,,,,,,
0,617,2:19.341.835,81.900 us,2 B,,SP,55,Read Transaction,00 00*,..,,,,,,,,,,
0,618,2:19.356.255,79.100 us,2 B,,SP,55,Write Transaction,00 00,..,,,,,,,,,,
0,619,2:19.361.600,82.200 us,2 B,,SP,55,Read Transaction,00 08*,..,,,,,,,,,,
0,620,2:19.361.959,79.000 us,2 B,,SP,55,Write Transaction,12 01,..,,,,,,,,,,
0,621,2:19.370.298,2.322.400 ms,92 B,,SP,55,Read Transaction,00 80 FD 5C 02 57 01 CE 02 7A 83 02 7A 1D 1F FF F6 1F FF F6 20 00 0C 20 00 0B 02 02 4E 00 00 00 00 00 00 00 00 00 00 00 00 00 00 00 00 03 00 00 00 00 00 00 00 00 00 00 00 00 00 00 00 00 00 00 00 00 00 00 00 00 00 00 00 00 00 00 00 00 00 00 00 00 02 01 00 00 00 00 00 00 01 01*,...\.W...z..z....... .. …,,,,,,,,,,
0,622,2:19.376.273,79.000 us,2 B,,SP,55,Write Transaction,00 00,..,,,,,,,,,,
0,623,2:19.381.621,82.000 us,2 B,,SP,55,Read Transaction,00 00*,..,,,,,,,,,,
0,624,2:19.396.286,79.000 us,2 B,,SP,55,Write Transaction,00 00,..,,,,,,,,,,
0,625,2:19.401.633,82.300 us,2 B,,SP,55,Read Transaction,00 08*,..,,,,,,,,,,
0,626,2:19.401.993,79.100 us,2 B,,SP,55,Write Transaction,12 01,..,,,,,,,,,,
0,627,2:19.410.333,2.322.400 ms,92 B,,SP,55,Read Transaction,00 85 FD 5D 02 57 01 CB 02 7A F5 02 7A 8D 1F FF F8 1F FF F8 20 00 02 20 00 00 02 02 4E 00 00 00 00 00 00 00 00 00 00 00 00 00 00 00 00 03 00 00 00 00 00 00 00 00 00 00 00 00 00 00 00 00 00 00 00 00 00 00 00 00 00 00 00 00 00 00 00 00 00 00 00 00 02 01 00 00 00 00 00 00 01 01*,...].W...z..z....... .. …,,,,,,,,,,
0,628,2:19.416.311,79.100 us,2 B,,SP,55,Write Transaction,00 00,..,,,,,,,,,,
0,629,2:19.421.681,82.000 us,2 B,,SP,55,Read Transaction,00 00*,..,,,,,,,,,,
0,630,2:19.436.338,79.000 us,2 B,,SP,55,Write Transaction,00 00,..,,,,,,,,,,
0,631,2:19.441.684,82.300 us,2 B,,SP,55,Read Transaction,00 08*,..,,,,,,,,,,
0,632,2:19.442.043,79.000 us,2 B,,SP,55,Write Transaction,12 01,..,,,,,,,,,,
0,633,2:19.450.383,2.321.200 ms,92 B,,SP,55,Read Transaction,00 8A FD 5B 02 5C 01 C5 02 7B 59 02 7A F0 10 00 0E 10 00 0C 2F FF F8 2F FF F7 02 02 4E 00 00 00 00 00 00 00 00 00 00 00 00 00 00 00 00 03 00 00 00 00 00 00 00 00 00 00 00 00 00 00 00 00 00 00 00 00 00 00 00 00 00 00 00 00 00 00 00 00 00 00 00 00 02 01 00 00 00 00 00 00 01 01*,...[.\...{Y.z......./../…,,,,,,,,,,
0,634,2:19.456.348,79.100 us,2 B,,SP,55,Write Transaction,00 00,..,,,,,,,,,,
0,635,2:19.461.747,82.000 us,2 B,,SP,55,Read Transaction,00 00*,..,,,,,,,,,,
0,636,2:19.476.366,79.000 us,2 B,,SP,55,Write Transaction,00 00,..,,,,,,,,,,
0,637,2:19.481.713,82.300 us,2 B,,SP,55,Read Transaction,00 08*,..,,,,,,,,,,
0,638,2:19.482.072,79.000 us,2 B,,SP,55,Write Transaction,12 01,..,,,,,,,,,,
0,639,2:19.490.412,2.322.400 ms,92 B,,SP,55,Read Transaction,00 8F FD 5D 02 55 01 CA 02 7B EB 02 7B 83 1F FF F9 1F FF F9 2F FF FE 20 00 00 02 02 4E 00 00 00 00 00 00 00 00 00 00 00 00 00 00 00 00 03 00 00 00 00 00 00 00 00 00 00 00 00 00 00 00 00 00 00 00 00 00 00 00 00 00 00 00 00 00 00 00 00 00 00 00 00 02 01 00 00 00 00 00 00 01 01*,...].U...{..{......./.. …,,,,,,,,,,
0,640,2:19.496.386,79.100 us,2 B,,SP,55,Write Transaction,00 00,..,,,,,,,,,,
0,641,2:19.501.733,81.900 us,2 B,,SP,55,Read Transaction,00 00*,..,,,,,,,,,,
0,642,2:19.516.404,79.000 us,2 B,,SP,55,Write Transaction,00 00,..,,,,,,,,,,
0,643,2:19.521.750,82.200 us,2 B,,SP,55,Read Transaction,00 00*,..,,,,,,,,,,
0,644,2:19.536.424,79.100 us,2 B,,SP,55,Write Transaction,00 00,..,,,,,,,,,,
0,645,2:19.541.768,81.900 us,2 B,,SP,55,Read Transaction,00 00*,..,,,,,,,,,,
0,646,2:19.556.452,79.000 us,2 B,,SP,55,Write Transaction,00 00,..,,,,,,,,,,
0,647,2:19.561.798,82.300 us,2 B,,SP,55,Read Transaction,00 08*,..,,,,,,,,,,
0,648,2:19.562.157,79.000 us,2 B,,SP,55,Write Transaction,12 01,..,,,,,,,,,,
0,649,2:19.570.496,2.322.000 ms,92 B,,SP,55,Read Transaction,00 94 FD 60 02 59 01 C6 02 7C 88 02 7C 20 1F FF FD 1F FF FD 2F FF F4 2F FF F3 02 02 4E 00 21 17 19 00 00 00 00 00 00 00 00 00 00 00 00 03 00 00 00 00 00 00 00 00 00 00 00 00 00 00 00 00 00 00 00 00 00 00 00 00 00 00 00 00 00 00 00 00 00 00 00 00 02 01 00 00 00 00 00 00 01 01*,...`.Y...|..| ....../../…,,,,,,,,,,
0,650,2:19.576.461,79.000 us,2 B,,SP,55,Write Transaction,00 00,..,,,,,,,,,,
0,651,2:19.581.808,81.900 us,2 B,,SP,55,Read Transaction,00 00*,..,,,,,,,,,,
0,652,2:19.596.503,79.100 us,2 B,,SP,55,Write Transaction,00 00,..,,,,,,,,,,
0,653,2:19.601.851,82.300 us,2 B,,SP,55,Read Transaction,00 08*,..,,,,,,,,,,
0,654,2:19.602.212,79.000 us,2 B,,SP,55,Write Transaction,12 01,..,,,,,,,,,,
0,655,2:19.610.551,2.322.700 ms,92 B,,SP,55,Read Transaction,00 99 FD 5F 02 59 01 CA 02 7C FF 02 7C 96 10 00 08 10 00 08 20 00 01 20 00 01 02 02 4E 00 00 00 00 00 00 00 00 00 00 00 00 00 00 00 00 03 00 00 00 00 00 00 00 00 00 00 00 00 00 00 00 00 00 00 00 00 00 00 00 00 00 00 00 00 00 00 00 00 00 00 00 00 02 01 00 00 00 00 00 00 01 01*,..._.Y...|..|....... .. …,,,,,,,,,,
0,656,2:19.616.251,79.100 us,2 B,,SP,55,Write Transaction,00 00,..,,,,,,,,,,
0,657,2:19.621.599,82.100 us,2 B,,SP,55,Read Transaction,00 00*,..,,,,,,,,,,
0,658,2:19.636.267,79.000 us,2 B,,SP,55,Write Transaction,00 00,..,,,,,,,,,,
0,659,2:19.641.612,82.300 us,2 B,,SP,55,Read Transaction,00 08*,..,,,,,,,,,,
0,660,2:19.641.974,79.000 us,2 B,,SP,55,Write Transaction,12 01,..,,,,,,,,,,
0,661,2:19.650.315,2.322.000 ms,92 B,,SP,55,Read Transaction,00 9E FD 5B 02 5E 01 C1 02 7D 97 02 7D 31 10 00 0D 10 00 0C 20 00 05 20 00 07 02 02 4E 00 00 00 00 00 00 00 00 00 00 00 00 00 00 00 00 03 00 00 00 00 00 00 00 00 00 00 00 00 00 00 00 00 00 00 00 00 00 00 00 00 00 00 00 00 00 00 00 00 00 00 00 00 02 01 00 00 00 00 00 00 01 01*,...[.^...}..}1...... .. …,,,,,,,,,,
0,662,2:19.656.288,79.000 us,2 B,,SP,55,Write Transaction,00 00,..,,,,,,,,,,
0,663,2:19.661.634,81.900 us,2 B,,SP,55,Read Transaction,00 00*,..,,,,,,,,,,
0,664,2:19.676.314,79.000 us,2 B,,SP,55,Write Transaction,00 00,..,,,,,,,,,,
0,665,2:19.681.658,82.200 us,2 B,,SP,55,Read Transaction,00 08*,..,,,,,,,,,,
0,666,2:19.682.016,79.100 us,2 B,,SP,55,Write Transaction,12 01,..,,,,,,,,,,
0,667,2:19.690.357,2.321.100 ms,92 B,,SP,55,Read Transaction,00 A3 FD 5C 02 56 01 CA 02 7D 30 02 7C CA 1F FF FF 10 00 00 2F FF FF 2F FF FF 02 02 4E 00 00 00 00 00 00 00 00 00 00 00 00 00 00 00 00 03 00 00 00 00 00 00 00 00 00 00 00 00 00 00 00 00 00 00 00 00 00 00 00 00 00 00 00 00 00 00 00 00 00 00 00 00 02 01 00 00 00 00 00 00 01 01*,...\.V...}0.|......./../…,,,,,,,,,,
0,668,2:19.696.341,79.000 us,2 B,,SP,55,Write Transaction,00 00,..,,,,,,,,,,
0,669,2:19.701.684,81.900 us,2 B,,SP,55,Read Transaction,00 00*,..,,,,,,,,,,
0,670,2:19.716.348,79.100 us,2 B,,SP,55,Write Transaction,00 00,..,,,,,,,,,,
0,671,2:19.721.694,82.300 us,2 B,,SP,55,Read Transaction,00 00*,..,,,,,,,,,,
0,672,2:19.736.376,79.100 us,2 B,,SP,55,Write Transaction,00 00,..,,,,,,,,,,
0,673,2:19.741.723,82.000 us,2 B,,SP,55,Read Transaction,00 00*,..,,,,,,,,,,
0,674,2:19.756.387,79.100 us,2 B,,SP,55,Write Transaction,00 00,..,,,,,,,,,,
0,675,2:19.761.732,82.300 us,2 B,,SP,55,Read Transaction,00 08*,..,,,,,,,,,,
0,676,2:19.762.091,79.100 us,2 B,,SP,55,Write Transaction,12 01,..,,,,,,,,,,
0,677,2:19.770.431,2.322.300 ms,92 B,,SP,55,Read Transaction,00 A8 FD 5F 02 52 01 C7 02 7A 87 02 7A 20 1F FF FE 1F FF FF 2F FF FA 2F FF FA 02 02 4E 00 00 00 00 00 00 00 00 00 00 00 00 00 00 00 00 03 00 00 00 00 00 00 00 00 00 00 00 00 00 00 00 00 00 00 00 00 00 00 00 00 00 00 00 00 00 00 00 00 00 00 00 00 02 01 00 00 00 00 00 00 01 01*,..._.R...z..z ....../../…,,,,,,,,,,
0,678,2:19.776.414,79.000 us,2 B,,SP,55,Write Transaction,00 00,..,,,,,,,,,,
0,679,2:19.781.761,81.900 us,2 B,,SP,55,Read Transaction,00 00*,..,,,,,,,,,,
0,680,2:19.796.418,79.000 us,2 B,,SP,55,Write Transaction,00 00,..,,,,,,,,,,
0,681,2:19.801.763,82.300 us,2 B,,SP,55,Read Transaction,00 08*,..,,,,,,,,,,
0,682,2:19.802.122,79.100 us,2 B,,SP,55,Write Transaction,12 01,..,,,,,,,,,,
0,683,2:19.810.462,2.322.300 ms,92 B,,SP,55,Read Transaction,00 AD FD 62 02 52 01 C4 02 77 BB 02 77 52 1F FF F7 1F FF F5 2F FF F9 2F FF F9 02 02 4E 00 00 00 00 00 00 00 00 00 00 00 00 00 00 00 00 03 00 00 00 00 00 00 00 00 00 00 00 00 00 00 00 00 00 00 00 00 00 00 00 00 00 00 00 00 00 00 00 00 00 00 00 00 02 01 00 00 00 00 00 00 01 01*,...b.R...w..wR....../../…,,,,,,,,,,
0,684,2:19.816.443,79.100 us,2 B,,SP,55,Write Transaction,00 00,..,,,,,,,,,,
0,685,2:19.821.793,81.900 us,2 B,,SP,55,Read Transaction,00 00*,..,,,,,,,,,,
0,686,2:19.836.464,78.900 us,2 B,,SP,55,Write Transaction,00 00,..,,,,,,,,,,
0,687,2:19.841.811,82.300 us,2 B,,SP,55,Read Transaction,00 08*,..,,,,,,,,,,
0,688,2:19.842.169,79.100 us,2 B,,SP,55,Write Transaction,12 01,..,,,,,,,,,,
0,689,2:19.850.514,2.321.900 ms,92 B,,SP,55,Read Transaction,00 B2 FD 5F 02 5B 01 C3 02 75 B1 02 75 46 1F FF FC 1F FF FE 2F FF FA 2F FF FB 02 02 4E 00 00 00 00 00 00 00 00 00 00 00 00 00 00 00 00 03 00 00 00 00 00 00 00 00 00 00 00 00 00 00 00 00 00 00 00 00 00 00 00 00 00 00 00 00 00 00 00 00 00 00 00 00 02 01 00 00 00 00 00 00 01 01*,..._.[...u..uF....../../…,,,,,,,,,,
0,690,2:19.856.239,79.000 us,2 B,,SP,55,Write Transaction,00 00,..,,,,,,,,,,
0,691,2:19.861.585,82.000 us,2 B,,SP,55,Read Transaction,00 00*,..,,,,,,,,,,
0,692,2:19.876.259,79.000 us,2 B,,SP,55,Write Transaction,00 00,..,,,,,,,,,,
0,693,2:19.881.605,82.400 us,2 B,,SP,55,Read Transaction,00 08*,..,,,,,,,,,,
0,694,2:19.881.964,79.100 us,2 B,,SP,55,Write Transaction,12 01,..,,,,,,,,,,
0,695,2:19.890.305,2.322.500 ms,92 B,,SP,55,Read Transaction,00 B7 FD 5F 02 51 01 C5 02 74 2A 02 73 BD 10 00 0A 10 00 0D 2F FF FC 2F FF FC 02 02 4E 00 00 00 00 00 00 00 00 00 00 00 00 00 00 00 00 03 00 00 00 00 00 00 00 00 00 00 00 00 00 00 00 00 00 00 00 00 00 00 00 00 00 00 00 00 00 00 00 00 00 00 00 00 02 01 00 00 00 00 00 00 01 01*,..._.Q...t*.s......./../…,,,,,,,,,,
0,696,2:19.896.272,79.100 us,2 B,,SP,55,Write Transaction,00 00,..,,,,,,,,,,
0,697,2:19.901.617,81.900 us,2 B,,SP,55,Read Transaction,00 00*,..,,,,,,,,,,
0,698,2:19.916.291,79.000 us,2 B,,SP,55,Write Transaction,00 00,..,,,,,,,,,,
0,699,2:19.921.638,82.200 us,2 B,,SP,55,Read Transaction,00 00*,..,,,,,,,,,,
0,700,2:19.936.314,79.000 us,2 B,,SP,55,Write Transaction,00 00,..,,,,,,,,,,
0,701,2:19.941.660,82.000 us,2 B,,SP,55,Read Transaction,00 00*,..,,,,,,,,,,
0,702,2:19.956.325,79.100 us,2 B,,SP,55,Write Transaction,00 00,..,,,,,,,,,,
0,703,2:19.961.673,82.200 us,2 B,,SP,55,Read Transaction,00 08*,..,,,,,,,,,,
0,704,2:19.962.034,79.000 us,2 B,,SP,55,Write Transaction,12 01,..,,,,,,,,,,
0,705,2:19.970.370,2.321.700 ms,92 B,,SP,55,Read Transaction,00 BC FD 5C 02 59 01 C8 02 73 40 02 72 D8 10 00 07 10 00 06 20 00 06 20 00 05 02 02 4E 00 00 00 00 00 00 00 00 00 00 00 00 00 00 00 00 03 00 00 00 00 00 00 00 00 00 00 00 00 00 00 00 00 00 00 00 00 00 00 00 00 00 00 00 00 00 00 00 00 00 00 00 00 02 01 00 00 00 00 00 00 01 01*,...\.Y...s@.r....... .. …,,,,,,,,,,
0,706,2:19.976.354,79.000 us,2 B,,SP,55,Write Transaction,00 00,..,,,,,,,,,,
0,707,2:19.981.700,82.000 us,2 B,,SP,55,Read Transaction,00 00*,..,,,,,,,,,,
0,708,2:19.996.362,79.000 us,2 B,,SP,55,Write Transaction,00 00,..,,,,,,,,,,
0,709,2:20.001.742,82.300 us,2 B,,SP,55,Read Transaction,00 08*,..,,,,,,,,,,
0,710,2:20.002.111,79.000 us,2 B,,SP,55,Write Transaction,12 01,..,,,,,,,,,,
0,711,2:20.010.455,2.322.300 ms,92 B,,SP,55,Read Transaction,00 C1 FD 5E 02 5A 01 CA 02 72 8D 02 72 26 10 00 08 10 00 08 20 00 0C 20 00 0B 02 02 4E 00 00 00 00 00 00 00 00 00 00 00 00 00 00 00 00 03 00 00 00 00 00 00 00 00 00 00 00 00 00 00 00 00 00 00 00 00 00 00 00 00 00 00 00 00 00 00 00 00 00 00 00 00 02 01 00 00 00 00 00 00 01 01*,...^.Z...r..r&...... .. …,,,,,,,,,,
0,712,2:20.016.393,79.000 us,2 B,,SP,55,Write Transaction,00 00,..,,,,,,,,,,
0,713,2:20.021.740,81.900 us,2 B,,SP,55,Read Transaction,00 00*,..,,,,,,,,,,
0,714,2:20.036.404,79.100 us,2 B,,SP,55,Write Transaction,00 00,..,,,,,,,,,,
0,715,2:20.041.747,82.200 us,2 B,,SP,55,Read Transaction,00 08*,..,,,,,,,,,,
0,716,2:20.042.105,79.000 us,2 B,,SP,55,Write Transaction,12 01,..,,,,,,,,,,
0,717,2:20.050.449,2.322.300 ms,92 B,,SP,55,Read Transaction,00 C6 FD 5C 02 59 01 CC 02 72 0C 02 71 A1 1F FF FC 1F FF FD 20 00 07 20 00 09 02 02 4E 00 00 00 00 00 00 00 00 00 00 00 00 00 00 00 00 03 00 00 00 00 00 00 00 00 00 00 00 00 00 00 00 00 00 00 00 00 00 00 00 00 00 00 00 00 00 00 00 00 00 00 00 00 02 01 00 00 00 00 00 00 01 01*,...\.Y...r..q....... .. …,,,,,,,,,,
0,718,2:20.056.421,79.100 us,2 B,,SP,55,Write Transaction,00 00,..,,,,,,,,,,
0,719,2:20.061.769,82.000 us,2 B,,SP,55,Read Transaction,00 00*,..,,,,,,,,,,
0,720,2:20.076.436,79.000 us,2 B,,SP,55,Write Transaction,00 00,..,,,,,,,,,,
0,721,2:20.081.782,82.200 us,2 B,,SP,55,Read Transaction,00 08*,..,,,,,,,,,,
0,722,2:20.082.140,79.000 us,2 B,,SP,55,Write Transaction,12 01,..,,,,,,,,,,
0,723,2:20.090.480,2.338.700 ms,92 B,,SP,55,Read Transaction,00 CB FD 5F 02 58 01 C9 02 71 AC 02 71 46 1F FF F7 1F FF F6 2F FF FF 20 00 01 02 02 4E 00 00 00 00 00 00 00 00 00 00 00 00 00 00 00 00 03 00 00 00 00 00 00 00 00 00 00 00 00 00 00 00 00 00 00 00 00 00 00 00 00 00 00 00 00 00 00 00 00 00 00 00 00 02 01 00 00 00 00 00 00 01 01*,..._.X...q..qF....../.. …,,,,,,,,,,
0,724,2:20.096.468,79.000 us,2 B,,SP,55,Write Transaction,00 00,..,,,,,,,,,,
0,725,2:20.101.814,81.900 us,2 B,,SP,55,Read Transaction,00 00*,..,,,,,,,,,,
0,726,2:20.116.239,79.000 us,2 B,,SP,55,Write Transaction,00 00,..,,,,,,,,,,
0,727,2:20.121.584,82.300 us,2 B,,SP,55,Read Transaction,00 00*,..,,,,,,,,,,
0,728,2:20.136.257,79.000 us,2 B,,SP,55,Write Transaction,00 00,..,,,,,,,,,,
0,729,2:20.141.606,82.100 us,2 B,,SP,55,Read Transaction,00 00*,..,,,,,,,,,,
0,730,2:20.156.267,79.100 us,2 B,,SP,55,Write Transaction,00 00,..,,,,,,,,,,
0,731,2:20.161.613,82.300 us,2 B,,SP,55,Read Transaction,00 08*,..,,,,,,,,,,
0,732,2:20.161.971,78.900 us,2 B,,SP,55,Write Transaction,12 01,..,,,,,,,,,,
0,733,2:20.170.309,2.322.200 ms,92 B,,SP,55,Read Transaction,00 D0 FD 60 02 55 01 C7 02 71 D6 02 71 71 10 00 05 10 00 03 2F FF F6 2F FF F6 02 02 4E 00 00 00 00 00 00 00 00 00 00 00 00 00 00 00 00 03 00 00 00 00 00 00 00 00 00 00 00 00 00 00 00 00 00 00 00 00 00 00 00 00 00 00 00 00 00 00 00 00 00 00 00 00 02 01 00 00 00 00 00 00 01 01*,...`.U...q..qq....../../…,,,,,,,,,,
0,734,2:20.176.292,79.000 us,2 B,,SP,55,Write Transaction,00 00,..,,,,,,,,,,
0,735,2:20.181.637,81.900 us,2 B,,SP,55,Read Transaction,00 00*,..,,,,,,,,,,
0,736,2:20.196.318,79.100 us,2 B,,SP,55,Write Transaction,00 00,..,,,,,,,,,,
0,737,2:20.201.664,82.300 us,2 B,,SP,55,Read Transaction,00 08*,..,,,,,,,,,,
0,738,2:20.202.023,79.000 us,2 B,,SP,55,Write Transaction,12 01,..,,,,,,,,,,
0,739,2:20.210.363,2.322.400 ms,92 B,,SP,55,Read Transaction,00 D5 FD 5B 02 5E 01 C5 02 72 0E 02 71 A6 10 00 02 10 00 01 20 00 09 20 00 0A 02 02 4E 00 00 00 00 00 00 00 00 00 00 00 00 00 00 00 00 03 00 00 00 00 00 00 00 00 00 00 00 00 00 00 00 00 00 00 00 00 00 00 00 00 00 00 00 00 00 00 00 00 00 00 00 00 02 01 00 00 00 00 00 00 01 01*,...[.^...r..q....... .. …,,,,,,,,,,
0,740,2:20.216.330,79.000 us,2 B,,SP,55,Write Transaction,00 00,..,,,,,,,,,,
0,741,2:20.221.675,81.900 us,2 B,,SP,55,Read Transaction,00 00*,..,,,,,,,,,,
0,742,2:20.236.353,79.000 us,2 B,,SP,55,Write Transaction,00 00,..,,,,,,,,,,
0,743,2:20.241.700,82.300 us,2 B,,SP,55,Read Transaction,00 08*,..,,,,,,,,,,
0,744,2:20.242.059,79.000 us,2 B,,SP,55,Write Transaction,12 01,..,,,,,,,,,,
0,745,2:20.250.399,2.322.300 ms,92 B,,SP,55,Read Transaction,00 DA FD 5A 02 5A 01 C8 02 72 6A 02 71 FF 1F FF F1 1F FF F2 20 00 0C 20 00 0D 02 02 4E 00 00 00 00 00 00 00 00 00 00 00 00 00 00 00 00 03 00 00 00 00 00 00 00 00 00 00 00 00 00 00 00 00 00 00 00 00 00 00 00 00 00 00 00 00 00 00 00 00 00 00 00 00 02 01 00 00 00 00 00 00 01 01*,...Z.Z...rj.q....... .. …,,,,,,,,,,
0,746,2:20.256.366,79.000 us,2 B,,SP,55,Write Transaction,00 00,..,,,,,,,,,,
0,747,2:20.261.712,81.900 us,2 B,,SP,55,Read Transaction,00 00*,..,,,,,,,,,,
0,748,2:20.276.395,79.000 us,2 B,,SP,55,Write Transaction,00 00,..,,,,,,,,,,
0,749,2:20.281.745,82.400 us,2 B,,SP,55,Read Transaction,00 08*,..,,,,,,,,,,
0,750,2:20.282.105,79.200 us,2 B,,SP,55,Write Transaction,12 01,..,,,,,,,,,,
0,751,2:20.290.458,2.325.900 ms,92 B,,SP,55,Read Transaction,00 DF FD 5D 02 58 01 C7 02 72 DE 02 72 72 10 00 0B 10 00 09 20 00 07 20 00 07 02 02 4E 00 00 00 00 00 00 00 00 00 00 00 00 00 00 00 00 03 00 00 00 00 00 00 00 00 00 00 00 00 00 00 00 00 00 00 00 00 00 00 00 00 00 00 00 00 00 00 00 00 00 00 00 00 02 01 00 00 00 00 00 00 01 01*,...].X...r..rr...... .. …,,,,,,,,,,
0,752,2:20.296.412,79.000 us,2 B,,SP,55,Write Transaction,00 00,..,,,,,,,,,,
0,753,2:20.301.758,81.900 us,2 B,,SP,55,Read Transaction,00 00*,..,,,,,,,,,,
0,754,2:20.316.418,79.000 us,2 B,,SP,55,Write Transaction,00 00,..,,,,,,,,,,
0,755,2:20.321.790,82.300 us,2 B,,SP,55,Read Transaction,00 00*,..,,,,,,,,,,
0,756,2:20.336.443,79.000 us,2 B,,SP,55,Write Transaction,00 00,..,,,,,,,,,,
0,757,2:20.341.788,82.000 us,2 B,,SP,55,Read Transaction,00 00*,..,,,,,,,,,,
0,758,2:20.356.208,79.100 us,2 B,,SP,55,Write Transaction,00 00,..,,,,,,,,,,
0,759,2:20.361.582,82.200 us,2 B,,SP,55,Read Transaction,00 08*,..,,,,,,,,,,
0,760,2:20.361.952,79.100 us,2 B,,SP,55,Write Transaction,12 01,..,,,,,,,,,,
0,761,2:20.370.294,2.322.400 ms,92 B,,SP,55,Read Transaction,00 E4 FD 5E 02 58 01 CE 02 73 44 02 72 D8 1F FF F4 1F FF F3 20 00 01 20 00 01 02 02 4E 00 20 6A 32 00 00 00 00 00 00 00 00 00 00 00 00 03 00 00 00 00 00 00 00 00 00 00 00 00 00 00 00 00 00 00 00 00 00 00 00 00 00 00 00 00 00 00 00 00 00 00 00 00 02 01 00 00 00 00 00 00 01 01*,...^.X...sD.r....... .. …,,,,,,,,,,
0,762,2:20.376.232,79.000 us,2 B,,SP,55,Write Transaction,00 00,..,,,,,,,,,,
0,763,2:20.381.578,82.000 us,2 B,,SP,55,Read Transaction,00 00*,..,,,,,,,,,,
0,764,2:20.396.247,79.000 us,2 B,,SP,55,Write Transaction,00 00,..,,,,,,,,,,
0,765,2:20.401.594,82.300 us,2 B,,SP,55,Read Transaction,00 08*,..,,,,,,,,,,
0,766,2:20.401.952,79.000 us,2 B,,SP,55,Write Transaction,12 01,..,,,,,,,,,,
0,767,2:20.410.295,2.322.300 ms,92 B,,SP,55,Read Transaction,00 E9 FD 5A 02 56 01 C5 02 73 C7 02 73 60 10 00 00 1F FF FF 20 00 04 20 00 04 02 02 4E 00 00 00 00 00 00 00 00 00 00 00 00 00 00 00 00 03 00 00 00 00 00 00 00 00 00 00 00 00 00 00 00 00 00 00 00 00 00 00 00 00 00 00 00 00 00 00 00 00 00 00 00 00 02 01 00 00 00 00 00 00 01 01*,...Z.V...s..s`...... .. …,,,,,,,,,,
0,768,2:20.416.281,79.100 us,2 B,,SP,55,Write Transaction,00 00,..,,,,,,,,,,
0,769,2:20.421.633,82.000 us,2 B,,SP,55,Read Transaction,00 00*,..,,,,,,,,,,
0,770,2:20.436.282,79.200 us,2 B,,SP,55,Write Transaction,00 00,..,,,,,,,,,,
0,771,2:20.441.636,82.300 us,2 B,,SP,55,Read Transaction,00 08*,..,,,,,,,,,,
0,772,2:20.441.994,79.100 us,2 B,,SP,55,Write Transaction,12 01,..,,,,,,,,,,
0,773,2:20.450.339,2.322.300 ms,92 B,,SP,55,Read Transaction,00 EE FD 5E 02 5B 01 C4 02 74 5E 02 73 F4 1F FF F1 1F FF EF 2F FF FD 2F FF FB 02 02 4E 00 00 00 00 00 00 00 00 00 00 00 00 00 00 00 00 03 00 00 00 00 00 00 00 00 00 00 00 00 00 00 00 00 00 00 00 00 00 00 00 00 00 00 00 00 00 00 00 00 00 00 00 00 02 01 00 00 00 00 00 00 01 01*,...^.[...t^.s......./../…,,,,,,,,,,
0,774,2:20.456.319,79.000 us,2 B,,SP,55,Write Transaction,00 00,..,,,,,,,,,,
0,775,2:20.461.664,82.100 us,2 B,,SP,55,Read Transaction,00 00*,..,,,,,,,,,,
0,776,2:20.476.333,79.000 us,2 B,,SP,55,Write Transaction,00 00,..,,,,,,,,,,
0,777,2:20.481.679,82.400 us,2 B,,SP,55,Read Transaction,00 08*,..,,,,,,,,,,
0,778,2:20.482.038,79.100 us,2 B,,SP,55,Write Transaction,12 01,..,,,,,,,,,,
0,779,2:20.490.378,2.322.300 ms,92 B,,SP,55,Read Transaction,00 F3 FD 5F 02 55 01 C6 02 74 E0 02 74 77 1F FF F2 1F FF F2 20 00 00 20 00 02 02 02 4E 00 00 00 00 00 00 00 00 00 00 00 00 00 00 00 00 03 00 00 00 00 00 00 00 00 00 00 00 00 00 00 00 00 00 00 00 00 00 00 00 00 00 00 00 00 00 00 00 00 00 00 00 00 02 01 00 00 00 00 00 00 01 01*,..._.U...t..tw...... .. …,,,,,,,,,,
0,780,2:20.496.346,79.000 us,2 B,,SP,55,Write Transaction,00 00,..,,,,,,,,,,
0,781,2:20.501.693,82.000 us,2 B,,SP,55,Read Transaction,00 00*,..,,,,,,,,,,
0,782,2:20.516.373,79.000 us,2 B,,SP,55,Write Transaction,00 00,..,,,,,,,,,,
0,783,2:20.521.717,82.300 us,2 B,,SP,55,Read Transaction,00 00*,..,,,,,,,,,,
0,784,2:20.536.375,79.000 us,2 B,,SP,55,Write Transaction,00 00,..,,,,,,,,,,
0,785,2:20.541.778,82.000 us,2 B,,SP,55,Read Transaction,00 00*,..,,,,,,,,,,
0,786,2:20.556.398,79.100 us,2 B,,SP,55,Write Transaction,00 00,..,,,,,,,,,,
0,787,2:20.561.743,82.300 us,2 B,,SP,55,Read Transaction,00 08*,..,,,,,,,,,,
0,788,2:20.562.102,79.000 us,2 B,,SP,55,Write Transaction,12 01,..,,,,,,,,,,
0,789,2:20.570.441,2.322.100 ms,92 B,,SP,55,Read Transaction,00 F8 FD 59 02 56 01 C4 02 72 FF 02 72 91 10 00 06 10 00 06 2F FF F8 2F FF F7 02 02 4E 00 00 00 00 00 00 00 00 00 00 00 00 00 00 00 00 03 00 00 00 00 00 00 00 00 00 00 00 00 00 00 00 00 00 00 00 00 00 00 00 00 00 00 00 00 00 00 00 00 00 00 00 00 02 01 00 00 00 00 00 00 01 01*,...Y.V...r..r......./../…,,,,,,,,,,
0,790,2:20.576.420,79.000 us,2 B,,SP,55,Write Transaction,00 00,..,,,,,,,,,,
0,791,2:20.581.764,82.000 us,2 B,,SP,55,Read Transaction,00 00*,..,,,,,,,,,,
0,792,2:20.596.441,79.000 us,2 B,,SP,55,Write Transaction,00 00,..,,,,,,,,,,
0,793,2:20.601.787,82.200 us,2 B,,SP,55,Read Transaction,00 08*,..,,,,,,,,,,
0,794,2:20.602.146,79.000 us,2 B,,SP,55,Write Transaction,12 01,..,,,,,,,,,,
0,795,2:20.610.486,2.322.300 ms,92 B,,SP,55,Read Transaction,00 FD FD 5D 02 5C 01 C5 02 6F AF 02 6F 47 10 00 0E 10 00 0D 20 00 02 20 00 03 02 02 4E 00 00 00 00 00 00 00 00 00 00 00 00 00 00 00 00 03 00 00 00 00 00 00 00 00 00 00 00 00 00 00 00 00 00 00 00 00 00 00 00 00 00 00 00 00 00 00 00 00 00 00 00 00 02 01 00 00 00 00 00 00 01 01*,...].\...o..oG...... .. …,,,,,,,,,,
0,796,2:20.616.210,79.000 us,2 B,,SP,55,Write Transaction,00 00,..,,,,,,,,,,
0,797,2:20.621.555,82.100 us,2 B,,SP,55,Read Transaction,00 00*,..,,,,,,,,,,
0,798,2:20.636.236,79.100 us,2 B,,SP,55,Write Transaction,00 00,..,,,,,,,,,,
0,799,2:20.641.584,82.400 us,2 B,,SP,55,Read Transaction,00 08*,..,,,,,,,,,,
0,800,2:20.641.942,79.000 us,2 B,,SP,55,Write Transaction,12 01,..,,,,,,,,,,
0,801,2:20.650.282,2.322.300 ms,92 B,,SP,55,Read Transaction,00 02 FD 5B 02 5D 01 C2 02 6C CA 02 6C 60 1F FF EF 1F FF F0 2F FF FC 2F FF FC 02 02 4E 00 00 00 00 00 00 00 00 00 00 00 00 00 00 00 00 03 00 00 00 00 00 00 00 00 00 00 00 00 00 00 00 00 00 00 00 00 00 00 00 00 00 00 00 00 00 00 00 00 00 00 00 00 02 01 00 00 00 00 00 00 02 02*,...[.]...l..l`....../../…,,,,,,,,,,
0,802,2:20.656.252,79.100 us,2 B,,SP,55,Write Transaction,00 00,..,,,,,,,,,,
0,803,2:20.661.596,82.100 us,2 B,,SP,55,Read Transaction,00 00*,..,,,,,,,,,,
0,804,2:20.676.273,79.200 us,2 B,,SP,55,Write Transaction,00 00,..,,,,,,,,,,
0,805,2:20.681.671,82.200 us,2 B,,SP,55,Read Transaction,00 08*,..,,,,,,,,,,
0,806,2:20.682.031,79.100 us,2 B,,SP,55,Write Transaction,12 01,..,,,,,,,,,,
0,807,2:20.690.374,2.322.400 ms,92 B,,SP,55,Read Transaction,00 07 FD 5F 02 57 01 C7 02 6A 82 02 6A 21 10 00 00 10 00 00 2F FF F8 2F FF F8 02 02 4E 00 00 00 00 00 00 00 00 00 00 00 00 00 00 00 00 03 00 00 00 00 00 00 00 00 00 00 00 00 00 00 00 00 00 00 00 00 00 00 00 00 00 00 00 00 00 00 00 00 00 00 00 00 02 01 00 00 00 00 00 00 02 02*,..._.W...j..j!....../../…,,,,,,,,,,
0,808,2:20.696.295,79.000 us,2 B,,SP,55,Write Transaction,00 00,..,,,,,,,,,,
0,809,2:20.701.639,81.900 us,2 B,,SP,55,Read Transaction,00 00*,..,,,,,,,,,,
0,810,2:20.716.311,79.000 us,2 B,,SP,55,Write Transaction,00 00,..,,,,,,,,,,
0,811,2:20.721.657,82.300 us,2 B,,SP,55,Read Transaction,00 00*,..,,,,,,,,,,
0,812,2:20.736.330,79.000 us,2 B,,SP,55,Write Transaction,00 00,..,,,,,,,,,,
0,813,2:20.741.677,82.100 us,2 B,,SP,55,Read Transaction,00 00*,..,,,,,,,,,,
0,814,2:20.756.343,79.100 us,2 B,,SP,55,Write Transaction,00 00,..,,,,,,,,,,
0,815,2:20.761.691,82.300 us,2 B,,SP,55,Read Transaction,00 08*,..,,,,,,,,,,
0,816,2:20.762.049,79.000 us,2 B,,SP,55,Write Transaction,12 01,..,,,,,,,,,,
0,817,2:20.770.392,2.322.200 ms,92 B,,SP,55,Read Transaction,00 0C FD 5E 02 5C 01 CB 02 68 FC 02 68 96 1F FF F9 1F FF F9 2F FF F6 2F FF F7 02 02 4E 00 00 00 00 00 00 00 00 00 00 00 00 00 00 00 00 03 00 00 00 00 00 00 00 00 00 00 00 00 00 00 00 00 00 00 00 00 00 00 00 00 00 00 00 00 00 00 00 00 00 00 00 00 02 01 00 00 00 00 00 00 02 02*,...^.\...h..h......./../…,,,,,,,,,,
0,818,2:20.776.364,79.000 us,2 B,,SP,55,Write Transaction,00 00,..,,,,,,,,,,
0,819,2:20.781.710,82.100 us,2 B,,SP,55,Read Transaction,00 00*,..,,,,,,,,,,
0,820,2:20.796.389,79.100 us,2 B,,SP,55,Write Transaction,00 00,..,,,,,,,,,,
0,821,2:20.801.742,82.300 us,2 B,,SP,55,Read Transaction,00 08*,..,,,,,,,,,,
0,822,2:20.802.100,79.100 us,2 B,,SP,55,Write Transaction,12 01,..,,,,,,,,,,
0,823,2:20.810.450,2.322.300 ms,92 B,,SP,55,Read Transaction,00 11 FD 5E 02 55 01 C4 02 68 13 02 67 A9 1F FF F0 1F FF F0 20 00 05 20 00 06 02 02 4E 00 00 00 00 00 00 00 00 00 00 00 00 00 00 00 00 03 00 00 00 00 00 00 00 00 00 00 00 00 00 00 00 00 00 00 00 00 00 00 00 00 00 00 00 00 00 00 00 00 00 00 00 00 02 01 00 00 00 00 00 00 02 02*,...^.U...h..g....... .. …,,,,,,,,,,
0,824,2:20.816.412,79.100 us,2 B,,SP,55,Write Transaction,00 00,..,,,,,,,,,,
0,825,2:20.821.758,82.000 us,2 B,,SP,55,Read Transaction,00 00*,..,,,,,,,,,,
0,826,2:20.836.412,79.100 us,2 B,,SP,55,Write Transaction,00 00,..,,,,,,,,,,
0,827,2:20.841.757,82.300 us,2 B,,SP,55,Read Transaction,00 08*,..,,,,,,,,,,
0,828,2:20.842.116,79.000 us,2 B,,SP,55,Write Transaction,12 01,..,,,,,,,,,,
0,829,2:20.850.452,2.322.400 ms,92 B,,SP,55,Read Transaction,00 16 FD 61 02 5B 01 C5 02 67 2F 02 66 CC 10 00 03 10 00 03 2F FF FE 2F FF FE 02 02 4E 00 00 00 00 00 00 00 00 00 00 00 00 00 00 00 00 03 00 00 00 00 00 00 00 00 00 00 00 00 00 00 00 00 00 00 00 00 00 00 00 00 00 00 00 00 00 00 00 00 00 00 00 00 02 01 00 00 00 00 00 00 02 02*,...a.[...g/.f......./../…,,,,,,,,,,
0,830,2:20.856.190,79.100 us,2 B,,SP,55,Write Transaction,00 00,..,,,,,,,,,,
0,831,2:20.861.539,82.100 us,2 B,,SP,55,Read Transaction,00 00*,..,,,,,,,,,,
0,832,2:20.876.216,79.000 us,2 B,,SP,55,Write Transaction,00 00,..,,,,,,,,,,
0,833,2:20.881.561,82.300 us,2 B,,SP,55,Read Transaction,00 08*,..,,,,,,,,,,
0,834,2:20.881.919,79.000 us,2 B,,SP,55,Write Transaction,12 01,..,,,,,,,,,,
0,835,2:20.890.271,2.325.400 ms,92 B,,SP,55,Read Transaction,00 1B FD 5B 02 58 01 C7 02 66 94 02 66 2C 1F FF F8 1F FF F7 20 00 05 20 00 06 02 02 4E 00 00 00 00 00 00 00 00 00 00 00 00 00 00 00 00 03 00 00 00 00 00 00 00 00 00 00 00 00 00 00 00 00 00 00 00 00 00 00 00 00 00 00 00 00 00 00 00 00 00 00 00 00 02 01 00 00 00 00 00 00 02 02*,...[.X...f..f,...... .. …,,,,,,,,,
0,836,2:20.896.242,79.100 us,2 B,,SP,55,Write Transaction,00 00,..,,,,,,,,,,
0,837,2:20.901.587,82.000 us,2 B,,SP,55,Read Transaction,00 00*,..,,,,,,,,,,
0,838,2:20.916.250,79.000 us,2 B,,SP,55,Write Transaction,00 00,..,,,,,,,,,,
0,839,2:20.921.596,82.300 us,2 B,,SP,55,Read Transaction,00 00*,..,,,,,,,,,,
0,840,2:20.936.263,79.000 us,2 B,,SP,55,Write Transaction,00 00,..,,,,,,,,,,
0,841,2:20.941.608,82.100 us,2 B,,SP,55,Read Transaction,00 00*,..,,,,,,,,,,
0,842,2:20.956.293,79.000 us,2 B,,SP,55,Write Transaction,00 00,..,,,,,,,,,,
0,843,2:20.961.639,82.300 us,2 B,,SP,55,Read Transaction,00 08*,..,,,,,,,,,,
0,844,2:20.961.998,79.000 us,2 B,,SP,55,Write Transaction,12 01,..,,,,,,,,,,
0,845,2:20.970.338,2.322.400 ms,92 B,,SP,55,Read Transaction,00 20 FD 5B 02 55 01 C3 02 66 7E 02 66 17 1F FF F7 1F FF F4 20 00 04 20 00 06 02 02 4E 00 00 00 00 00 00 00 00 00 00 00 00 00 00 00 00 03 00 00 00 00 00 00 00 00 00 00 00 00 00 00 00 00 00 00 00 00 00 00 00 00 00 00 00 00 00 00 00 00 00 00 00 00 02 01 00 00 00 00 00 00 02 02*,. .[.U...f~.f....... .. …,,,,,,,,,,
0,846,2:20.976.305,79.000 us,2 B,,SP,55,Write Transaction,00 00,..,,,,,,,,,,
0,847,2:20.981.652,82.000 us,2 B,,SP,55,Read Transaction,00 00*,..,,,,,,,,,,
0,848,2:20.996.345,79.000 us,2 B,,SP,55,Write Transaction,00 00,..,,,,,,,,,,
0,849,2:21.001.690,82.300 us,2 B,,SP,55,Read Transaction,00 08*,..,,,,,,,,,,
0,850,2:21.002.049,79.000 us,2 B,,SP,55,Write Transaction,12 01,..,,,,,,,,,,
0,851,2:21.010.386,2.322.300 ms,92 B,,SP,55,Read Transaction,00 25 FD 5C 02 57 01 C6 02 66 90 02 66 2C 1F FF FD 1F FF FE 2F FF FF 2F FF FF 02 02 4E 00 00 00 00 00 00 00 00 00 00 00 00 00 00 00 00 03 00 00 00 00 00 00 00 00 00 00 00 00 00 00 00 00 00 00 00 00 00 00 00 00 00 00 00 00 00 00 00 00 00 00 00 00 02 01 00 00 00 00 00 00 02 02*,.%.\.W...f..f,....../../…,,,,,,,,,
0,852,2:21.016.352,79.000 us,2 B,,SP,55,Write Transaction,00 00,..,,,,,,,,,,
0,853,2:21.021.698,82.000 us,2 B,,SP,55,Read Transaction,00 00*,..,,,,,,,,,,
0,854,2:21.036.357,79.000 us,2 B,,SP,55,Write Transaction,00 00,..,,,,,,,,,,
0,855,2:21.041.703,82.200 us,2 B,,SP,55,Read Transaction,00 08*,..,,,,,,,,,,
0,856,2:21.042.063,79.000 us,2 B,,SP,55,Write Transaction,12 01,..,,,,,,,,,,
0,857,2:21.050.402,2.322.300 ms,92 B,,SP,55,Read Transaction,00 2A FD 59 02 5E 01 C4 02 66 E6 02 66 81 1F FF F7 1F FF FA 20 00 04 20 00 04 02 02 4E 00 00 00 00 00 00 00 00 00 00 00 00 00 00 00 00 03 00 00 00 00 00 00 00 00 00 00 00 00 00 00 00 00 00 00 00 00 00 00 00 00 00 00 00 00 00 00 00 00 00 00 00 00 02 01 00 00 00 00 00 00 02 02*,.*.Y.^...f..f....... .. …,,,,,,,,,,
0,858,2:21.056.386,79.000 us,2 B,,SP,55,Write Transaction,00 00,..,,,,,,,,,,
0,859,2:21.061.731,82.200 us,2 B,,SP,55,Read Transaction,00 00*,..,,,,,,,,,,
0,860,2:21.076.406,79.000 us,2 B,,SP,55,Write Transaction,00 00,..,,,,,,,,,,
0,861,2:21.081.751,82.200 us,2 B,,SP,55,Read Transaction,00 08*,..,,,,,,,,,,
0,862,2:21.082.113,79.000 us,2 B,,SP,55,Write Transaction,12 01,..,,,,,,,,,,
0,863,2:21.090.457,2.322.600 ms,92 B,,SP,55,Read Transaction,00 2F FD 5B 02 5D 01 C4 02 67 2A 02 66 C3 10 00 06 10 00 05 2F FF FB 2F FF FA 02 02 4E 00 00 00 00 00 00 00 00 00 00 00 00 00 00 00 00 03 00 00 00 00 00 00 00 00 00 00 00 00 00 00 00 00 00 00 00 00 00 00 00 00 00 00 00 00 00 00 00 00 00 00 00 00 02 01 00 00 00 00 00 00 02 02*,./.[.]...g*.f......./../…,,,,,,,,,,
0,864,2:21.096.428,79.100 us,2 B,,SP,55,Write Transaction,00 00,..,,,,,,,,,,
0,865,2:21.101.775,82.100 us,2 B,,SP,55,Read Transaction,00 00*,..,,,,,,,,,,
0,866,2:21.116.196,79.000 us,2 B,,SP,55,Write Transaction,00 00,..,,,,,,,,,,
0,867,2:21.121.542,82.200 us,2 B,,SP,55,Read Transaction,00 00*,..,,,,,,,,,,
0,868,2:21.136.222,79.000 us,2 B,,SP,55,Write Transaction,00 00,..,,,,,,,,,,
0,869,2:21.141.569,82.100 us,2 B,,SP,55,Read Transaction,00 00*,..,,,,,,,,,,
0,870,2:21.156.225,79.000 us,2 B,,SP,55,Write Transaction,00 00,..,,,,,,,,,,
0,871,2:21.161.571,82.300 us,2 B,,SP,55,Read Transaction,00 08*,..,,,,,,,,,,
0,872,2:21.161.930,79.100 us,2 B,,SP,55,Write Transaction,12 01,..,,,,,,,,,,
0,873,2:21.170.269,2.322.500 ms,92 B,,SP,55,Read Transaction,00 34 FD 5B 02 51 01 C6 02 67 B4 02 67 4B 1F FF F8 1F FF FA 2F FF F5 2F FF F5 02 02 4E 00 00 00 00 00 00 00 00 00 00 00 00 00 00 00 00 03 00 00 00 00 00 00 00 00 00 00 00 00 00 00 00 00 00 00 00 00 00 00 00 00 00 00 00 00 00 00 00 00 00 00 00 00 02 01 00 00 00 00 00 00 02 02*,.4.[.Q...g..gK....../../…,,,,,,,,,,
0,874,2:21.176.260,79.000 us,2 B,,SP,55,Write Transaction,00 00,..,,,,,,,,,,
0,875,2:21.181.606,82.000 us,2 B,,SP,55,Read Transaction,00 00*,..,,,,,,,,,,
0,876,2:21.196.267,79.000 us,2 B,,SP,55,Write Transaction,00 00,..,,,,,,,,,,
0,877,2:21.201.618,82.400 us,2 B,,SP,55,Read Transaction,00 08*,..,,,,,,,,,,
0,878,2:21.201.977,79.100 us,2 B,,SP,55,Write Transaction,12 01,..,,,,,,,,,,
0,879,2:21.210.323,2.321.800 ms,92 B,,SP,55,Read Transaction,00 39 FD 58 02 55 01 C9 02 68 0F 02 67 A4 1F FF F5 1F FF F5 2F FF FA 2F FF FA 02 02 4E 00 00 00 00 00 00 00 00 00 00 00 00 00 00 00 00 03 00 00 00 00 00 00 00 00 00 00 00 00 00 00 00 00 00 00 00 00 00 00 00 00 00 00 00 00 00 00 00 00 00 00 00 00 02 01 00 00 00 00 00 00 02 02*,.9.X.U...h..g......./../…,,,,,,,,,,
0,880,2:21.216.284,79.000 us,2 B,,SP,55,Write Transaction,00 00,..,,,,,,,,,,
0,881,2:21.221.631,82.100 us,2 B,,SP,55,Read Transaction,00 00*,..,,,,,,,,,,
0,882,2:21.236.310,79.000 us,2 B,,SP,55,Write Transaction,00 00,..,,,,,,,,,,
0,883,2:21.241.656,82.200 us,2 B,,SP,55,Read Transaction,00 08*,..,,,,,,,,,,
0,884,2:21.242.014,79.000 us,2 B,,SP,55,Write Transaction,12 01,..,,,,,,,,,,
0,885,2:21.250.356,2.322.200 ms,92 B,,SP,55,Read Transaction,00 3E FD 60 02 53 01 C8 02 68 97 02 68 32 10 00 00 1F FF FF 2F FF FF 2F FF FF 02 02 4E 00 21 42 64 00 00 00 00 00 00 00 00 00 00 00 00 03 00 00 00 00 00 00 00 00 00 00 00 00 00 00 00 00 00 00 00 00 00 00 00 00 00 00 00 00 00 00 00 00 00 00 00 00 02 01 00 00 00 00 00 00 02 02*,.>.`.S...h..h2....../../…,,,,,,,,,,
0,886,2:21.256.333,79.000 us,2 B,,SP,55,Write Transaction,00 00,..,,,,,,,,,,
0,887,2:21.261.679,82.000 us,2 B,,SP,55,Read Transaction,00 00*,..,,,,,,,,,,
0,888,2:21.276.356,79.000 us,2 B,,SP,55,Write Transaction,00 00,..,,,,,,,,,,
0,889,2:21.281.702,82.300 us,2 B,,SP,55,Read Transaction,00 08*,..,,,,,,,,,,
0,890,2:21.282.061,79.100 us,2 B,,SP,55,Write Transaction,12 01,..,,,,,,,,,,
0,891,2:21.290.401,2.322.200 ms,92 B,,SP,55,Read Transaction,00 43 FD 5F 02 54 01 CA 02 69 0B 02 68 A3 1F FF F1 1F FF F1 2F FF FC 2F FF FC 02 02 4E 00 00 00 00 00 00 00 00 00 00 00 00 00 00 00 00 03 00 00 00 00 00 00 00 00 00 00 00 00 00 00 00 00 00 00 00 00 00 00 00 00 00 00 00 00 00 00 00 00 00 00 00 00 02 01 00 00 00 00 00 00 02 02*,.C._.T...i..h......./../…,,,,,,,,,,
0,892,2:21.296.367,79.100 us,2 B,,SP,55,Write Transaction,00 00,..,,,,,,,,,,
0,893,2:21.301.713,82.100 us,2 B,,SP,55,Read Transaction,00 00*,..,,,,,,,,,,
0,894,2:21.316.391,79.100 us,2 B,,SP,55,Write Transaction,00 00,..,,,,,,,,,,
0,895,2:21.321.737,82.200 us,2 B,,SP,55,Read Transaction,00 00*,..,,,,,,,,,,
0,896,2:21.336.400,79.000 us,2 B,,SP,55,Write Transaction,00 00,..,,,,,,,,,,
0,897,2:21.341.745,82.100 us,2 B,,SP,55,Read Transaction,00 00*,..,,,,,,,,,,
0,898,2:21.356.184,79.100 us,2 B,,SP,55,Write Transaction,00 00,..,,,,,,,,,,
0,899,2:21.361.537,82.300 us,2 B,,SP,55,Read Transaction,00 08*,..,,,,,,,,,,
0,900,2:21.361.896,79.100 us,2 B,,SP,55,Write Transaction,12 01,..,,,,,,,,,,
0,901,2:21.370.233,2.322.200 ms,92 B,,SP,55,Read Transaction,00 48 FD 54 02 58 01 C2 02 68 43 02 67 DA 10 00 00 10 00 00 2F FF FF 2F FF FF 02 02 4E 00 00 00 00 00 00 00 00 00 00 00 00 00 00 00 00 03 00 00 00 00 00 00 00 00 00 00 00 00 00 00 00 00 00 00 00 00 00 00 00 00 00 00 00 00 00 00 00 00 00 00 00 00 02 01 00 00 00 00 00 00 02 02*,.H.T.X...hC.g......./../…,,,,,,,,,,
0,902,2:21.376.197,79.100 us,2 B,,SP,55,Write Transaction,00 00,..,,,,,,,,,,
0,903,2:21.381.543,82.100 us,2 B,,SP,55,Read Transaction,00 00*,..,,,,,,,,,,
0,904,2:21.396.206,79.200 us,2 B,,SP,55,Write Transaction,00 00,..,,,,,,,,,,
0,905,2:21.401.559,82.300 us,2 B,,SP,55,Read Transaction,00 08*,..,,,,,,,,,,
0,906,2:21.401.919,79.100 us,2 B,,SP,55,Write Transaction,12 01,..,,,,,,,,,,
0,907,2:21.410.263,2.322.300 ms,92 B,,SP,55,Read Transaction,00 4D FD 5A 02 56 01 C4 02 64 7E 02 64 13 10 00 0E 10 00 0E 2F FF F8 2F FF F7 02 02 4E 00 00 00 00 00 00 00 00 00 00 00 00 00 00 00 00 03 00 00 00 00 00 00 00 00 00 00 00 00 00 00 00 00 00 00 00 00 00 00 00 00 00 00 00 00 00 00 00 00 00 00 00 00 02 01 00 00 00 00 00 00 02 02*,.M.Z.V...d~.d......./../…,,,,,,,,,,
0,908,2:21.416.231,79.000 us,2 B,,SP,55,Write Transaction,00 00,..,,,,,,,,,,
0,909,2:21.421.575,82.100 us,2 B,,SP,55,Read Transaction,00 00*,..,,,,,,,,,,
0,910,2:21.436.248,78.900 us,2 B,,SP,55,Write Transaction,00 00,..,,,,,,,,,,
0,911,2:21.441.591,82.200 us,2 B,,SP,55,Read Transaction,00 08*,..,,,,,,,,,,
0,912,2:21.441.952,79.000 us,2 B,,SP,55,Write Transaction,12 01,..,,,,,,,,,,
0,913,2:21.450.294,2.322.100 ms,92 B,,SP,55,Read Transaction,00 52 FD 5A 02 5E 01 C6 02 60 B5 02 60 4F 1F FF F1 1F FF F3 20 00 07 20 00 09 02 02 4E 00 00 00 00 00 00 00 00 00 00 00 00 00 00 00 00 03 00 00 00 00 00 00 00 00 00 00 00 00 00 00 00 00 00 00 00 00 00 00 00 00 00 00 00 00 00 00 00 00 00 00 00 00 02 01 00 00 00 00 00 00 02 02*,.R.Z.^...`..`O...... .. …,,,,,,,,,,
0,914,2:21.456.268,79.000 us,2 B,,SP,55,Write Transaction,00 00,..,,,,,,,,,,
0,915,2:21.461.613,82.100 us,2 B,,SP,55,Read Transaction,00 00*,..,,,,,,,,,,
0,916,2:21.476.289,79.100 us,2 B,,SP,55,Write Transaction,00 00,..,,,,,,,,,,
0,917,2:21.481.633,82.300 us,2 B,,SP,55,Read Transaction,00 08*,..,,,,,,,,,,
0,918,2:21.481.991,79.000 us,2 B,,SP,55,Write Transaction,12 01,..,,,,,,,,,,
0,919,2:21.490.334,2.321.800 ms,92 B,,SP,55,Read Transaction,00 57 FD 59 02 56 01 C3 02 5D D9 02 5D 70 1F FF F8 1F FF FA 2F FF F4 2F FF F4 02 02 4E 00 00 00 00 00 00 00 00 00 00 00 00 00 00 00 00 03 00 00 00 00 00 00 00 00 00 00 00 00 00 00 00 00 00 00 00 00 00 00 00 00 00 00 00 00 00 00 00 00 00 00 00 00 02 01 01 0C 00 00 00 00 02 02*,.W.Y.V...]..]p....../../…,,,,,,,,,,
0,920,2:21.496.311,79.100 us,2 B,,SP,55,Write Transaction,00 00,..,,,,,,,,,,
0,921,2:21.501.657,82.100 us,2 B,,SP,55,Read Transaction,00 00*,..,,,,,,,,,,
0,922,2:21.516.318,78.900 us,2 B,,SP,55,Write Transaction,00 00,..,,,,,,,,,,
0,923,2:21.521.666,82.200 us,2 B,,SP,55,Read Transaction,00 00*,..,,,,,,,,,,
0,924,2:21.536.349,79.000 us,2 B,,SP,55,Write Transaction,00 00,..,,,,,,,,,,
0,925,2:21.541.695,82.100 us,2 B,,SP,55,Read Transaction,00 00*,..,,,,,,,,,,
0,926,2:21.556.367,79.000 us,2 B,,SP,55,Write Transaction,00 00,..,,,,,,,,,,
0,927,2:21.561.711,82.200 us,2 B,,SP,55,Read Transaction,00 08*,..,,,,,,,,,,
0,928,2:21.562.069,79.000 us,2 B,,SP,55,Write Transaction,12 01,..,,,,,,,,,,
0,929,2:21.570.409,2.322.200 ms,92 B,,SP,55,Read Transaction,00 5C FD 5A 02 57 01 C6 02 5B BE 02 5B 57 10 00 04 10 00 03 20 00 07 20 00 08 02 02 4E 00 00 00 00 00 00 00 00 00 00 00 00 00 00 00 00 03 00 00 00 00 00 00 00 00 00 00 00 00 00 00 00 00 00 00 00 00 00 00 00 00 00 00 00 00 00 00 00 00 00 00 00 00 02 01 01 0C 00 00 00 00 02 02*,.\.Z.W...[..[W...... .. …,,,,,,,,,,
0,930,2:21.576.380,79.000 us,2 B,,SP,55,Write Transaction,00 00,..,,,,,,,,,,
0,931,2:21.581.726,82.100 us,2 B,,SP,55,Read Transaction,00 00*,..,,,,,,,,,,
0,932,2:21.596.406,79.000 us,2 B,,SP,55,Write Transaction,00 00,..,,,,,,,,,,
0,933,2:21.601.751,82.300 us,2 B,,SP,55,Read Transaction,00 08*,..,,,,,,,,,,
0,934,2:21.602.110,79.000 us,2 B,,SP,55,Write Transaction,12 01,..,,,,,,,,,,
0,935,2:21.610.448,2.322.000 ms,92 B,,SP,55,Read Transaction,00 61 FD 5D 02 57 01 C2 02 5A 52 02 59 E8 10 00 06 10 00 06 20 00 06 20 00 05 02 02 4E 00 00 00 00 00 00 00 00 00 00 00 00 00 00 00 00 03 00 00 00 00 00 00 00 00 00 00 00 00 00 00 00 00 00 00 00 00 00 00 00 00 00 00 00 00 00 00 00 00 00 00 00 00 02 01 01 0C 00 00 00 00 02 02*,.a.].W...ZR.Y....... .. …,,,,,,,,,,
0,936,2:21.616.179,79.000 us,2 B,,SP,55,Write Transaction,00 00,..,,,,,,,,,,
0,937,2:21.621.522,82.100 us,2 B,,SP,55,Read Transaction,00 00*,..,,,,,,,,,,
0,938,2:21.636.194,79.000 us,2 B,,SP,55,Write Transaction,00 00,..,,,,,,,,,,
0,939,2:21.641.537,82.200 us,2 B,,SP,55,Read Transaction,00 08*,..,,,,,,,,,,
0,940,2:21.641.896,79.000 us,2 B,,SP,55,Write Transaction,12 01,..,,,,,,,,,,
0,941,2:21.650.234,2.322.200 ms,92 B,,SP,55,Read Transaction,00 66 FD 5C 02 55 01 BE 02 59 5E 02 58 F9 1F FF FA 1F FF FC 2F FF FF 2F FF FF 02 02 4E 00 00 00 00 00 00 00 00 00 00 00 00 00 00 00 00 03 00 00 00 00 00 00 00 00 00 00 00 00 00 00 00 00 00 00 00 00 00 00 00 00 00 00 00 00 00 00 00 00 00 00 00 00 02 01 01 0C 00 00 00 00 02 02*,.f.\.U...Y^.X......./../…,,,,,,,,,,
0,942,2:21.656.208,79.000 us,2 B,,SP,55,Write Transaction,00 00,..,,,,,,,,,,
0,943,2:21.661.554,82.100 us,2 B,,SP,55,Read Transaction,00 00*,..,,,,,,,,,,
0,944,2:21.676.233,79.100 us,2 B,,SP,55,Write Transaction,00 00,..,,,,,,,,,,
0,945,2:21.681.579,82.300 us,2 B,,SP,55,Read Transaction,00 08*,..,,,,,,,,,,
0,946,2:21.681.938,79.000 us,2 B,,SP,55,Write Transaction,12 01,..,,,,,,,,,,
0,947,2:21.690.278,2.322.200 ms,92 B,,SP,55,Read Transaction,00 6B FD 57 02 5A 01 C4 02 58 AB 02 58 48 1F FF F7 1F FF F9 20 00 0F 20 00 10 02 02 4E 00 00 00 00 00 00 00 00 00 00 00 00 00 00 00 00 03 00 00 00 00 00 00 00 00 00 00 00 00 00 00 00 00 00 00 00 00 00 00 00 00 00 00 00 00 00 00 00 00 00 00 00 00 02 00 01 0C 00 00 00 00 02 02*,.k.W.Z...X..XH...... .. …,,,,,,,,,,
0,948,2:21.696.250,79.000 us,2 B,,SP,55,Write Transaction,00 00,..,,,,,,,,,,
0,949,2:21.701.595,82.100 us,2 B,,SP,55,Read Transaction,00 00*,..,,,,,,,,,,
0,950,2:21.716.270,79.000 us,2 B,,SP,55,Write Transaction,00 00,..,,,,,,,,,,
0,951,2:21.721.618,82.300 us,2 B,,SP,55,Read Transaction,00 00*,..,,,,,,,,,,
0,952,2:21.736.293,79.000 us,2 B,,SP,55,Write Transaction,00 00,..,,,,,,,,,,
0,953,2:21.741.633,82.100 us,2 B,,SP,55,Read Transaction,00 00*,..,,,,,,,,,,
0,954,2:21.756.308,79.200 us,2 B,,SP,55,Write Transaction,00 00,..,,,,,,,,,,
0,955,2:21.761.663,82.200 us,2 B,,SP,55,Read Transaction,00 08*,..,,,,,,,,,,
0,956,2:21.762.023,78.900 us,2 B,,SP,55,Write Transaction,12 01,..,,,,,,,,,,
0,957,2:21.770.362,2.322.100 ms,92 B,,SP,55,Read Transaction,00 70 FD 5D 02 5B 01 BE 02 58 4A 02 57 E0 10 00 03 10 00 02 20 00 0A 20 00 0B 02 02 4E 00 00 00 00 00 00 00 00 00 00 00 00 00 00 00 00 03 00 00 00 00 00 00 00 00 00 00 00 00 00 00 00 00 00 00 00 00 00 00 00 00 00 00 00 00 00 00 00 00 00 00 00 00 02 00 01 0C 00 00 00 00 02 02*,.p.].[...XJ.W....... .. …,,,,,,,,,,
0,958,2:21.776.321,79.000 us,2 B,,SP,55,Write Transaction,00 00,..,,,,,,,,,,
0,959,2:21.781.667,82.100 us,2 B,,SP,55,Read Transaction,00 00*,..,,,,,,,,,,
0,960,2:21.796.340,79.000 us,2 B,,SP,55,Write Transaction,00 00,..,,,,,,,,,,
0,961,2:21.801.693,82.200 us,2 B,,SP,55,Read Transaction,00 08*,..,,,,,,,,,,
0,962,2:21.802.061,79.000 us,2 B,,SP,55,Write Transaction,12 01,..,,,,,,,,,,
0,963,2:21.810.409,2.322.400 ms,92 B,,SP,55,Read Transaction,00 75 FD 59 02 56 01 BE 02 58 35 02 57 D1 1F FF FB 1F FF FB 2F FF F8 2F FF F8 02 02 4E 00 00 00 00 00 00 00 00 00 00 00 00 00 00 00 00 03 00 00 00 00 00 00 00 00 00 00 00 00 00 00 00 00 00 00 00 00 00 00 00 00 00 00 00 00 00 00 00 00 00 00 00 00 02 00 01 0C 00 00 00 00 02 02*,.u.Y.V...X5.W......./../…,,,,,,,,,,
0,964,2:21.816.368,79.000 us,2 B,,SP,55,Write Transaction,00 00,..,,,,,,,,,,
0,965,2:21.821.714,82.100 us,2 B,,SP,55,Read Transaction,00 00*,..,,,,,,,,,,
0,966,2:21.836.375,79.000 us,2 B,,SP,55,Write Transaction,00 00,..,,,,,,,,,,
0,967,2:21.841.721,82.200 us,2 B,,SP,55,Read Transaction,00 08*,..,,,,,,,,,,
0,968,2:21.842.079,79.000 us,2 B,,SP,55,Write Transaction,12 01,..,,,,,,,,,,
0,969,2:21.850.422,2.321.900 ms,92 B,,SP,55,Read Transaction,00 7A FD 59 02 5B 01 C2 02 58 5F 02 57 F8 10 00 05 10 00 06 2F FF FA 2F FF F9 02 02 4E 00 00 00 00 00 00 00 00 00 00 00 00 00 00 00 00 03 00 00 00 00 00 00 00 00 00 00 00 00 00 00 00 00 00 00 00 00 00 00 00 00 00 00 00 00 00 00 00 00 00 00 00 00 02 00 01 0C 00 00 00 00 02 02*,.z.Y.[...X_.W......./../…,,,,,,,,,,
0,970,2:21.856.158,78.900 us,2 B,,SP,55,Write Transaction,00 00,..,,,,,,,,,,
0,971,2:21.861.503,82.100 us,2 B,,SP,55,Read Transaction,00 00*,..,,,,,,,,,,
0,972,2:21.876.167,79.000 us,2 B,,SP,55,Write Transaction,00 00,..,,,,,,,,,,
0,973,2:21.881.512,82.200 us,2 B,,SP,55,Read Transaction,00 08*,..,,,,,,,,,,
0,974,2:21.881.870,79.200 us,2 B,,SP,55,Write Transaction,12 01,..,,,,,,,,,,
0,975,2:21.890.214,2.322.300 ms,92 B,,SP,55,Read Transaction,00 7F FD 58 02 5B 01 BF 02 58 C4 02 58 60 10 00 05 10 00 05 2F FF F6 2F FF F4 02 02 4E 00 00 00 00 00 00 00 00 00 00 00 00 00 00 00 00 03 00 00 00 00 00 00 00 00 00 00 00 00 00 00 00 00 00 00 00 00 00 00 00 00 00 00 00 00 00 00 00 00 00 00 00 00 02 00 01 0C 00 00 00 00 02 02*,...X.[...X..X`....../../…,,,,,,,,,,
0,976,2:21.896.204,79.000 us,2 B,,SP,55,Write Transaction,00 00,..,,,,,,,,,,
0,977,2:21.901.550,82.100 us,2 B,,SP,55,Read Transaction,00 00*,..,,,,,,,,,,
0,978,2:21.916.207,79.000 us,2 B,,SP,55,Write Transaction,00 00,..,,,,,,,,,,
0,979,2:21.921.552,82.200 us,2 B,,SP,55,Read Transaction,00 00*,..,,,,,,,,,,
0,980,2:21.936.226,79.100 us,2 B,,SP,55,Write Transaction,00 00,..,,,,,,,,,,
0,981,2:21.941.573,82.100 us,2 B,,SP,55,Read Transaction,00 00*,..,,,,,,,,,,
0,982,2:21.956.253,79.000 us,2 B,,SP,55,Write Transaction,00 00,..,,,,,,,,,,
0,983,2:21.961.599,82.200 us,2 B,,SP,55,Read Transaction,00 08*,..,,,,,,,,,,
0,984,2:21.961.957,79.000 us,2 B,,SP,55,Write Transaction,12 01,..,,,,,,,,,,
0,985,2:21.970.305,2.325.900 ms,92 B,,SP,55,Read Transaction,00 84 FD 58 02 56 01 C3 02 59 2F 02 58 CB 1F FF F4 1F FF F5 20 00 0F 20 00 0F 02 02 4E 00 00 00 00 00 00 00 00 00 00 00 00 00 00 00 00 03 00 00 00 00 00 00 00 00 00 00 00 00 00 00 00 00 00 00 00 00 00 00 00 00 00 00 00 00 00 00 00 00 00 00 00 00 02 00 01 0C 00 00 00 00 02 02*,...X.V...Y/.X....... .. …,,,,,,,,,,
0,986,2:21.976.268,79.000 us,2 B,,SP,55,Write Transaction,00 00,..,,,,,,,,,,
0,987,2:21.981.613,106.200 us,2 B,,SP,55,Read Transaction,00 00*,..,,,,,,,,,,
0,988,2:21.996.292,79.000 us,2 B,,SP,55,Write Transaction,00 00,..,,,,,,,,,,
0,989,2:22.001.638,82.300 us,2 B,,SP,55,Read Transaction,00 08*,..,,,,,,,,,,
0,990,2:22.001.997,79.100 us,2 B,,SP,55,Write Transaction,12 01,..,,,,,,,,,,
0,991,2:22.010.337,2.322.400 ms,92 B,,SP,55,Read Transaction,00 89 FD 57 02 5A 01 BD 02 59 A7 02 59 40 1F FF F5 1F FF F5 20 00 08 20 00 08 02 02 4E 00 00 00 00 00 00 00 00 00 00 00 00 00 00 00 00 03 00 00 00 00 00 00 00 00 00 00 00 00 00 00 00 00 00 00 00 00 00 00 00 00 00 00 00 00 00 00 00 00 00 00 00 00 02 00 01 0C 00 00 00 00 02 02*,...W.Z...Y..Y@...... .. …,,,,,,,,,,
0,992,2:22.016.303,79.000 us,2 B,,SP,55,Write Transaction,00 00,..,,,,,,,,,,
0,993,2:22.021.648,82.100 us,2 B,,SP,55,Read Transaction,00 00*,..,,,,,,,,,,
0,994,2:22.036.323,79.000 us,2 B,,SP,55,Write Transaction,00 00,..,,,,,,,,,,
0,995,2:22.041.669,82.300 us,2 B,,SP,55,Read Transaction,00 08*,..,,,,,,,,,,
0,996,2:22.042.028,79.000 us,2 B,,SP,55,Write Transaction,12 01,..,,,,,,,,,,
0,997,2:22.050.374,2.324.400 ms,92 B,,SP,55,Read Transaction,00 8E FD 53 02 5E 01 BB 02 5A 3B 02 59 D3 1F FF EE 1F FF F0 2F FF FC 2F FF FD 02 02 4E 00 00 00 00 00 00 00 00 00 00 00 00 00 00 00 00 03 00 00 00 00 00 00 00 00 00 00 00 00 00 00 00 00 00 00 00 00 00 00 00 00 00 00 00 00 00 00 00 00 00 00 00 00 02 00 01 0C 00 00 00 00 02 02*,...S.^...Z;.Y......./../…,,,,,,,,,,
0,998,2:22.056.349,79.000 us,2 B,,SP,55,Write Transaction,00 00,..,,,,,,,,,,
0,999,2:22.061.694,82.100 us,2 B,,SP,55,Read Transaction,00 00*,..,,,,,,,,,,
0,1000,2:22.076.366,79.000 us,2 B,,SP,55,Write Transaction,00 00,..,,,,,,,,,,
0,1001,2:22.081.712,82.300 us,2 B,,SP,55,Read Transaction,00 08*,..,,,,,,,,,,
0,1002,2:22.082.071,79.000 us,2 B,,SP,55,Write Transaction,12 01,..,,,,,,,,,,
0,1003,2:22.090.410,2.322.200 ms,92 B,,SP,55,Read Transaction,00 93 FD 56 02 59 01 C1 02 5B 17 02 5A B0 1F FF F6 1F FF F5 2F FF FA 2F FF F8 02 02 62 00 00 00 00 00 00 00 00 00 00 00 00 00 00 00 00 03 00 00 00 00 00 00 00 00 00 00 00 00 00 00 00 00 00 00 00 00 00 00 00 00 00 00 00 00 00 00 00 00 00 00 00 00 02 00 01 0C 00 00 00 00 02 02*,...V.Y...[..Z......./../…,,,,,,,,,,
0,1004,2:22.096.381,79.000 us,2 B,,SP,55,Write Transaction,00 00,..,,,,,,,,,,
0,1005,2:22.101.726,82.100 us,2 B,,SP,55,Read Transaction,00 00*,..,,,,,,,,,,
0,1006,2:22.116.160,79.000 us,2 B,,SP,55,Write Transaction,00 00,..,,,,,,,,,,
0,1007,2:22.121.508,82.300 us,2 B,,SP,55,Read Transaction,00 00*,..,,,,,,,,,,
0,1008,2:22.136.178,79.000 us,2 B,,SP,55,Write Transaction,00 00,..,,,,,,,,,,
0,1009,2:22.141.522,82.100 us,2 B,,SP,55,Read Transaction,00 00*,..,,,,,,,,,,
0,1010,2:22.156.196,79.000 us,2 B,,SP,55,Write Transaction,00 00,..,,,,,,,,,,
0,1011,2:22.161.548,82.300 us,2 B,,SP,55,Read Transaction,00 08*,..,,,,,,,,,,
0,1012,2:22.161.968,79.100 us,2 B,,SP,55,Write Transaction,12 01,..,,,,,,,,,,
0,1013,2:22.170.320,2.321.800 ms,92 B,,SP,55,Read Transaction,00 98 FD 58 02 56 01 BF 02 5B 94 02 5B 2E 10 00 02 10 00 02 20 00 08 20 00 08 02 02 62 00 00 00 00 00 00 00 00 00 00 00 00 00 00 00 00 03 00 00 00 00 00 00 00 00 00 00 00 00 00 00 00 00 00 00 00 00 00 00 00 00 00 00 00 00 00 00 00 00 00 00 00 00 02 00 01 0C 00 00 00 00 02 02*,...X.V...[..[....... .. …,,,,,,,,,,
0,1014,2:22.176.216,79.000 us,2 B,,SP,55,Write Transaction,00 00,..,,,,,,,,,,
0,1015,2:22.181.562,82.100 us,2 B,,SP,55,Read Transaction,00 00*,..,,,,,,,,,,
0,1016,2:22.196.236,79.000 us,2 B,,SP,55,Write Transaction,00 00,..,,,,,,,,,,
0,1017,2:22.201.581,82.200 us,2 B,,SP,55,Read Transaction,00 08*,..,,,,,,,,,,
0,1018,2:22.201.939,79.000 us,2 B,,SP,55,Write Transaction,12 01,..,,,,,,,,,,
0,1019,2:22.210.280,2.322.000 ms,92 B,,SP,55,Read Transaction,00 9D FD 58 02 5D 01 BF 02 59 37 02 58 D3 10 00 00 10 00 00 20 00 0B 20 00 0A 02 02 62 00 00 00 00 00 00 00 00 00 00 00 00 00 00 00 00 03 00 00 00 00 00 00 00 00 00 00 00 00 00 00 00 00 00 00 00 00 00 00 00 00 00 00 00 00 00 00 00 00 00 00 00 00 02 00 01 0C 00 00 00 00 02 02*,...X.]...Y7.X....... .. …,,,,,,,,,,
0,1020,2:22.216.255,79.000 us,2 B,,SP,55,Write Transaction,00 00,..,,,,,,,,,,
0,1021,2:22.221.599,82.500 us,2 B,,SP,55,Read Transaction,00 00*,..,,,,,,,,,,
0,1022,2:22.236.258,79.000 us,2 B,,SP,55,Write Transaction,00 00,..,,,,,,,,,,
0,1023,2:22.241.603,82.300 us,2 B,,SP,55,Read Transaction,00 08*,..,,,,,,,,,,
0,1024,2:22.241.961,79.000 us,2 B,,SP,55,Write Transaction,12 01,..,,,,,,,,,,
0,1025,2:22.250.300,2.322.000 ms,92 B,,SP,55,Read Transaction,00 A2 FD 56 02 51 01 BA 02 55 34 02 54 CC 10 00 11 10 00 11 20 00 0A 20 00 09 02 02 62 00 00 00 00 00 00 00 00 00 00 00 00 00 00 00 00 03 00 00 00 00 00 00 00 00 00 00 00 00 00 00 00 00 00 00 00 00 00 00 00 00 00 00 00 00 00 00 00 00 00 00 00 00 02 00 01 0C 00 00 00 00 02 02*,...V.Q...U4.T....... .. …,,,,,,,,,,
0,1026,2:22.256.284,79.000 us,2 B,,SP,55,Write Transaction,00 00,..,,,,,,,,,,
0,1027,2:22.261.628,82.500 us,2 B,,SP,55,Read Transaction,00 00*,..,,,,,,,,,,
0,1028,2:22.276.302,79.000 us,2 B,,SP,55,Write Transaction,00 00,..,,,,,,,,,,
0,1029,2:22.281.648,82.300 us,2 B,,SP,55,Read Transaction,00 08*,..,,,,,,,,,,
0,1030,2:22.282.007,79.000 us,2 B,,SP,55,Write Transaction,12 01,..,,,,,,,,,,
0,1031,2:22.290.346,2.322.200 ms,92 B,,SP,55,Read Transaction,00 A7 FD 58 02 59 01 BF 02 51 AB 02 51 46 10 00 04 10 00 04 20 00 07 20 00 05 02 02 76 00 00 00 00 00 00 00 00 00 00 00 00 00 00 00 00 03 00 00 00 00 00 00 00 00 00 00 00 00 00 00 00 00 00 00 00 00 00 00 00 00 00 00 00 00 00 00 00 00 00 00 00 00 02 00 01 0C 00 00 00 00 02 02*,...X.Y...Q..QF...... .. …,,,,,,,,,,
0,1032,2:22.296.331,79.000 us,2 B,,SP,55,Write Transaction,00 00,..,,,,,,,,,,
0,1033,2:22.301.680,83.300 us,2 B,,SP,55,Read Transaction,00 00*,..,,,,,,,,,,
0,1034,2:22.316.343,79.000 us,2 B,,SP,55,Write Transaction,00 00,..,,,,,,,,,,
0,1035,2:22.321.688,82.200 us,2 B,,SP,55,Read Transaction,00 00*,..,,,,,,,,,,
0,1036,2:22.336.364,79.000 us,2 B,,SP,55,Write Transaction,00 00,..,,,,,,,,,,
0,1037,2:22.341.709,83.800 us,2 B,,SP,55,Read Transaction,00 00*,..,,,,,,,,,,
0,1038,2:22.356.140,79.000 us,2 B,,SP,55,Write Transaction,00 00,..,,,,,,,,,,
0,1039,2:22.361.487,82.200 us,2 B,,SP,55,Read Transaction,00 08*,..,,,,,,,,,,
0,1040,2:22.361.846,79.000 us,2 B,,SP,55,Write Transaction,12 01,..,,,,,,,,,,
0,1041,2:22.370.186,2.321.500 ms,92 B,,SP,55,Read Transaction,00 AC FD 57 02 57 01 C2 02 4F 33 02 4E D0 1F FF F8 1F FF FA 20 00 00 20 00 01 02 02 76 00 00 00 00 00 00 00 00 00 00 00 00 00 00 00 00 03 00 00 00 00 00 00 00 00 00 00 00 00 00 00 00 00 00 00 00 00 00 00 00 00 00 00 00 00 00 00 00 00 00 00 00 00 02 00 01 14 00 00 00 00 02 02*,...W.W...O3.N....... .. …,,,,,,,,,,
0,1042,2:22.376.156,79.000 us,2 B,,SP,55,Write Transaction,00 00,..,,,,,,,,,,
0,1043,2:22.381.501,82.600 us,2 B,,SP,55,Read Transaction,00 00*,..,,,,,,,,,,
0,1044,2:22.396.172,79.100 us,2 B,,SP,55,Write Transaction,00 00,..,,,,,,,,,,
0,1045,2:22.401.526,82.400 us,2 B,,SP,55,Read Transaction,00 08*,..,,,,,,,,,,
0,1046,2:22.401.886,79.200 us,2 B,,SP,55,Write Transaction,12 01,..,,,,,,,,,,
0,1047,2:22.410.238,2.325.600 ms,92 B,,SP,55,Read Transaction,00 B1 FD 57 02 5C 01 BF 02 4D 60 02 4D 00 10 00 06 10 00 07 20 00 02 20 00 01 02 02 76 00 00 00 00 00 00 00 00 00 00 00 00 00 00 00 00 03 00 00 00 00 00 00 00 00 00 00 00 00 00 00 00 00 00 00 00 00 00 00 00 00 00 00 00 00 00 00 00 00 00 00 00 00 02 00 01 14 00 00 00 00 02 02*,...W.\...M`.M....... .. …,,,,,,,,,,
0,1048,2:22.416.199,79.000 us,2 B,,SP,55,Write Transaction,00 00,..,,,,,,,,,,
0,1049,2:22.421.544,83.300 us,2 B,,SP,55,Read Transaction,00 00*,..,,,,,,,,,,
0,1050,2:22.436.219,79.000 us,2 B,,SP,55,Write Transaction,00 00,..,,,,,,,,,,
0,1051,2:22.441.567,82.200 us,2 B,,SP,55,Read Transaction,00 08*,..,,,,,,,,,,
0,1052,2:22.441.927,79.000 us,2 B,,SP,55,Write Transaction,12 01,..,,,,,,,,,,
0,1053,2:22.450.272,2.321.400 ms,92 B,,SP,55,Read Transaction,00 B6 FD 5C 02 56 01 BE 02 4C 64 02 4C 00 10 00 02 10 00 02 20 00 01 20 00 00 02 02 76 00 00 00 00 00 00 00 00 00 00 00 00 00 00 00 00 03 00 00 00 00 00 00 00 00 00 00 00 00 00 00 00 00 00 00 00 00 00 00 00 00 00 00 00 00 00 00 00 00 00 00 00 00 02 00 01 14 00 00 00 00 02 02*,...\.V...Ld.L....... .. …,,,,,,,,,,
0,1054,2:22.456.230,79.000 us,2 B,,SP,55,Write Transaction,00 00,..,,,,,,,,,,
0,1055,2:22.461.576,83.700 us,2 B,,SP,55,Read Transaction,00 00*,..,,,,,,,,,,
0,1056,2:22.476.249,79.000 us,2 B,,SP,55,Write Transaction,00 00,..,,,,,,,,,,
0,1057,2:22.481.596,82.200 us,2 B,,SP,55,Read Transaction,00 08*,..,,,,,,,,,,
0,1058,2:22.481.956,79.000 us,2 B,,SP,55,Write Transaction,12 01,..,,,,,,,,,,
0,1059,2:22.490.296,2.321.600 ms,92 B,,SP,55,Read Transaction,00 BB FD 59 02 57 01 BD 02 4B A4 02 4B 42 10 00 0D 10 00 0E 20 00 04 20 00 05 02 02 80 00 00 00 00 00 00 00 00 00 00 00 00 00 00 00 00 03 00 00 00 00 00 00 00 00 00 00 00 00 00 00 00 00 00 00 00 00 00 00 00 00 00 00 00 00 00 00 00 00 00 00 00 00 02 00 01 14 00 00 00 00 02 02*,...Y.W...K..KB...... .. …,,,,,,,,,,
0,1060,2:22.496.271,79.100 us,2 B,,SP,55,Write Transaction,00 00,..,,,,,,,,,,
0,1061,2:22.501.616,83.700 us,2 B,,SP,55,Read Transaction,00 00*,..,,,,,,,,,,
0,1062,2:22.516.282,79.000 us,2 B,,SP,55,Write Transaction,00 00,..,,,,,,,,,,
0,1063,2:22.521.626,82.200 us,2 B,,SP,55,Read Transaction,00 00*,..,,,,,,,,,,
0,1064,2:22.536.303,79.000 us,2 B,,SP,55,Write Transaction,00 00,..,,,,,,,,,,
0,1065,2:22.541.649,83.900 us,2 B,,SP,55,Read Transaction,00 00*,..,,,,,,,,,,
0,1066,2:22.556.326,79.000 us,2 B,,SP,55,Write Transaction,00 00,..,,,,,,,,,,
0,1067,2:22.561.671,82.200 us,2 B,,SP,55,Read Transaction,00 08*,..,,,,,,,,,,
0,1068,2:22.562.029,79.000 us,2 B,,SP,55,Write Transaction,12 01,..,,,,,,,,,,
0,1069,2:22.570.371,2.322.400 ms,92 B,,SP,55,Read Transaction,00 C0 FD 57 02 5C 01 C2 02 4B 3C 02 4A D5 10 00 0D 10 00 0D 2F FF F6 2F FF F7 02 02 80 00 00 00 00 00 00 00 00 00 00 00 00 00 00 00 00 03 00 00 00 00 00 00 00 00 00 00 00 00 00 00 00 00 00 00 00 00 00 00 00 00 00 00 00 00 00 00 00 00 00 00 00 00 02 00 01 14 00 00 00 00 02 02*,...W.\...K<.J......./../…,,,,,,,,,,
0,1070,2:22.576.349,79.000 us,2 B,,SP,55,Write Transaction,00 00,..,,,,,,,,,,
0,1071,2:22.581.699,83.800 us,2 B,,SP,55,Read Transaction,00 00*,..,,,,,,,,,,
0,1072,2:22.596.357,79.200 us,2 B,,SP,55,Write Transaction,00 00,..,,,,,,,,,,
0,1073,2:22.601.706,82.300 us,2 B,,SP,55,Read Transaction,00 08*,..,,,,,,,,,,
0,1074,2:22.602.064,79.000 us,2 B,,SP,55,Write Transaction,12 01,..,,,,,,,,,,
0,1075,2:22.610.403,2.322.200 ms,92 B,,SP,55,Read Transaction,00 C5 FD 5D 02 5C 01 C2 02 4B 20 02 4A B8 1F FF F3 1F FF F3 20 00 09 20 00 09 02 02 80 00 00 00 00 00 00 00 00 00 00 00 00 00 00 00 00 03 00 00 00 00 00 00 00 00 00 00 00 00 00 00 00 00 00 00 00 00 00 00 00 00 00 00 00 00 00 00 00 00 00 00 00 00 02 00 01 14 00 00 00 00 02 02*,...].\...K .J....... .. …,,,,,,,,,,
0,1076,2:22.616.135,79.000 us,2 B,,SP,55,Write Transaction,00 00,..,,,,,,,,,,
0,1077,2:22.621.480,83.800 us,2 B,,SP,55,Read Transaction,00 00*,..,,,,,,,,,,
0,1078,2:22.636.155,79.000 us,2 B,,SP,55,Write Transaction,00 00,..,,,,,,,,,,
0,1079,2:22.641.500,82.200 us,2 B,,SP,55,Read Transaction,00 08*,..,,,,,,,,,,
0,1080,2:22.641.858,79.100 us,2 B,,SP,55,Write Transaction,12 01,..,,,,,,,,,,
0,1081,2:22.650.197,2.322.200 ms,92 B,,SP,55,Read Transaction,00 CA FD 5A 02 53 01 C1 02 4B 6F 02 4B 09 10 00 0E 10 00 0D 20 00 09 20 00 09 02 02 80 00 00 00 00 00 00 00 00 00 00 00 00 00 00 00 00 03 00 00 00 00 00 00 00 00 00 00 00 00 00 00 00 00 00 00 00 00 00 00 00 00 00 00 00 00 00 00 00 00 00 00 00 00 02 00 01 14 00 00 00 00 02 02*,...Z.S...Ko.K....... .. …,,,,,,,,,,
0,1082,2:22.656.167,79.000 us,2 B,,SP,55,Write Transaction,00 00,..,,,,,,,,,,
0,1083,2:22.661.516,83.800 us,2 B,,SP,55,Read Transaction,00 00*,..,,,,,,,,,,
0,1084,2:22.676.194,79.000 us,2 B,,SP,55,Write Transaction,00 00,..,,,,,,,,,,
0,1085,2:22.681.540,82.300 us,2 B,,SP,55,Read Transaction,00 08*,..,,,,,,,,,,
0,1086,2:22.681.898,79.100 us,2 B,,SP,55,Write Transaction,12 01,..,,,,,,,,,,
0,1087,2:22.690.237,2.322.000 ms,92 B,,SP,55,Read Transaction,00 CF FD 56 02 59 01 C1 02 4B EB 02 4B 87 10 00 0A 10 00 0B 20 00 05 20 00 04 02 02 94 00 00 00 00 00 00 00 00 00 00 00 00 00 00 00 00 03 00 00 00 00 00 00 00 00 00 00 00 00 00 00 00 00 00 00 00 00 00 00 00 00 00 00 00 00 00 00 00 00 00 00 00 00 02 00 01 14 00 00 00 00 02 02*,...V.Y...K..K....... .. …,,,,,,,,,,
0,1088,2:22.696.212,79.000 us,2 B,,SP,55,Write Transaction,00 00,..,,,,,,,,,,
0,1089,2:22.701.565,83.900 us,2 B,,SP,55,Read Transaction,00 00*,..,,,,,,,,,,
0,1090,2:22.716.224,79.000 us,2 B,,SP,55,Write Transaction,00 00,..,,,,,,,,,,
0,1091,2:22.721.570,82.200 us,2 B,,SP,55,Read Transaction,00 00*,..,,,,,,,,,,
0,1092,2:22.736.243,79.000 us,2 B,,SP,55,Write Transaction,00 00,..,,,,,,,,,,
0,1093,2:22.741.589,83.900 us,2 B,,SP,55,Read Transaction,00 00*,..,,,,,,,,,,
0,1094,2:22.756.262,79.000 us,2 B,,SP,55,Write Transaction,00 00,..,,,,,,,,,,
0,1095,2:22.761.608,82.400 us,2 B,,SP,55,Read Transaction,00 08*,..,,,,,,,,,,
0,1096,2:22.761.967,79.100 us,2 B,,SP,55,Write Transaction,12 01,..,,,,,,,,,,
0,1097,2:22.770.306,2.321.900 ms,92 B,,SP,55,Read Transaction,00 D4 FD 59 02 5B 01 C1 02 4C A0 02 4C 3D 10 00 05 10 00 06 2F FF F1 2F FF F2 02 02 94 00 00 00 00 00 00 00 00 00 00 00 00 00 00 00 00 03 00 00 00 00 00 00 00 00 00 00 00 00 00 00 00 00 00 00 00 00 00 00 00 00 00 00 00 00 00 00 00 00 00 00 00 00 02 00 01 14 00 00 00 00 02 02*,...Y.[...L..L=....../../…,,,,,,,,,,
0,1098,2:22.776.292,79.000 us,2 B,,SP,55,Write Transaction,00 00,..,,,,,,,,,,
0,1099,2:22.781.640,83.900 us,2 B,,SP,55,Read Transaction,00 00*,..,,,,,,,,,,
0,1100,2:22.796.308,79.000 us,2 B,,SP,55,Write Transaction,00 00,..,,,,,,,,,,
0,1101,2:22.801.654,82.200 us,2 B,,SP,55,Read Transaction,00 08*,..,,,,,,,,,,
0,1102,2:22.802.012,79.000 us,2 B,,SP,55,Write Transaction,12 01,..,,,,,,,,,,
0,1103,2:22.810.350,2.322.100 ms,92 B,,SP,55,Read Transaction,00 D9 FD 57 02 56 01 C0 02 4D 59 02 4C F0 10 00 09 10 00 09 20 00 0E 20 00 0E 02 02 94 00 00 00 00 00 00 00 00 00 00 00 00 00 00 00 00 03 00 00 00 00 00 00 00 00 00 00 00 00 00 00 00 00 00 00 00 00 00 00 00 00 00 00 00 00 00 00 00 00 00 00 00 00 02 00 01 14 00 00 00 00 02 02*,...W.V...MY.L....... .. …,,,,,,,,,,
0,1104,2:22.816.318,79.000 us,2 B,,SP,55,Write Transaction,00 00,..,,,,,,,,,,
0,1105,2:22.821.663,83.800 us,2 B,,SP,55,Read Transaction,00 00*,..,,,,,,,,,,
0,1106,2:22.836.334,78.900 us,2 B,,SP,55,Write Transaction,00 00,..,,,,,,,,,,
0,1107,2:22.841.686,82.400 us,2 B,,SP,55,Read Transaction,00 08*,..,,,,,,,,,,
0,1108,2:22.842.047,79.200 us,2 B,,SP,55,Write Transaction,12 01,..,,,,,,,,,,
0,1109,2:22.850.394,2.322.000 ms,92 B,,SP,55,Read Transaction,00 DE FD 59 02 5B 01 C1 02 4E 18 02 4D AD 1F FF F9 1F FF F9 2F FF F8 2F FF F6 02 02 94 00 00 00 00 00 00 00 00 00 00 00 00 00 00 00 00 03 00 00 00 00 00 00 00 00 00 00 00 00 00 00 00 00 00 00 00 00 00 00 00 00 00 00 00 00 00 00 00 00 00 00 00 00 02 00 01 14 00 00 00 00 02 02*,...Y.[...N..M......./../…,,,,,,,,,,
0,1110,2:22.856.111,78.900 us,2 B,,SP,55,Write Transaction,00 00,..,,,,,,,,,,
0,1111,2:22.861.456,83.800 us,2 B,,SP,55,Read Transaction,00 00*,..,,,,,,,,,,
0,1112,2:22.876.131,79.000 us,2 B,,SP,55,Write Transaction,00 00,..,,,,,,,,,,
0,1113,2:22.881.477,82.300 us,2 B,,SP,55,Read Transaction,00 08*,..,,,,,,,,,,
0,1114,2:22.881.888,79.000 us,2 B,,SP,55,Write Transaction,12 01,..,,,,,,,,,,
0,1115,2:22.890.231,2.322.300 ms,92 B,,SP,55,Read Transaction,00 E3 FD 51 02 5D 01 BC 02 4E F0 02 4E 8A 10 00 02 10 00 03 2F FF F4 2F FF F5 02 02 9E 00 20 82 64 00 00 00 00 00 00 00 00 00 00 00 00 03 00 00 00 00 00 00 00 00 00 00 00 00 00 00 00 00 00 00 00 00 00 00 00 00 00 00 00 00 00 00 00 00 00 00 00 00 02 00 01 14 00 00 00 00 02 02*,...Q.]...N..N......./../…,,,,,,,,,,
0,1116,2:22.896.159,79.100 us,2 B,,SP,55,Write Transaction,00 00,..,,,,,,,,,,
0,1117,2:22.901.505,83.700 us,2 B,,SP,55,Read Transaction,00 00*,..,,,,,,,,,,
0,1118,2:22.916.166,79.100 us,2 B,,SP,55,Write Transaction,00 00,..,,,,,,,,,,
0,1119,2:22.921.510,82.200 us,2 B,,SP,55,Read Transaction,00 00*,..,,,,,,,,,,
0,1120,2:22.936.194,79.000 us,2 B,,SP,55,Write Transaction,00 00,..,,,,,,,,,,
0,1121,2:22.941.541,84.000 us,2 B,,SP,55,Read Transaction,00 00*,..,,,,,,,,,,
0,1122,2:22.956.200,79.000 us,2 B,,SP,55,Write Transaction,00 00,..,,,,,,,,,,
0,1123,2:22.961.547,82.300 us,2 B,,SP,55,Read Transaction,00 08*,..,,,,,,,,,,
0,1124,2:22.961.905,79.000 us,2 B,,SP,55,Write Transaction,12 01,..,,,,,,,,,,
0,1125,2:22.970.241,2.322.300 ms,92 B,,SP,55,Read Transaction,00 E8 FD 56 02 57 01 BA 02 4F B4 02 4F 55 1F FF FD 1F FF FE 2F FF F3 2F FF F3 02 02 9E 00 00 00 00 00 00 00 00 00 00 00 00 00 00 00 00 03 00 00 00 00 00 00 00 00 00 00 00 00 00 00 00 00 00 00 00 00 00 00 00 00 00 00 00 00 00 00 00 00 00 00 00 00 02 00 01 14 00 00 00 00 02 02*,...V.W...O..OU....../../…,,,,,,,,,,
0,1126,2:22.976.238,79.000 us,2 B,,SP,55,Write Transaction,00 00,..,,,,,,,,,,
0,1127,2:22.981.583,83.900 us,2 B,,SP,55,Read Transaction,00 00*,..,,,,,,,,,,
0,1128,2:22.996.241,79.000 us,2 B,,SP,55,Write Transaction,00 00,..,,,,,,,,,,
0,1129,2:23.001.585,82.200 us,2 B,,SP,55,Read Transaction,00 08*,..,,,,,,,,,,
0,1130,2:23.001.943,79.000 us,2 B,,SP,55,Write Transaction,12 01,..,,,,,,,,,,
0,1131,2:23.010.283,2.322.400 ms,92 B,,SP,55,Read Transaction,00 ED FD 58 02 5B 01 BF 02 4F 93 02 4F 35 1F FF FE 1F FF FF 20 00 08 20 00 08 02 02 9E 00 00 00 00 00 00 00 00 00 00 00 00 00 00 00 00 03 00 00 00 00 00 00 00 00 00 00 00 00 00 00 00 00 00 00 00 00 00 00 00 00 00 00 00 00 00 00 00 00 00 00 00 00 02 00 01 14 00 00 00 00 02 02*,...X.[...O..O5...... .. …,,,,,,,,,,
0,1132,2:23.016.274,79.000 us,2 B,,SP,55,Write Transaction,00 00,..,,,,,,,,,,
0,1133,2:23.021.627,83.900 us,2 B,,SP,55,Read Transaction,00 00*,..,,,,,,,,,,
0,1134,2:23.036.279,79.100 us,2 B,,SP,55,Write Transaction,00 00,..,,,,,,,,,,
0,1135,2:23.041.626,82.300 us,2 B,,SP,55,Read Transaction,00 08*,..,,,,,,,,,,
0,1136,2:23.041.985,79.000 us,2 B,,SP,55,Write Transaction,12 01,..,,,,,,,,,,
0,1137,2:23.050.323,2.321.700 ms,92 B,,SP,55,Read Transaction,00 F2 FD 56 02 5C 01 BD 02 4C 80 02 4C 1A 10 00 06 10 00 07 2F FF FD 2F FF FC 02 02 9E 00 00 00 00 00 00 00 00 00 00 00 00 00 00 00 00 03 00 00 00 00 00 00 00 00 00 00 00 00 00 00 00 00 00 00 00 00 00 00 00 00 00 00 00 00 00 00 00 00 00 00 00 00 02 00 01 14 00 00 00 00 02 02*,...V.\...L..L......./../…,,,,,,,,,,
0,1138,2:23.056.311,79.000 us,2 B,,SP,55,Write Transaction,00 00,..,,,,,,,,,,
0,1139,2:23.061.657,83.900 us,2 B,,SP,55,Read Transaction,00 00*,..,,,,,,,,,,
0,1140,2:23.076.322,79.100 us,2 B,,SP,55,Write Transaction,00 00,..,,,,,,,,,,
0,1141,2:23.081.668,82.300 us,2 B,,SP,55,Read Transaction,00 08*,..,,,,,,,,,,
0,1142,2:23.082.027,79.100 us,2 B,,SP,55,Write Transaction,12 01,..,,,,,,,,,,
0,1143,2:23.090.365,2.321.400 ms,92 B,,SP,55,Read Transaction,00 F7 FD 54 02 5B 01 BC 02 48 B5 02 48 50 10 00 02 10 00 02 20 00 07 20 00 07 02 02 A8 00 00 00 00 00 00 00 00 00 00 00 00 00 00 00 00 03 00 00 00 00 00 00 00 00 00 00 00 00 00 00 00 00 00 00 00 00 00 00 00 00 00 00 00 00 00 00 00 00 00 00 00 00 02 00 01 14 00 00 00 00 02 02*,...T.[...H..HP...... .. …,,,,,,,,,,
0,1144,2:23.096.336,79.000 us,2 B,,SP,55,Write Transaction,00 00,..,,,,,,,,,,
0,1145,2:23.101.680,84.600 us,2 B,,SP,55,Read Transaction,00 00*,..,,,,,,,,,,
0,1146,2:23.116.110,79.000 us,2 B,,SP,55,Write Transaction,00 00,..,,,,,,,,,,
0,1147,2:23.121.457,82.400 us,2 B,,SP,55,Read Transaction,00 00*,..,,,,,,,,,,
0,1148,2:23.136.139,79.200 us,2 B,,SP,55,Write Transaction,00 00,..,,,,,,,,,,
0,1149,2:23.141.492,84.900 us,2 B,,SP,55,Read Transaction,00 00*,..,,,,,,,,,,
0,1150,2:23.156.148,79.000 us,2 B,,SP,55,Write Transaction,00 00,..,,,,,,,,,,
0,1151,2:23.161.495,82.400 us,2 B,,SP,55,Read Transaction,00 08*,..,,,,,,,,,,
0,1152,2:23.161.854,79.200 us,2 B,,SP,55,Write Transaction,12 01,..,,,,,,,,,,
0,1153,2:23.170.200,2.321.900 ms,92 B,,SP,55,Read Transaction,00 FC FD 54 02 58 01 B6 02 45 C2 02 45 5F 10 00 09 10 00 0A 20 00 05 20 00 05 02 02 A8 00 00 00 00 00 00 00 00 00 00 00 00 00 00 00 00 03 00 00 00 00 00 00 00 00 00 00 00 00 00 00 00 00 00 00 00 00 00 00 00 00 00 00 00 00 00 00 00 00 00 00 00 00 02 00 01 14 00 00 00 00 02 02*,...T.X...E..E_...... .. …,,,,,,,,,,
0,1154,2:23.176.172,79.000 us,2 B,,SP,55,Write Transaction,00 00,..,,,,,,,,,,
0,1155,2:23.181.517,84.100 us,2 B,,SP,55,Read Transaction,00 00*,..,,,,,,,,,,
0,1156,2:23.196.194,79.000 us,2 B,,SP,55,Write Transaction,00 00,..,,,,,,,,,,
0,1157,2:23.201.545,82.200 us,2 B,,SP,55,Read Transaction,00 08*,..,,,,,,,,,,
0,1158,2:23.201.905,79.000 us,2 B,,SP,55,Write Transaction,12 01,..,,,,,,,,,,
0,1159,2:23.210.244,2.322.000 ms,92 B,,SP,55,Read Transaction,00 01 FD 54 02 5B 01 BF 02 43 B0 02 43 4A 10 00 0A 10 00 0A 2F FF F6 2F FF F6 02 02 A8 00 00 00 00 00 00 00 00 00 00 00 00 00 00 00 00 03 00 00 00 00 00 00 00 00 00 00 00 00 00 00 00 00 00 00 00 00 00 00 00 00 00 00 00 00 00 00 00 00 00 00 00 00 02 00 01 1D 00 00 00 00 03 03*,...T.[...C..CJ....../../…,,,,,,,,,,
0,1160,2:23.216.219,79.000 us,2 B,,SP,55,Write Transaction,00 00,..,,,,,,,,,,
0,1161,2:23.221.568,84.700 us,2 B,,SP,55,Read Transaction,00 00*,..,,,,,,,,,,
0,1162,2:23.236.222,79.100 us,2 B,,SP,55,Write Transaction,00 00,..,,,,,,,,,,
0,1163,2:23.241.570,82.300 us,2 B,,SP,55,Read Transaction,00 08*,..,,,,,,,,,,
0,1164,2:23.241.929,79.100 us,2 B,,SP,55,Write Transaction,12 01,..,,,,,,,,,,
0,1165,2:23.250.270,2.321.700 ms,92 B,,SP,55,Read Transaction,00 06 FD 57 02 5C 01 BE 02 42 8E 02 42 28 1F FF FE 1F FF FE 20 00 03 20 00 04 02 02 A8 00 00 00 00 00 00 00 00 00 00 00 00 00 00 00 00 03 00 00 00 00 00 00 00 00 00 00 00 00 00 00 00 00 00 00 00 00 00 00 00 00 00 00 00 00 00 00 00 00 00 00 00 00 02 00 01 1D 00 00 00 00 03 03*,...W.\...B..B(...... .. …,,,,,,,,,,
0,1166,2:23.256.253,79.200 us,2 B,,SP,55,Write Transaction,00 00,..,,,,,,,,,,
0,1167,2:23.261.606,85.300 us,2 B,,SP,55,Read Transaction,00 00*,..,,,,,,,,,,
0,1168,2:23.276.261,79.000 us,2 B,,SP,55,Write Transaction,00 00,..,,,,,,,,,,
0,1169,2:23.281.606,82.300 us,2 B,,SP,55,Read Transaction,00 08*,..,,,,,,,,,,
0,1170,2:23.281.965,79.100 us,2 B,,SP,55,Write Transaction,12 01,..,,,,,,,,,,
0,1171,2:23.290.307,2.322.100 ms,92 B,,SP,55,Read Transaction,00 0B FD 56 02 58 01 B6 02 41 E2 02 41 7E 10 00 01 10 00 01 20 00 0D 20 00 0B 02 02 A8 00 00 00 00 00 00 00 00 00 00 00 00 00 00 00 00 03 00 00 00 00 00 00 00 00 00 00 00 00 00 00 00 00 00 00 00 00 00 00 00 00 00 00 00 00 00 00 00 00 00 00 00 00 02 00 01 1D 00 00 00 00 03 03*,...V.X...A..A~...... .. …,,,,,,,,,,
0,1172,2:23.296.285,79.000 us,2 B,,SP,55,Write Transaction,00 00,..,,,,,,,,,,
0,1173,2:23.301.630,85.200 us,2 B,,SP,55,Read Transaction,00 00*,..,,,,,,,,,,
0,1174,2:23.316.308,79.000 us,2 B,,SP,55,Write Transaction,00 00,..,,,,,,,,,,
0,1175,2:23.321.654,82.000 us,2 B,,SP,55,Read Transaction,00 00*,..,,,,,,,,,,
0,1176,2:23.336.325,79.000 us,2 B,,SP,55,Write Transaction,00 00,..,,,,,,,,,,
0,1177,2:23.341.670,85.200 us,2 B,,SP,55,Read Transaction,00 00*,..,,,,,,,,,,
0,1178,2:23.356.092,79.000 us,2 B,,SP,55,Write Transaction,00 00,..,,,,,,,,,,
0,1179,2:23.361.435,82.100 us,2 B,,SP,55,Read Transaction,00 08*,..,,,,,,,,,,
0,1180,2:23.361.793,79.000 us,2 B,,SP,55,Write Transaction,12 01,..,,,,,,,,,,
0,1181,2:23.370.132,2.322.300 ms,92 B,,SP,55,Read Transaction,00 10 FD 59 02 5D 01 BF 02 41 8C 02 41 28 1F FF FF 1F FF FE 20 00 08 20 00 07 02 02 A8 00 00 00 00 00 00 00 00 00 00 00 00 00 00 00 00 03 00 00 00 00 00 00 00 00 00 00 00 00 00 00 00 00 00 00 00 00 00 00 00 00 00 00 00 00 00 00 00 00 00 00 00 00 02 00 01 1D 00 00 00 00 03 03*,...Y.]...A..A(...... .. …,,,,,,,,,,
0,1182,2:23.376.122,79.000 us,2 B,,SP,55,Write Transaction,00 00,..,,,,,,,,,,
0,1183,2:23.381.469,85.200 us,2 B,,SP,55,Read Transaction,00 00*,..,,,,,,,,,,
0,1184,2:23.396.137,79.000 us,2 B,,SP,55,Write Transaction,00 00,..,,,,,,,,,,
0,1185,2:23.401.482,82.300 us,2 B,,SP,55,Read Transaction,00 08*,..,,,,,,,,,,
0,1186,2:23.401.840,79.000 us,2 B,,SP,55,Write Transaction,12 01,..,,,,,,,,,,
0,1187,2:23.410.180,2.322.100 ms,92 B,,SP,55,Read Transaction,00 15 FD 58 02 56 01 B8 02 41 BB 02 41 5D 1F FF F3 1F FF F4 2F FF FC 2F FF FD 02 02 A8 00 00 00 00 00 00 00 00 00 00 00 00 00 00 00 00 03 00 00 00 00 00 00 00 00 00 00 00 00 00 00 00 00 00 00 00 00 00 00 00 00 00 00 00 00 00 00 00 00 00 00 00 00 02 00 01 1D 00 00 00 00 03 03*,...X.V...A..A]....../../…,,,,,,,,,,
0,1188,2:23.416.151,79.000 us,2 B,,SP,55,Write Transaction,00 00,..,,,,,,,,,,
0,1189,2:23.421.495,85.200 us,2 B,,SP,55,Read Transaction,00 00*,..,,,,,,,,,,
0,1190,2:23.436.170,79.000 us,2 B,,SP,55,Write Transaction,00 00,..,,,,,,,,,,
0,1191,2:23.441.515,82.100 us,2 B,,SP,55,Read Transaction,00 08*,..,,,,,,,,,,
0,1192,2:23.441.874,79.000 us,2 B,,SP,55,Write Transaction,12 01,..,,,,,,,,,,
0,1193,2:23.450.212,2.322.300 ms,92 B,,SP,55,Read Transaction,00 1A FD 59 02 60 01 B8 02 41 F4 02 41 8F 1F FF FD 1F FF FC 2F FF F3 2F FF F4 02 02 A8 00 00 00 00 00 00 00 00 00 00 00 00 00 00 00 00 03 00 00 00 00 00 00 00 00 00 00 00 00 00 00 00 00 00 00 00 00 00 00 00 00 00 00 00 00 00 00 00 00 00 00 00 00 02 00 01 1D 00 00 00 00 03 03*,...Y.`...A..A......./../…,,,,,,,,,,
0,1194,2:23.456.186,79.000 us,2 B,,SP,55,Write Transaction,00 00,..,,,,,,,,,,
0,1195,2:23.461.532,85.300 us,2 B,,SP,55,Read Transaction,00 00*,..,,,,,,,,,,
0,1196,2:23.476.214,79.000 us,2 B,,SP,55,Write Transaction,00 00,..,,,,,,,,,,
0,1197,2:23.481.560,82.100 us,2 B,,SP,55,Read Transaction,00 08*,..,,,,,,,,,,
0,1198,2:23.481.919,79.000 us,2 B,,SP,55,Write Transaction,12 01,..,,,,,,,,,,
0,1199,2:23.490.258,2.321.600 ms,92 B,,SP,55,Read Transaction,00 1F FD 59 02 54 01 B8 02 42 C1 02 42 60 10 00 06 10 00 05 2F FF F7 2F FF F9 02 02 B2 00 00 00 00 00 00 00 00 00 00 00 00 00 00 00 00 03 00 00 00 00 00 00 00 00 00 00 00 00 00 00 00 00 00 00 00 00 00 00 00 00 00 00 00 00 00 00 00 00 00 00 00 00 02 00 01 1D 00 00 00 00 03 03*,...Y.T...B..B`....../../…,,,,,,,,,,
0,1200,2:23.496.229,79.000 us,2 B,,SP,55,Write Transaction,00 00,..,,,,,,,,,,
0,1201,2:23.501.582,85.300 us,2 B,,SP,55,Read Transaction,00 00*,..,,,,,,,,,,
0,1202,2:23.516.247,78.900 us,2 B,,SP,55,Write Transaction,00 00,..,,,,,,,,,,
0,1203,2:23.521.593,82.000 us,2 B,,SP,55,Read Transaction,00 00*,..,,,,,,,,,,
0,1204,2:23.536.266,79.000 us,2 B,,SP,55,Write Transaction,00 00,..,,,,,,,,,,
0,1205,2:23.541.610,85.200 us,2 B,,SP,55,Read Transaction,00 00*,..,,,,,,,,,,
0,1206,2:23.556.284,79.000 us,2 B,,SP,55,Write Transaction,00 00,..,,,,,,,,,,
0,1207,2:23.561.632,82.000 us,2 B,,SP,55,Read Transaction,00 08*,..,,,,,,,,,,
0,1208,2:23.561.991,79.000 us,2 B,,SP,55,Write Transaction,12 01,..,,,,,,,,,,
0,1209,2:23.570.330,2.322.200 ms,92 B,,SP,55,Read Transaction,00 24 FD 53 02 51 01 BF 02 43 89 02 43 27 10 00 04 10 00 05 20 00 09 20 00 0A 02 02 B2 00 00 00 00 00 00 00 00 00 00 00 00 00 00 00 00 03 00 00 00 00 00 00 00 00 00 00 00 00 00 00 00 00 00 00 00 00 00 00 00 00 00 00 00 00 00 00 00 00 00 00 00 00 02 00 01 1D 00 00 00 00 03 03*,.$.S.Q...C..C'...... .. …,,,,,,,,,,
0,1210,2:23.576.302,79.000 us,2 B,,SP,55,Write Transaction,00 00,..,,,,,,,,,,
0,1211,2:23.581.648,85.200 us,2 B,,SP,55,Read Transaction,00 00*,..,,,,,,,,,,
0,1212,2:23.596.317,79.000 us,2 B,,SP,55,Write Transaction,00 00,..,,,,,,,,,,
0,1213,2:23.601.661,82.000 us,2 B,,SP,55,Read Transaction,00 08*,..,,,,,,,,,,
0,1214,2:23.602.019,79.000 us,2 B,,SP,55,Write Transaction,12 01,..,,,,,,,,,,
0,1215,2:23.610.363,2.322.100 ms,92 B,,SP,55,Read Transaction,00 29 FD 57 02 5A 01 B7 02 44 5B 02 43 F4 10 00 08 10 00 07 20 00 09 20 00 09 02 02 B2 00 00 00 00 00 00 00 00 00 00 00 00 00 00 00 00 03 00 00 00 00 00 00 00 00 00 00 00 00 00 00 00 00 00 00 00 00 00 00 00 00 00 00 00 00 00 00 00 00 00 00 00 00 02 00 01 1D 00 00 00 00 03 03*,.).W.Z...D[.C....... .. …,,,,,,,,,,
0,1216,2:23.616.103,79.000 us,2 B,,SP,55,Write Transaction,00 00,..,,,,,,,,,,
0,1217,2:23.621.454,85.300 us,2 B,,SP,55,Read Transaction,00 00*,..,,,,,,,,,,
0,1218,2:23.636.109,79.100 us,2 B,,SP,55,Write Transaction,00 00,..,,,,,,,,,,
0,1219,2:23.641.455,81.900 us,2 B,,SP,55,Read Transaction,00 08*,..,,,,,,,,,,
0,1220,2:23.641.813,79.200 us,2 B,,SP,55,Write Transaction,12 01,..,,,,,,,,,,
0,1221,2:23.650.165,2.322.200 ms,92 B,,SP,55,Read Transaction,00 2E FD 55 02 58 01 BD 02 45 48 02 44 E7 1F FF F4 1F FF F7 20 00 05 20 00 05 02 02 B2 00 00 00 00 00 00 00 00 00 00 00 00 00 00 00 00 03 00 00 00 00 00 00 00 00 00 00 00 00 00 00 00 00 00 00 00 00 00 00 00 00 00 00 00 00 00 00 00 00 00 00 00 00 02 00 01 1D 00 00 00 00 03 03*,...U.X...EH.D....... .. …,,,,,,,,,,
0,1222,2:23.656.141,79.000 us,2 B,,SP,55,Write Transaction,00 00,..,,,,,,,,,,
0,1223,2:23.661.488,85.200 us,2 B,,SP,55,Read Transaction,00 00*,..,,,,,,,,,,
0,1224,2:23.676.158,79.100 us,2 B,,SP,55,Write Transaction,00 00,..,,,,,,,,,,
0,1225,2:23.681.505,82.200 us,2 B,,SP,55,Read Transaction,00 08*,..,,,,,,,,,,
0,1226,2:23.681.863,79.000 us,2 B,,SP,55,Write Transaction,12 01,..,,,,,,,,,,
0,1227,2:23.690.203,2.321.600 ms,92 B,,SP,55,Read Transaction,00 33 FD 5A 02 60 01 B9 02 46 35 02 45 D1 1F FF F0 1F FF F0 20 00 0F 20 00 0F 02 02 DA 32 1F F1 64 00 00 00 00 00 00 00 00 00 00 00 00 03 00 00 00 00 00 00 00 00 00 00 00 00 00 00 00 00 00 00 00 00 00 00 00 00 00 00 00 00 00 00 00 00 00 00 00 00 02 00 01 1D 00 00 00 00 03 03*,.3.Z.`...F5.E....... .. …,,,,,,,,,,
0,1228,2:23.696.169,79.000 us,2 B,,SP,55,Write Transaction,00 00,..,,,,,,,,,,
0,1229,2:23.701.521,85.400 us,2 B,,SP,55,Read Transaction,00 00*,..,,,,,,,,,,
0,1230,2:23.716.179,79.000 us,2 B,,SP,55,Write Transaction,00 00,..,,,,,,,,,,
0,1231,2:23.721.525,82.000 us,2 B,,SP,55,Read Transaction,00 00*,..,,,,,,,,,,
0,1232,2:23.736.201,79.000 us,2 B,,SP,55,Write Transaction,00 00,..,,,,,,,,,,
0,1233,2:23.741.550,85.200 us,2 B,,SP,55,Read Transaction,00 00*,..,,,,,,,,,,
0,1234,2:23.756.218,79.000 us,2 B,,SP,55,Write Transaction,00 00,..,,,,,,,,,,
0,1235,2:23.761.564,81.900 us,2 B,,SP,55,Read Transaction,00 08*,..,,,,,,,,,,
0,1236,2:23.761.922,79.000 us,2 B,,SP,55,Write Transaction,12 01,..,,,,,,,,,,
0,1237,2:23.770.262,2.322.100 ms,92 B,,SP,55,Read Transaction,00 38 FD 53 02 54 01 BC 02 47 31 02 46 CB 1F FF F8 1F FF F9 2F FF FC 2F FF FD 02 02 DA 32 00 00 00 00 00 00 00 00 00 00 00 00 00 00 00 03 00 00 00 00 00 00 00 00 00 00 00 00 00 00 00 00 00 00 00 00 00 00 00 00 00 00 00 00 00 00 00 00 00 00 00 00 02 00 01 1D 00 00 00 00 03 03*,.8.S.T...G1.F......./../…,,,,,,,,,,
0,1238,2:23.776.251,79.000 us,2 B,,SP,55,Write Transaction,00 00,..,,,,,,,,,,
0,1239,2:23.781.596,85.300 us,2 B,,SP,55,Read Transaction,00 00*,..,,,,,,,,,,
0,1240,2:23.796.262,79.000 us,2 B,,SP,55,Write Transaction,00 00,..,,,,,,,,,,
0,1241,2:23.801.607,82.000 us,2 B,,SP,55,Read Transaction,00 08*,..,,,,,,,,,,
0,1242,2:23.801.966,79.000 us,2 B,,SP,55,Write Transaction,12 01,..,,,,,,,,,,
0,1243,2:23.810.305,2.321.900 ms,92 B,,SP,55,Read Transaction,00 3D FD 51 02 58 01 BF 02 48 4F 02 47 EE 1F FF F5 1F FF F7 2F FF FA 2F FF FB 02 02 DA 32 00 00 00 00 00 00 00 00 00 00 00 00 00 00 00 03 00 00 00 00 00 00 00 00 00 00 00 00 00 00 00 00 00 00 00 00 00 00 00 00 00 00 00 00 00 00 00 00 00 00 00 00 02 00 01 1D 00 00 00 00 03 03*,.=.Q.X...HO.G......./../…,,,,,,,,,,
0,1244,2:23.816.278,79.000 us,2 B,,SP,55,Write Transaction,00 00,..,,,,,,,,,,
0,1245,2:23.821.628,85.200 us,2 B,,SP,55,Read Transaction,00 00*,..,,,,,,,,,,
0,1246,2:23.836.297,79.000 us,2 B,,SP,55,Write Transaction,00 00,..,,,,,,,,,,
0,1247,2:23.841.643,82.000 us,2 B,,SP,55,Read Transaction,00 08*,..,,,,,,,,,,
0,1248,2:23.842.002,79.000 us,2 B,,SP,55,Write Transaction,12 01,..,,,,,,,,,,
0,1249,2:23.850.341,2.322.000 ms,92 B,,SP,55,Read Transaction,00 42 FD 55 02 52 01 BB 02 47 BE 02 47 5B 1F FF FF 10 00 02 2F FF F5 2F FF F6 02 02 DA 32 00 00 00 00 00 00 00 00 00 00 00 00 00 00 00 03 00 00 00 00 00 00 00 00 00 00 00 00 00 00 00 00 00 00 00 00 00 00 00 00 00 00 00 00 00 00 00 00 00 00 00 00 02 00 01 1D 00 00 00 00 03 03*,.B.U.R...G..G[....../../…,,,,,,,,,,
0,1250,2:23.856.074,79.000 us,2 B,,SP,55,Write Transaction,00 00,..,,,,,,,,,,
0,1251,2:23.861.419,85.300 us,2 B,,SP,55,Read Transaction,00 00*,..,,,,,,,,,,
0,1252,2:23.876.100,79.000 us,2 B,,SP,55,Write Transaction,00 00,..,,,,,,,,,,
0,1253,2:23.881.447,81.900 us,2 B,,SP,55,Read Transaction,00 08*,..,,,,,,,,,,
0,1254,2:23.881.805,79.000 us,2 B,,SP,55,Write Transaction,12 01,..,,,,,,,,,,
0,1255,2:23.890.145,2.323.200 ms,92 B,,SP,55,Read Transaction,00 47 FD 56 02 60 01 B7 02 44 91 02 44 2C 1F FF E8 1F FF E8 2F FF FC 2F FF FB 02 02 DA 32 00 00 00 00 00 00 00 00 00 00 00 00 00 00 00 03 00 00 00 00 00 00 00 00 00 00 00 00 00 00 00 00 00 00 00 00 00 00 00 00 00 00 00 00 00 00 00 00 00 00 00 00 02 00 01 1D 00 00 00 00 03 03*,.G.V.`...D..D,....../../…,,,,,,,,,
0,1256,2:23.896.121,79.000 us,2 B,,SP,55,Write Transaction,00 00,..,,,,,,,,,,
0,1257,2:23.901.466,85.200 us,2 B,,SP,55,Read Transaction,00 00*,..,,,,,,,,,,
0,1258,2:23.916.127,79.000 us,2 B,,SP,55,Write Transaction,00 00,..,,,,,,,,,,
0,1259,2:23.921.474,82.200 us,2 B,,SP,55,Read Transaction,00 00*,..,,,,,,,,,,
0,1260,2:23.936.155,79.000 us,2 B,,SP,55,Write Transaction,00 00,..,,,,,,,,,,
0,1261,2:23.941.498,85.200 us,2 B,,SP,55,Read Transaction,00 00*,..,,,,,,,,,,
0,1262,2:23.956.161,79.000 us,2 B,,SP,55,Write Transaction,00 00,..,,,,,,,,,,
0,1263,2:23.961.510,82.100 us,2 B,,SP,55,Read Transaction,00 08*,..,,,,,,,,,,
0,1264,2:23.961.869,79.100 us,2 B,,SP,55,Write Transaction,12 01,..,,,,,,,,,,
0,1265,2:23.970.216,2.322.300 ms,92 B,,SP,55,Read Transaction,00 4C FD 55 02 5B 01 B9 02 41 5D 02 40 F8 1F FF EF 1F FF F0 2F FF F8 2F FF F9 02 02 DA 32 00 00 00 00 00 00 00 00 00 00 00 00 00 00 00 03 00 00 00 00 00 00 00 00 00 00 00 00 00 00 00 00 00 00 00 00 00 00 00 00 00 00 00 00 00 00 00 00 00 00 00 00 02 00 01 1D 00 00 00 00 03 03*,.L.U.[...A].@......./../…,,,,,,,,,,
0,1266,2:23.976.194,79.000 us,2 B,,SP,55,Write Transaction,00 00,..,,,,,,,,,,
0,1267,2:23.981.539,85.100 us,2 B,,SP,55,Read Transaction,00 00*,..,,,,,,,,,,
0,1268,2:23.996.199,79.100 us,2 B,,SP,55,Write Transaction,00 00,..,,,,,,,,,,
0,1269,2:24.001.544,81.900 us,2 B,,SP,55,Read Transaction,00 08*,..,,,,,,,,,,
0,1270,2:24.001.902,79.100 us,2 B,,SP,55,Write Transaction,12 01,..,,,,,,,,,,
0,1271,2:24.010.244,2.321.400 ms,92 B,,SP,55,Read Transaction,00 51 FD 56 02 53 01 BC 02 3F 0E 02 3E AB 1F FF F4 1F FF F5 20 00 04 20 00 02 02 02 DA 32 00 00 00 00 00 00 00 00 00 00 00 00 00 00 00 03 00 00 00 00 00 00 00 00 00 00 00 00 00 00 00 00 00 00 00 00 00 00 00 00 00 00 00 00 00 00 00 00 00 00 00 00 02 00 01 25 00 00 00 00 03 03*,.Q.V.S...?..>....... .. …,,,,,,,,,,
0,1272,2:24.016.236,79.000 us,2 B,,SP,55,Write Transaction,00 00,..,,,,,,,,,,
0,1273,2:24.021.582,85.300 us,2 B,,SP,55,Read Transaction,00 00*,..,,,,,,,,,,
0,1274,2:24.036.243,79.000 us,2 B,,SP,55,Write Transaction,00 00,..,,,,,,,,,,
0,1275,2:24.041.589,82.000 us,2 B,,SP,55,Read Transaction,00 08*,..,,,,,,,,,,
0,1276,2:24.041.947,79.000 us,2 B,,SP,55,Write Transaction,12 01,..,,,,,,,,,,
0,1277,2:24.050.294,2.325.400 ms,92 B,,SP,55,Read Transaction,00 56 FD 54 02 56 01 BC 02 3D A2 02 3D 3E 10 00 03 10 00 03 2F FF FC 2F FF FB 02 02 DA 32 00 00 00 00 00 00 00 00 00 00 00 00 00 00 00 03 00 00 00 00 00 00 00 00 00 00 00 00 00 00 00 00 00 00 00 00 00 00 00 00 00 00 00 00 00 00 00 00 00 00 00 00 02 00 01 25 00 00 00 00 03 03*,.V.T.V...=..=>....../../…,,,,,,,,,,
0,1278,2:24.056.275,79.000 us,2 B,,SP,55,Write Transaction,00 00,..,,,,,,,,,,
0,1279,2:24.061.621,85.200 us,2 B,,SP,55,Read Transaction,00 00*,..,,,,,,,,,,
0,1280,2:24.076.282,79.100 us,2 B,,SP,55,Write Transaction,00 00,..,,,,,,,,,,
0,1281,2:24.081.629,81.900 us,2 B,,SP,55,Read Transaction,00 08*,..,,,,,,,,,,
0,1282,2:24.081.987,79.000 us,2 B,,SP,55,Write Transaction,12 01,..,,,,,,,,,,
0,1283,2:24.090.327,2.322.300 ms,92 B,,SP,55,Read Transaction,00 5B FD 55 02 57 01 BD 02 3D 2F 02 3C CB 10 00 0E 10 00 0F 20 00 0D 20 00 0D 02 02 DA 32 00 00 00 00 00 00 00 00 00 00 00 00 00 00 00 03 00 00 00 00 00 00 00 00 00 00 00 00 00 00 00 00 00 00 00 00 00 00 00 00 00 00 00 00 00 00 00 00 00 00 00 00 02 00 01 25 00 00 00 00 03 03*,.[.U.W...=/.<....... .. …,,,,,,,,,,
0,1284,2:24.096.297,79.000 us,2 B,,SP,55,Write Transaction,00 00,..,,,,,,,,,,
0,1285,2:24.101.645,85.300 us,2 B,,SP,55,Read Transaction,00 00*,..,,,,,,,,,,
0,1286,2:24.116.072,79.000 us,2 B,,SP,55,Write Transaction,00 00,..,,,,,,,,,,
0,1287,2:24.121.416,82.000 us,2 B,,SP,55,Read Transaction,00 00*,..,,,,,,,,,,
0,1288,2:24.136.088,79.000 us,2 B,,SP,55,Write Transaction,00 00,..,,,,,,,,,,
0,1289,2:24.141.433,85.200 us,2 B,,SP,55,Read Transaction,00 00*,..,,,,,,,,,,
0,1290,2:24.156.116,79.100 us,2 B,,SP,55,Write Transaction,00 00,..,,,,,,,,,,
0,1291,2:24.161.463,81.900 us,2 B,,SP,55,Read Transaction,00 08*,..,,,,,,,,,,
0,1292,2:24.161.821,79.000 us,2 B,,SP,55,Write Transaction,12 01,..,,,,,,,,,,
0,1293,2:24.170.160,2.322.300 ms,92 B,,SP,55,Read Transaction,00 60 FD 57 02 5A 01 BE 02 3D 0F 02 3C B2 10 00 11 10 00 10 2F FF F9 2F FF F9 02 02 DA 32 00 00 00 00 00 00 00 00 00 00 00 00 00 00 00 03 00 00 00 00 00 00 00 00 00 00 00 00 00 00 00 00 00 00 00 00 00 00 00 00 00 00 00 00 00 00 00 00 00 00 00 00 02 00 01 25 00 00 00 00 03 03*,.`.W.Z...=..<......./../…,,,,,,,,,,
0,1294,2:24.176.131,79.000 us,2 B,,SP,55,Write Transaction,00 00,..,,,,,,,,,,
0,1295,2:24.181.477,85.200 us,2 B,,SP,55,Read Transaction,00 00*,..,,,,,,,,,,
0,1296,2:24.196.155,79.000 us,2 B,,SP,55,Write Transaction,00 00,..,,,,,,,,,,
0,1297,2:24.201.501,82.000 us,2 B,,SP,55,Read Transaction,00 08*,..,,,,,,,,,,
0,1298,2:24.201.860,79.000 us,2 B,,SP,55,Write Transaction,12 01,..,,,,,,,,,,
0,1299,2:24.210.199,2.322.200 ms,92 B,,SP,55,Read Transaction,00 65 FD 51 02 57 01 B9 02 3D 12 02 3C AD 10 00 09 10 00 09 20 00 02 20 00 01 02 02 DA 32 00 00 00 00 00 00 00 00 00 00 00 00 00 00 00 03 00 00 00 00 00 00 00 00 00 00 00 00 00 00 00 00 00 00 00 00 00 00 00 00 00 00 00 00 00 00 00 00 00 00 00 00 02 00 01 25 00 00 00 00 03 03*,.e.Q.W...=..<....... .. …,,,,,,,,,,
0,1300,2:24.216.170,79.000 us,2 B,,SP,55,Write Transaction,00 00,..,,,,,,,,,,
0,1301,2:24.221.513,85.200 us,2 B,,SP,55,Read Transaction,00 00*,..,,,,,,,,,,
0,1302,2:24.236.189,79.000 us,2 B,,SP,55,Write Transaction,00 00,..,,,,,,,,,,
0,1303,2:24.241.535,82.000 us,2 B,,SP,55,Read Transaction,00 08*,..,,,,,,,,,,
0,1304,2:24.241.894,79.000 us,2 B,,SP,55,Write Transaction,12 01,..,,,,,,,,,,
0,1305,2:24.250.233,2.321.400 ms,92 B,,SP,55,Read Transaction,00 6A FD 55 02 58 01 B9 02 3D 9E 02 3D 3B 1F FF FF 1F FF FE 2F FF FD 2F FF FF 02 02 DA 32 00 00 00 00 00 00 00 00 00 00 00 00 00 00 00 03 00 00 00 00 00 00 00 00 00 00 00 00 00 00 00 00 00 00 00 00 00 00 00 00 00 00 00 00 00 00 00 00 00 00 00 00 02 00 01 25 00 00 00 00 03 03*,.j.U.X...=..=;....../../…,,,,,,,,,,
0,1306,2:24.256.205,79.000 us,2 B,,SP,55,Write Transaction,00 00,..,,,,,,,,,,
0,1307,2:24.261.550,85.200 us,2 B,,SP,55,Read Transaction,00 00*,..,,,,,,,,,,
0,1308,2:24.276.229,79.000 us,2 B,,SP,55,Write Transaction,00 00,..,,,,,,,,,,
0,1309,2:24.281.577,82.000 us,2 B,,SP,55,Read Transaction,00 08*,..,,,,,,,,,,
0,1310,2:24.281.936,79.100 us,2 B,,SP,55,Write Transaction,12 01,..,,,,,,,,,,
0,1311,2:24.290.278,2.322.400 ms,92 B,,SP,55,Read Transaction,00 6F FD 59 02 54 01 B3 02 3E 4F 02 3D E9 10 00 04 10 00 03 2F FF F0 2F FF F1 02 02 DA 32 00 00 00 00 00 00 00 00 00 00 00 00 00 00 00 03 00 00 00 00 00 00 00 00 00 00 00 00 00 00 00 00 00 00 00 00 00 00 00 00 00 00 00 00 00 00 00 00 00 00 00 00 02 00 01 25 00 00 00 00 03 03*,.o.Y.T...>O.=......./../…,,,,,,,,,,
0,1312,2:24.296.251,79.000 us,2 B,,SP,55,Write Transaction,00 00,..,,,,,,,,,,
0,1313,2:24.301.596,85.200 us,2 B,,SP,55,Read Transaction,00 00*,..,,,,,,,,,,
0,1314,2:24.316.259,79.000 us,2 B,,SP,55,Write Transaction,00 00,..,,,,,,,,,,
0,1315,2:24.321.606,82.100 us,2 B,,SP,55,Read Transaction,00 00*,..,,,,,,,,,,
0,1316,2:24.336.289,79.000 us,2 B,,SP,55,Write Transaction,00 00,..,,,,,,,,,,
0,1317,2:24.341.635,85.300 us,2 B,,SP,55,Read Transaction,00 00*,..,,,,,,,,,,
0,1318,2:24.356.049,79.000 us,2 B,,SP,55,Write Transaction,00 00,..,,,,,,,,,,
0,1319,2:24.361.392,81.900 us,2 B,,SP,55,Read Transaction,00 08*,..,,,,,,,,,,
0,1320,2:24.361.750,79.000 us,2 B,,SP,55,Write Transaction,12 01,..,,,,,,,,,,
0,1321,2:24.370.091,2.321.300 ms,92 B,,SP,55,Read Transaction,00 74 FD 53 02 58 01 BF 02 3F 54 02 3E F0 10 00 01 10 00 00 2F FF F6 2F FF F7 02 02 DA 32 00 00 00 00 00 00 00 00 00 00 00 00 00 00 00 03 00 00 00 00 00 00 00 00 00 00 00 00 00 00 00 00 00 00 00 00 00 00 00 00 00 00 00 00 00 00 00 00 00 00 00 00 02 00 01 25 00 00 00 00 03 03*,.t.S.X...?T.>......./../…,,,,,,,,,,
0,1322,2:24.376.084,79.000 us,2 B,,SP,55,Write Transaction,00 00,..,,,,,,,,,,
0,1323,2:24.381.429,85.300 us,2 B,,SP,55,Read Transaction,00 00*,..,,,,,,,,,,
0,1324,2:24.396.092,79.000 us,2 B,,SP,55,Write Transaction,00 00,..,,,,,,,,,,
0,1325,2:24.401.437,81.900 us,2 B,,SP,55,Read Transaction,00 08*,..,,,,,,,,,,
0,1326,2:24.401.795,79.000 us,2 B,,SP,55,Write Transaction,12 01,..,,,,,,,,,,
0,1327,2:24.410.138,2.323.900 ms,92 B,,SP,55,Read Transaction,00 79 FD 54 02 5B 01 B8 02 40 42 02 3F E5 1F FF FA 1F FF FA 20 00 04 20 00 04 02 02 DA 32 00 00 00 00 00 00 00 00 00 00 00 00 00 00 00 03 00 00 00 00 00 00 00 00 00 00 00 00 00 00 00 00 00 00 00 00 00 00 00 00 00 00 00 00 00 00 00 00 00 00 00 00 02 00 01 25 00 00 00 00 03 03*,.y.T.[...@B.?....... .. …,,,,,,,,,,
0,1328,2:24.416.122,79.000 us,2 B,,SP,55,Write Transaction,00 00,..,,,,,,,,,,
0,1329,2:24.421.468,85.200 us,2 B,,SP,55,Read Transaction,00 00*,..,,,,,,,,,,
0,1330,2:24.436.132,79.000 us,2 B,,SP,55,Write Transaction,00 00,..,,,,,,,,,,
0,1331,2:24.441.478,82.000 us,2 B,,SP,55,Read Transaction,00 08*,..,,,,,,,,,,
0,1332,2:24.441.836,79.000 us,2 B,,SP,55,Write Transaction,12 01,..,,,,,,,,,,
0,1333,2:24.450.175,2.322.100 ms,92 B,,SP,55,Read Transaction,00 7E FD 50 02 58 01 B4 02 41 60 02 40 FC 1F FF FA 1F FF FC 20 00 08 20 00 07 02 02 DA 32 00 00 00 00 00 00 00 00 00 00 00 00 00 00 00 03 00 00 00 00 00 00 00 00 00 00 00 00 00 00 00 00 00 00 00 00 00 00 00 00 00 00 00 00 00 00 00 00 00 00 00 00 02 00 01 25 00 00 00 00 03 03*,.~.P.X...A`.@....... .. …,,,,,,,,,,
0,1334,2:24.456.148,79.100 us,2 B,,SP,55,Write Transaction,00 00,..,,,,,,,,,,
0,1335,2:24.461.496,85.200 us,2 B,,SP,55,Read Transaction,00 00*,..,,,,,,,,,,
0,1336,2:24.476.164,79.000 us,2 B,,SP,55,Write Transaction,00 00,..,,,,,,,,,,
0,1337,2:24.481.510,81.900 us,2 B,,SP,55,Read Transaction,00 08*,..,,,,,,,,,,
0,1338,2:24.481.868,79.000 us,2 B,,SP,55,Write Transaction,12 01,..,,,,,,,,,,
0,1339,2:24.490.208,2.321.200 ms,92 B,,SP,55,Read Transaction,00 83 FD 57 02 51 01 BF 02 42 64 02 42 01 1F FF F9 1F FF FA 20 00 0D 20 00 0B 02 02 DA 32 00 00 00 00 00 00 00 00 00 00 00 00 00 00 00 03 00 00 00 00 00 00 00 00 00 00 00 00 00 00 00 00 00 00 00 00 00 00 00 00 00 00 00 00 00 00 00 00 00 00 00 00 02 00 01 25 00 00 00 00 03 03*,...W.Q...Bd.B....... .. …,,,,,,,,,,
0,1340,2:24.496.195,79.000 us,2 B,,SP,55,Write Transaction,00 00,..,,,,,,,,,,
0,1341,2:24.501.539,85.200 us,2 B,,SP,55,Read Transaction,00 00*,..,,,,,,,,,,
0,1342,2:24.516.202,79.000 us,2 B,,SP,55,Write Transaction,00 00,..,,,,,,,,,,
0,1343,2:24.521.549,82.000 us,2 B,,SP,55,Read Transaction,00 00*,..,,,,,,,,,,
0,1344,2:24.536.224,79.000 us,2 B,,SP,55,Write Transaction,00 00,..,,,,,,,,,,
0,1345,2:24.541.569,85.200 us,2 B,,SP,55,Read Transaction,00 00*,..,,,,,,,,,,
0,1346,2:24.556.249,79.100 us,2 B,,SP,55,Write Transaction,00 00,..,,,,,,,,,,
0,1347,2:24.561.595,81.900 us,2 B,,SP,55,Read Transaction,00 08*,..,,,,,,,,,,
0,1348,2:24.561.954,79.000 us,2 B,,SP,55,Write Transaction,12 01,..,,,,,,,,,,
0,1349,2:24.570.293,2.324.300 ms,92 B,,SP,55,Read Transaction,00 88 FD 4F 02 56 01 BA 02 43 80 02 43 20 1F FF F9 1F FF FB 20 00 0D 20 00 0E 02 02 DA 32 00 00 00 00 00 00 00 00 00 00 00 00 00 00 00 03 00 00 00 00 00 00 00 00 00 00 00 00 00 00 00 00 00 00 00 00 00 00 00 00 00 00 00 00 00 00 00 00 00 00 00 00 02 00 01 25 00 00 00 00 03 03*,...O.V...C..C ...... .. …,,,,,,,,,,
0,1350,2:24.576.270,79.100 us,2 B,,SP,55,Write Transaction,00 00,..,,,,,,,,,,
0,1351,2:24.581.625,85.300 us,2 B,,SP,55,Read Transaction,00 00*,..,,,,,,,,,,
0,1352,2:24.596.280,79.000 us,2 B,,SP,55,Write Transaction,00 00,..,,,,,,,,,,
0,1353,2:24.601.624,81.900 us,2 B,,SP,55,Read Transaction,00 08*,..,,,,,,,,,,
0,1354,2:24.601.982,78.900 us,2 B,,SP,55,Write Transaction,12 01,..,,,,,,,,,,
0,1355,2:24.610.321,2.322.200 ms,92 B,,SP,55,Read Transaction,00 8D FD 54 02 5A 01 B9 02 44 99 02 44 37 1F FF F9 1F FF FA 20 00 05 20 00 03 02 02 DA 32 00 00 00 00 00 00 00 00 00 00 00 00 00 00 00 03 00 00 00 00 00 00 00 00 00 00 00 00 00 00 00 00 00 00 00 00 00 00 00 00 00 00 00 00 00 00 00 00 00 00 00 00 02 00 01 25 00 00 00 00 03 03*,...T.Z...D..D7...... .. …,,,,,,,,,,
0,1356,2:24.616.051,79.000 us,2 B,,SP,55,Write Transaction,00 00,..,,,,,,,,,,
0,1357,2:24.621.397,85.200 us,2 B,,SP,55,Read Transaction,00 00*,..,,,,,,,,,,
0,1358,2:24.636.074,79.000 us,2 B,,SP,55,Write Transaction,00 00,..,,,,,,,,,,
0,1359,2:24.641.422,82.000 us,2 B,,SP,55,Read Transaction,00 08*,..,,,,,,,,,,
0,1360,2:24.641.782,79.000 us,2 B,,SP,55,Write Transaction,12 01,..,,,,,,,,,,
0,1361,2:24.650.121,2.320.500 ms,92 B,,SP,55,Read Transaction,00 92 FD 51 02 54 01 B6 02 45 90 02 45 32 1F FF FA 1F FF FC 20 00 0A 20 00 0A 02 02 DA 32 00 00 00 00 00 00 00 00 00 00 00 00 00 00 00 03 00 00 00 00 00 00 00 00 00 00 00 00 00 00 00 00 00 00 00 00 00 00 00 00 00 00 00 00 00 00 00 00 00 00 00 00 02 00 01 25 00 00 00 00 03 03*,...Q.T...E..E2...... .. …,,,,,,,,,,
0,1362,2:24.656.098,79.200 us,2 B,,SP,55,Write Transaction,00 00,..,,,,,,,,,,
0,1363,2:24.661.447,85.200 us,2 B,,SP,55,Read Transaction,00 00*,..,,,,,,,,,,
0,1364,2:24.676.111,79.000 us,2 B,,SP,55,Write Transaction,00 00,..,,,,,,,,,,
0,1365,2:24.681.456,82.100 us,2 B,,SP,55,Read Transaction,00 08*,..,,,,,,,,,,
0,1366,2:24.681.814,79.100 us,2 B,,SP,55,Write Transaction,12 01,..,,,,,,,,,,
0,1367,2:24.690.159,2.322.300 ms,92 B,,SP,55,Read Transaction,00 97 FD 52 02 50 01 B6 02 44 93 02 44 2C 1F FF FF 10 00 01 20 00 04 20 00 04 02 02 DA 32 00 00 00 00 00 00 00 00 00 00 00 00 00 00 00 03 00 00 00 00 00 00 00 00 00 00 00 00 00 00 00 00 00 00 00 00 00 00 00 00 00 00 00 00 00 00 00 00 00 00 00 00 02 00 01 25 00 00 00 00 03 03*,...R.P...D..D,...... .. …,,,,,,,,,
0,1368,2:24.696.137,79.000 us,2 B,,SP,55,Write Transaction,00 00,..,,,,,,,,,,
0,1369,2:24.701.483,85.300 us,2 B,,SP,55,Read Transaction,00 00*,..,,,,,,,,,,
0,1370,2:24.716.152,79.100 us,2 B,,SP,55,Write Transaction,00 00,..,,,,,,,,,,
0,1371,2:24.721.498,82.000 us,2 B,,SP,55,Read Transaction,00 00*,..,,,,,,,,,,
0,1372,2:24.736.173,79.000 us,2 B,,SP,55,Write Transaction,00 00,..,,,,,,,,,,
0,1373,2:24.741.518,85.200 us,2 B,,SP,55,Read Transaction,00 00*,..,,,,,,,,,,
0,1374,2:24.756.179,79.000 us,2 B,,SP,55,Write Transaction,00 00,..,,,,,,,,,,
0,1375,2:24.761.525,82.100 us,2 B,,SP,55,Read Transaction,00 08*,..,,,,,,,,,,
0,1376,2:24.761.884,79.100 us,2 B,,SP,55,Write Transaction,12 01,..,,,,,,,,,,
0,1377,2:24.770.222,2.321.900 ms,92 B,,SP,55,Read Transaction,00 9C FD 5C 02 55 01 B9 02 41 A9 02 41 48 1F FF F8 1F FF F8 20 00 07 20 00 07 02 02 DA 32 00 00 00 00 00 00 00 00 00 00 00 00 00 00 00 03 00 00 00 00 00 00 00 00 00 00 00 00 00 00 00 00 00 00 00 00 00 00 00 00 00 00 00 00 00 00 00 00 00 00 00 00 02 00 01 25 00 00 00 00 03 03*,...\.U...A..AH...... .. …,,,,,,,,,,
0,1378,2:24.776.202,79.000 us,2 B,,SP,55,Write Transaction,00 00,..,,,,,,,,,,
0,1379,2:24.781.554,85.300 us,2 B,,SP,55,Read Transaction,00 00*,..,,,,,,,,,,
0,1380,2:24.796.214,79.100 us,2 B,,SP,55,Write Transaction,00 00,..,,,,,,,,,,
0,1381,2:24.801.560,81.900 us,2 B,,SP,55,Read Transaction,00 08*,..,,,,,,,,,,
0,1382,2:24.801.918,79.000 us,2 B,,SP,55,Write Transaction,12 01,..,,,,,,,,,,
0,1383,2:24.810.255,2.321.400 ms,92 B,,SP,55,Read Transaction,00 A1 FD 53 02 56 01 BB 02 3F 0B 02 3E A8 1F FF F8 1F FF F7 2F FF F6 2F FF F5 02 02 DA 32 00 00 00 00 00 00 00 00 00 00 00 00 00 00 00 03 00 00 00 00 00 00 00 00 00 00 00 00 00 00 00 00 00 00 00 00 00 00 00 00 00 00 00 00 00 00 00 00 00 00 00 00 02 00 01 25 00 00 00 00 03 03*,...S.V...?..>......./../…,,,,,,,,,,
0,1384,2:24.816.237,79.000 us,2 B,,SP,55,Write Transaction,00 00,..,,,,,,,,,,
0,1385,2:24.821.586,85.300 us,2 B,,SP,55,Read Transaction,00 00*,..,,,,,,,,,,
0,1386,2:24.836.268,79.000 us,2 B,,SP,55,Write Transaction,00 00,..,,,,,,,,,,
0,1387,2:24.841.612,81.900 us,2 B,,SP,55,Read Transaction,00 08*,..,,,,,,,,,,
0,1388,2:24.841.970,78.900 us,2 B,,SP,55,Write Transaction,12 01,..,,,,,,,,,,
0,1389,2:24.850.310,2.322.100 ms,92 B,,SP,55,Read Transaction,00 A6 FD 58 02 56 01 C1 02 3D 62 02 3D 01 1F FF FB 1F FF FC 20 00 0C 20 00 0D 02 02 DA 32 00 00 00 00 00 00 00 00 00 00 00 00 00 00 00 03 00 00 00 00 00 00 00 00 00 00 00 00 00 00 00 00 00 00 00 00 00 00 00 00 00 00 00 00 00 00 00 00 00 00 00 00 02 00 01 2D 00 00 00 00 03 03*,...X.V...=b.=....... .. …,,,,,,,,,,
0,1390,2:24.856.042,79.000 us,2 B,,SP,55,Write Transaction,00 00,..,,,,,,,,,,
0,1391,2:24.861.386,85.100 us,2 B,,SP,55,Read Transaction,00 00*,..,,,,,,,,,,
0,1392,2:24.876.050,79.100 us,2 B,,SP,55,Write Transaction,00 00,..,,,,,,,,,,
0,1393,2:24.881.395,81.900 us,2 B,,SP,55,Read Transaction,00 08*,..,,,,,,,,,,
0,1394,2:24.881.754,79.000 us,2 B,,SP,55,Write Transaction,12 01,..,,,,,,,,,,
0,1395,2:24.890.101,2.326.200 ms,92 B,,SP,55,Read Transaction,00 AB FD 58 02 57 01 BC 02 3C 65 02 3B FE 10 00 05 10 00 05 20 00 08 20 00 08 02 02 DA 32 00 00 00 00 00 00 00 00 00 00 00 00 00 00 00 03 00 00 00 00 00 00 00 00 00 00 00 00 00 00 00 00 00 00 00 00 00 00 00 00 00 00 00 00 00 00 00 00 00 00 00 00 02 00 01 2D 00 00 00 00 03 03*,...X.W...<e.;....... .. …,,,,,,,,,,
0,1396,2:24.896.078,79.100 us,2 B,,SP,55,Write Transaction,00 00,..,,,,,,,,,,
0,1397,2:24.901.424,85.200 us,2 B,,SP,55,Read Transaction,00 00*,..,,,,,,,,,,
0,1398,2:24.916.099,79.000 us,2 B,,SP,55,Write Transaction,00 00,..,,,,,,,,,,
0,1399,2:24.921.445,82.300 us,2 B,,SP,55,Read Transaction,00 00*,..,,,,,,,,,,
0,1400,2:24.936.107,79.000 us,2 B,,SP,55,Write Transaction,00 00,..,,,,,,,,,,
0,1401,2:24.941.453,85.200 us,2 B,,SP,55,Read Transaction,00 00*,..,,,,,,,,,,
0,1402,2:24.956.131,79.000 us,2 B,,SP,55,Write Transaction,00 00,..,,,,,,,,,,
0,1403,2:24.961.477,81.900 us,2 B,,SP,55,Read Transaction,00 08*,..,,,,,,,,,,
0,1404,2:24.961.836,79.000 us,2 B,,SP,55,Write Transaction,12 01,..,,,,,,,,,,
0,1405,2:24.970.173,2.322.300 ms,92 B,,SP,55,Read Transaction,00 B0 FD 57 02 5F 01 BB 02 3C 09 02 3B A5 1F FF F5 1F FF F3 20 00 0E 20 00 0F 02 02 DA 32 00 00 00 00 00 00 00 00 00 00 00 00 00 00 00 03 00 00 00 00 00 00 00 00 00 00 00 00 00 00 00 00 00 00 00 00 00 00 00 00 00 00 00 00 00 00 00 00 00 00 00 00 02 00 01 2D 00 00 00 00 03 03*,...W._...<..;....... .. …,,,,,,,,,,
0,1406,2:24.976.148,79.000 us,2 B,,SP,55,Write Transaction,00 00,..,,,,,,,,,,
0,1407,2:24.981.493,85.300 us,2 B,,SP,55,Read Transaction,00 00*,..,,,,,,,,,,
0,1408,2:24.996.157,79.000 us,2 B,,SP,55,Write Transaction,00 00,..,,,,,,,,,,
0,1409,2:25.001.505,81.900 us,2 B,,SP,55,Read Transaction,00 08*,..,,,,,,,,,,
0,1410,2:25.001.865,79.100 us,2 B,,SP,55,Write Transaction,12 01,..,,,,,,,,,,
0,1411,2:25.010.217,2.326.100 ms,92 B,,SP,55,Read Transaction,00 B5 FD 56 02 56 01 B7 02 3C 00 02 3B 9D 10 00 0E 10 00 0E 2F FF F5 2F FF F6 02 02 DA 32 00 00 00 00 00 00 00 00 00 00 00 00 00 00 00 03 00 00 00 00 00 00 00 00 00 00 00 00 00 00 00 00 00 00 00 00 00 00 00 00 00 00 00 00 00 00 00 00 00 00 00 00 02 00 01 2D 00 00 00 00 03 03*,...V.V...<..;......./../…,,,,,,,,,,
0,1412,2:25.016.187,79.100 us,2 B,,SP,55,Write Transaction,00 00,..,,,,,,,,,,
0,1413,2:25.021.535,85.200 us,2 B,,SP,55,Read Transaction,00 00*,..,,,,,,,,,,
0,1414,2:25.036.198,79.100 us,2 B,,SP,55,Write Transaction,00 00,..,,,,,,,,,,
0,1415,2:25.041.544,82.000 us,2 B,,SP,55,Read Transaction,00 08*,..,,,,,,,,,,
0,1416,2:25.041.901,79.100 us,2 B,,SP,55,Write Transaction,12 01,..,,,,,,,,,,
0,1417,2:25.050.243,2.325.200 ms,92 B,,SP,55,Read Transaction,00 BA FD 57 02 5C 01 BF 02 3C 60 02 3B FF 1F FF FE 1F FF FD 2F FF FE 2F FF FE 02 02 DA 32 00 00 00 00 00 00 00 00 00 00 00 00 00 00 00 03 00 00 00 00 00 00 00 00 00 00 00 00 00 00 00 00 00 00 00 00 00 00 00 00 00 00 00 00 00 00 00 00 00 00 00 00 02 00 01 2D 00 00 00 00 03 03*,...W.\...<`.;......./../…,,,,,,,,,,
0,1418,2:25.056.232,79.000 us,2 B,,SP,55,Write Transaction,00 00,..,,,,,,,,,,
0,1419,2:25.061.578,85.300 us,2 B,,SP,55,Read Transaction,00 00*,..,,,,,,,,,,
0,1420,2:25.076.248,79.100 us,2 B,,SP,55,Write Transaction,00 00,..,,,,,,,,,,
0,1421,2:25.081.602,82.100 us,2 B,,SP,55,Read Transaction,00 08*,..,,,,,,,,,,
0,1422,2:25.081.961,79.100 us,2 B,,SP,55,Write Transaction,12 01,..,,,,,,,,,,
0,1423,2:25.090.306,2.322.400 ms,92 B,,SP,55,Read Transaction,00 BF FD 55 02 55 01 BF 02 3D 06 02 3C A6 1F FF F7 1F FF F7 20 00 0B 20 00 09 02 02 D0 32 00 00 00 00 00 00 00 00 00 00 00 00 00 00 00 03 00 00 00 00 00 00 00 00 00 00 00 00 00 00 00 00 00 00 00 00 00 00 00 00 00 00 00 00 00 00 00 00 00 00 00 00 02 00 01 2D 00 00 00 00 03 03*,...U.U...=..<....... .. …,,,,,,,,,,
0,1424,2:25.096.259,79.000 us,2 B,,SP,55,Write Transaction,00 00,..,,,,,,,,,,
0,1425,2:25.101.605,85.100 us,2 B,,SP,55,Read Transaction,00 00*,..,,,,,,,,,,
0,1426,2:25.116.027,79.000 us,2 B,,SP,55,Write Transaction,00 00,..,,,,,,,,,,
0,1427,2:25.121.372,81.900 us,2 B,,SP,55,Read Transaction,00 00*,..,,,,,,,,,,
0,1428,2:25.136.050,79.100 us,2 B,,SP,55,Write Transaction,00 00,..,,,,,,,,,,
0,1429,2:25.141.395,85.200 us,2 B,,SP,55,Read Transaction,00 00*,..,,,,,,,,,,
0,1430,2:25.156.076,79.100 us,2 B,,SP,55,Write Transaction,00 00,..,,,,,,,,,,
0,1431,2:25.161.421,81.900 us,2 B,,SP,55,Read Transaction,00 08*,..,,,,,,,,,,
0,1432,2:25.161.779,79.000 us,2 B,,SP,55,Write Transaction,12 01,..,,,,,,,,,,
0,1433,2:25.170.119,2.322.300 ms,92 B,,SP,55,Read Transaction,00 C4 FD 51 02 58 01 BF 02 3D C9 02 3D 6D 1F FF F9 1F FF F7 2F FF FA 2F FF FB 02 02 D0 32 00 00 00 00 00 00 00 00 00 00 00 00 00 00 00 03 00 00 00 00 00 00 00 00 00 00 00 00 00 00 00 00 00 00 00 00 00 00 00 00 00 00 00 00 00 00 00 00 00 00 00 00 02 00 01 2D 00 00 00 00 03 03*,...Q.X...=..=m....../../…,,,,,,,,,,
0,1434,2:25.176.098,79.000 us,2 B,,SP,55,Write Transaction,00 00,..,,,,,,,,,,
0,1435,2:25.181.447,85.300 us,2 B,,SP,55,Read Transaction,00 00*,..,,,,,,,,,,
0,1436,2:25.196.104,79.000 us,2 B,,SP,55,Write Transaction,00 00,..,,,,,,,,,,
0,1437,2:25.201.448,82.000 us,2 B,,SP,55,Read Transaction,00 08*,..,,,,,,,,,,
0,1438,2:25.201.807,79.100 us,2 B,,SP,55,Write Transaction,12 01,..,,,,,,,,,,
0,1439,2:25.210.158,2.326.100 ms,92 B,,SP,55,Read Transaction,00 C9 FD 54 02 53 01 BB 02 3E BD 02 3E 5C 10 00 07 10 00 0A 2F FF F1 2F FF F4 02 02 D0 32 00 00 00 00 00 00 00 00 00 00 00 00 00 00 00 03 00 00 00 00 00 00 00 00 00 00 00 00 00 00 00 00 00 00 00 00 00 00 00 00 00 00 00 00 00 00 00 00 00 00 00 00 02 00 01 2D 00 00 00 00 03 03*,...T.S...>..>\....../../…,,,,,,,,,,
0,1440,2:25.216.128,79.000 us,2 B,,SP,55,Write Transaction,00 00,..,,,,,,,,,,
0,1441,2:25.221.475,85.200 us,2 B,,SP,55,Read Transaction,00 00*,..,,,,,,,,,,
0,1442,2:25.236.151,79.000 us,2 B,,SP,55,Write Transaction,00 00,..,,,,,,,,,,
0,1443,2:25.241.497,81.900 us,2 B,,SP,55,Read Transaction,00 08*,..,,,,,,,,,,
0,1444,2:25.241.855,79.100 us,2 B,,SP,55,Write Transaction,12 01,..,,,,,,,,,,
0,1445,2:25.250.195,2.321.700 ms,92 B,,SP,55,Read Transaction,00 CE FD 53 02 59 01 B7 02 3F CA 02 3F 66 1F FF F6 1F FF F6 2F FF F7 2F FF F8 02 02 D0 32 00 00 00 00 00 00 00 00 00 00 00 00 00 00 00 03 00 00 00 00 00 00 00 00 00 00 00 00 00 00 00 00 00 00 00 00 00 00 00 00 00 00 00 00 00 00 00 00 00 00 00 00 02 00 01 2D 00 00 00 00 03 03*,...S.Y...?..?f....../../…,,,,,,,,,,
0,1446,2:25.256.173,79.000 us,2 B,,SP,55,Write Transaction,00 00,..,,,,,,,,,,
0,1447,2:25.261.518,85.200 us,2 B,,SP,55,Read Transaction,00 00*,..,,,,,,,,,,
0,1448,2:25.276.177,78.900 us,2 B,,SP,55,Write Transaction,00 00,..,,,,,,,,,,
0,1449,2:25.281.522,82.000 us,2 B,,SP,55,Read Transaction,00 08*,..,,,,,,,,,,
0,1450,2:25.281.881,79.000 us,2 B,,SP,55,Write Transaction,12 01,..,,,,,,,,,,
0,1451,2:25.290.220,2.321.500 ms,92 B,,SP,55,Read Transaction,00 D3 FD 51 02 4E 01 BE 02 40 F0 02 40 8A 10 00 0A 10 00 09 2F FF FE 2F FF FB 02 02 D0 32 00 00 00 00 00 00 00 00 00 00 00 00 00 00 00 03 00 00 00 00 00 00 00 00 00 00 00 00 00 00 00 00 00 00 00 00 00 00 00 00 00 00 00 00 00 00 00 00 00 00 00 00 02 00 01 2D 00 00 00 00 03 03*,...Q.N...@..@......./../…,,,,,,,,,,
0,1452,2:25.296.209,79.000 us,2 B,,SP,55,Write Transaction,00 00,..,,,,,,,,,,
0,1453,2:25.301.553,85.200 us,2 B,,SP,55,Read Transaction,00 00*,..,,,,,,,,,,
0,1454,2:25.316.250,79.000 us,2 B,,SP,55,Write Transaction,00 00,..,,,,,,,,,,
0,1455,2:25.321.604,81.900 us,2 B,,SP,55,Read Transaction,00 00*,..,,,,,,,,,,
0,1456,2:25.336.239,78.900 us,2 B,,SP,55,Write Transaction,00 00,..,,,,,,,,,,
0,1457,2:25.341.581,85.200 us,2 B,,SP,55,Read Transaction,00 00*,..,,,,,,,,,,
0,1458,2:25.356.019,79.000 us,2 B,,SP,55,Write Transaction,00 00,..,,,,,,,,,,
0,1459,2:25.361.366,81.900 us,2 B,,SP,55,Read Transaction,00 08*,..,,,,,,,,,,
0,1460,2:25.361.726,79.000 us,2 B,,SP,55,Write Transaction,12 01,..,,,,,,,,,,
0,1461,2:25.370.064,2.322.100 ms,92 B,,SP,55,Read Transaction,00 D8 FD 51 02 55 01 B5 02 42 21 02 41 BF 1F FF FD 1F FF FE 20 00 11 20 00 10 02 02 D0 32 00 00 00 00 00 00 00 00 00 00 00 00 00 00 00 03 00 00 00 00 00 00 00 00 00 00 00 00 00 00 00 00 00 00 00 00 00 00 00 00 00 00 00 00 00 00 00 00 00 00 00 00 02 00 01 2D 00 00 00 00 03 03*,...Q.U...B!.A....... .. …,,,,,,,,,,
0,1462,2:25.376.032,79.100 us,2 B,,SP,55,Write Transaction,00 00,..,,,,,,,,,,
0,1463,2:25.381.384,85.300 us,2 B,,SP,55,Read Transaction,00 00*,..,,,,,,,,,,
0,1464,2:25.396.046,79.000 us,2 B,,SP,55,Write Transaction,00 00,..,,,,,,,,,,
0,1465,2:25.401.392,81.900 us,2 B,,SP,55,Read Transaction,00 08*,..,,,,,,,,,,
0,1466,2:25.401.750,79.000 us,2 B,,SP,55,Write Transaction,12 01,..,,,,,,,,,,
0,1467,2:25.410.090,2.322.000 ms,92 B,,SP,55,Read Transaction,00 DD FD 52 02 5B 01 B9 02 43 6E 02 43 07 10 00 10 10 00 0C 2F FF F3 2F FF F1 02 02 D0 32 20 99 19 00 00 00 00 00 00 00 00 00 00 00 00 03 00 00 00 00 00 00 00 00 00 00 00 00 00 00 00 00 00 00 00 00 00 00 00 00 00 00 00 00 00 00 00 00 00 00 00 00 02 00 01 2D 00 00 00 00 03 03*,...R.[...Cn.C......./../…,,,,,,,,,,
0,1468,2:25.416.071,79.000 us,2 B,,SP,55,Write Transaction,00 00,..,,,,,,,,,,
0,1469,2:25.421.415,85.200 us,2 B,,SP,55,Read Transaction,00 00*,..,,,,,,,,,,
0,1470,2:25.436.088,78.900 us,2 B,,SP,55,Write Transaction,00 00,..,,,,,,,,,,
0,1471,2:25.441.432,81.900 us,2 B,,SP,55,Read Transaction,00 08*,..,,,,,,,,,,
0,1472,2:25.441.790,79.100 us,2 B,,SP,55,Write Transaction,12 01,..,,,,,,,,,,
0,1473,2:25.450.138,2.325.100 ms,92 B,,SP,55,Read Transaction,00 E2 FD 57 02 53 01 BF 02 44 7F 02 44 1D 1F FF FB 1F FF FC 2F FF F8 2F FF F8 02 02 D0 32 00 00 00 00 00 00 00 00 00 00 00 00 00 00 00 03 00 00 00 00 00 00 00 00 00 00 00 00 00 00 00 00 00 00 00 00 00 00 00 00 00 00 00 00 00 00 00 00 00 00 00 00 02 00 01 2D 00 00 00 00 03 03*,...W.S...D..D......./../…,,,,,,,,,,
0,1474,2:25.456.108,78.900 us,2 B,,SP,55,Write Transaction,00 00,..,,,,,,,,,,
0,1475,2:25.461.454,85.300 us,2 B,,SP,55,Read Transaction,00 00*,..,,,,,,,,,,
0,1476,2:25.476.131,79.000 us,2 B,,SP,55,Write Transaction,00 00,..,,,,,,,,,,
0,1477,2:25.481.476,81.900 us,2 B,,SP,55,Read Transaction,00 08*,..,,,,,,,,,,
0,1478,2:25.481.834,79.000 us,2 B,,SP,55,Write Transaction,12 01,..,,,,,,,,,,
0,1479,2:25.490.174,2.322.000 ms,92 B,,SP,55,Read Transaction,00 E7 FD 51 02 54 01 B8 02 45 01 02 44 9C 1F FF F8 1F FF F9 20 00 06 20 00 06 02 02 D0 32 00 00 00 00 00 00 00 00 00 00 00 00 00 00 00 03 00 00 00 00 00 00 00 00 00 00 00 00 00 00 00 00 00 00 00 00 00 00 00 00 00 00 00 00 00 00 00 00 00 00 00 00 02 00 01 2D 00 00 00 00 03 03*,...Q.T...E..D....... .. …,,,,,,,,,,
0,1480,2:25.496.143,79.000 us,2 B,,SP,55,Write Transaction,00 00,..,,,,,,,,,,
0,1481,2:25.501.489,85.300 us,2 B,,SP,55,Read Transaction,00 00*,..,,,,,,,,,,
0,1482,2:25.516.166,79.000 us,2 B,,SP,55,Write Transaction,00 00,..,,,,,,,,,,
0,1483,2:25.521.513,82.100 us,2 B,,SP,55,Read Transaction,00 00*,..,,,,,,,,,,
0,1484,2:25.536.187,79.000 us,2 B,,SP,55,Write Transaction,00 00,..,,,,,,,,,,
0,1485,2:25.541.534,85.300 us,2 B,,SP,55,Read Transaction,00 00*,..,,,,,,,,,,
0,1486,2:25.556.203,79.100 us,2 B,,SP,55,Write Transaction,00 00,..,,,,,,,,,,
0,1487,2:25.561.549,81.900 us,2 B,,SP,55,Read Transaction,00 08*,..,,,,,,,,,,
0,1488,2:25.561.907,79.000 us,2 B,,SP,55,Write Transaction,12 01,..,,,,,,,,,,
0,1489,2:25.570.246,2.322.400 ms,92 B,,SP,55,Read Transaction,00 EC FD 50 02 52 01 BF 02 42 CF 02 42 6F 1F FF F7 1F FF F8 20 00 06 20 00 06 02 02 D0 32 00 00 00 00 00 00 00 00 00 00 00 00 00 00 00 03 00 00 00 00 00 00 00 00 00 00 00 00 00 00 00 00 00 00 00 00 00 00 00 00 00 00 00 00 00 00 00 00 00 00 00 00 02 00 01 2D 00 00 00 00 03 03*,...P.R...B..Bo...... .. …,,,,,,,,,,
0,1490,2:25.576.225,79.000 us,2 B,,SP,55,Write Transaction,00 00,..,,,,,,,,,,
0,1491,2:25.581.571,85.200 us,2 B,,SP,55,Read Transaction,00 00*,..,,,,,,,,,,
0,1492,2:25.596.234,79.000 us,2 B,,SP,55,Write Transaction,00 00,..,,,,,,,,,,
0,1493,2:25.601.580,82.000 us,2 B,,SP,55,Read Transaction,00 08*,..,,,,,,,,,,
0,1494,2:25.601.939,79.000 us,2 B,,SP,55,Write Transaction,12 01,..,,,,,,,,,,
0,1495,2:25.610.277,2.321.700 ms,92 B,,SP,55,Read Transaction,00 F1 FD 50 02 55 01 BC 02 40 1C 02 3F B7 1F FF F6 1F FF F8 20 00 05 20 00 04 02 02 D0 32 00 00 00 00 00 00 00 00 00 00 00 00 00 00 00 03 00 00 00 00 00 00 00 00 00 00 00 00 00 00 00 00 00 00 00 00 00 00 00 00 00 00 00 00 00 00 00 00 00 00 00 00 02 00 01 2D 00 00 00 00 03 03*,...P.U...@..?....... .. …,,,,,,,,,,
0,1496,2:25.616.013,79.000 us,2 B,,SP,55,Write Transaction,00 00,..,,,,,,,,,,
0,1497,2:25.621.359,85.200 us,2 B,,SP,55,Read Transaction,00 00*,..,,,,,,,,,,
0,1498,2:25.636.044,79.100 us,2 B,,SP,55,Write Transaction,00 00,..,,,,,,,,,,
0,1499,2:25.641.391,82.000 us,2 B,,SP,55,Read Transaction,00 08*,..,,,,,,,,,,
0,1500,2:25.641.750,79.000 us,2 B,,SP,55,Write Transaction,12 01,..,,,,,,,,,,
0,1501,2:25.650.089,2.322.200 ms,92 B,,SP,55,Read Transaction,00 F6 FD 51 02 4D 01 B9 02 3E 5E 02 3D FE 1F FF F7 1F FF F8 2F FF FA 2F FF FA 02 02 D0 32 00 00 00 00 00 00 00 00 00 00 00 00 00 00 00 03 00 00 00 00 00 00 00 00 00 00 00 00 00 00 00 00 00 00 00 00 00 00 00 00 00 00 00 00 00 00 00 00 00 00 00 00 02 00 01 2D 00 00 00 00 03 03*,...Q.M...>^.=......./../…,,,,,,,,,,
0,1502,2:25.656.052,79.000 us,2 B,,SP,55,Write Transaction,00 00,..,,,,,,,,,,
0,1503,2:25.661.398,85.200 us,2 B,,SP,55,Read Transaction,00 00*,..,,,,,,,,,,
0,1504,2:25.676.079,79.000 us,2 B,,SP,55,Write Transaction,00 00,..,,,,,,,,,,
0,1505,2:25.681.425,81.900 us,2 B,,SP,55,Read Transaction,00 08*,..,,,,,,,,,,
0,1506,2:25.681.784,79.000 us,2 B,,SP,55,Write Transaction,12 01,..,,,,,,,,,,
0,1507,2:25.690.125,2.322.500 ms,92 B,,SP,55,Read Transaction,00 FB FD 50 02 5B 01 BB 02 3D 27 02 3C CA 10 00 05 10 00 03 2F FF F2 2F FF F1 02 02 D0 32 00 00 00 00 00 00 00 00 00 00 00 00 00 00 00 03 00 00 00 00 00 00 00 00 00 00 00 00 00 00 00 00 00 00 00 00 00 00 00 00 00 00 00 00 00 00 00 00 00 00 00 00 02 00 01 36 00 00 00 00 03 03*,...P.[...='.<......./../…,,,,,,,,,,
0,1508,2:25.696.090,79.000 us,2 B,,SP,55,Write Transaction,00 00,..,,,,,,,,,,
0,1509,2:25.701.436,85.200 us,2 B,,SP,55,Read Transaction,00 00*,..,,,,,,,,,,
0,1510,2:25.716.100,79.200 us,2 B,,SP,55,Write Transaction,00 00,..,,,,,,,,,,
0,1511,2:25.721.451,81.900 us,2 B,,SP,55,Read Transaction,00 00*,..,,,,,,,,,,
0,1512,2:25.736.122,79.100 us,2 B,,SP,55,Write Transaction,00 00,..,,,,,,,,,,
0,1513,2:25.741.471,85.300 us,2 B,,SP,55,Read Transaction,00 00*,..,,,,,,,,,,
0,1514,2:25.756.147,79.100 us,2 B,,SP,55,Write Transaction,00 00,..,,,,,,,,,,
0,1515,2:25.761.499,82.100 us,2 B,,SP,55,Read Transaction,00 08*,..,,,,,,,,,,
0,1516,2:25.761.858,79.200 us,2 B,,SP,55,Write Transaction,12 01,..,,,,,,,,,,
0,1517,2:25.770.205,2.322.500 ms,92 B,,SP,55,Read Transaction,00 00 FD 52 02 55 01 B8 02 3C CE 02 3C 6B 1F FF EE 1F FF F0 2F FF FD 2F FF FD 02 02 D0 32 00 00 00 00 00 00 00 00 00 00 00 00 00 00 00 03 00 00 00 00 00 00 00 00 00 00 00 00 00 00 00 00 00 00 00 00 00 00 00 00 00 00 00 00 00 00 00 00 00 00 00 00 02 00 01 36 00 00 00 00 04 04*,...R.U...<..<k....../../…,,,,,,,,,,
0,1518,2:25.776.171,79.000 us,2 B,,SP,55,Write Transaction,00 00,..,,,,,,,,,,
0,1519,2:25.781.517,85.300 us,2 B,,SP,55,Read Transaction,00 00*,..,,,,,,,,,,
0,1520,2:25.796.181,79.000 us,2 B,,SP,55,Write Transaction,00 00,..,,,,,,,,,,
0,1521,2:25.801.524,81.900 us,2 B,,SP,55,Read Transaction,00 08*,..,,,,,,,,,,
0,1522,2:25.801.881,79.000 us,2 B,,SP,55,Write Transaction,12 01,..,,,,,,,,,,
0,1523,2:25.810.225,2.322.600 ms,92 B,,SP,55,Read Transaction,00 05 FD 51 02 53 01 BA 02 3D 00 02 3C A1 10 00 04 10 00 04 20 00 00 2F FF FF 02 02 D0 32 00 00 00 00 00 00 00 00 00 00 00 00 00 00 00 03 00 00 00 00 00 00 00 00 00 00 00 00 00 00 00 00 00 00 00 00 00 00 00 00 00 00 00 00 00 00 00 00 00 00 00 00 02 00 01 36 00 00 00 00 04 04*,...Q.S...=..<....... ../…,,,,,,,,,,
0,1524,2:25.816.210,79.100 us,2 B,,SP,55,Write Transaction,00 00,..,,,,,,,,,,
0,1525,2:25.821.555,85.200 us,2 B,,SP,55,Read Transaction,00 00*,..,,,,,,,,,,
0,1526,2:25.836.215,78.900 us,2 B,,SP,55,Write Transaction,00 00,..,,,,,,,,,,
0,1527,2:25.841.559,81.900 us,2 B,,SP,55,Read Transaction,00 08*,..,,,,,,,,,,
0,1528,2:25.841.917,78.900 us,2 B,,SP,55,Write Transaction,12 01,..,,,,,,,,,,
0,1529,2:25.850.255,2.322.500 ms,92 B,,SP,55,Read Transaction,00 0A FD 53 02 54 01 BC 02 3D 4C 02 3C ED 1F FF FE 1F FF FF 20 00 02 20 00 03 02 02 D0 32 00 00 00 00 00 00 00 00 00 00 00 00 00 00 00 03 00 00 00 00 00 00 00 00 00 00 00 00 00 00 00 00 00 00 00 00 00 00 00 00 00 00 00 00 00 00 00 00 00 00 00 00 02 00 01 36 00 00 00 00 04 04*,...S.T...=L.<....... .. …,,,,,,,,,,
0,1530,2:25.856.003,79.100 us,2 B,,SP,55,Write Transaction,00 00,..,,,,,,,,,,
0,1531,2:25.861.349,85.200 us,2 B,,SP,55,Read Transaction,00 00*,..,,,,,,,,,,
0,1532,2:25.876.011,79.000 us,2 B,,SP,55,Write Transaction,00 00,..,,,,,,,,,,
0,1533,2:25.881.356,81.900 us,2 B,,SP,55,Read Transaction,00 08*,..,,,,,,,,,,
0,1534,2:25.881.715,79.000 us,2 B,,SP,55,Write Transaction,12 01,..,,,,,,,,,,
0,1535,2:25.890.054,2.322.200 ms,92 B,,SP,55,Read Transaction,00 0F FD 4F 02 5C 01 B7 02 3D E7 02 3D 88 1F FF EF 1F FF EE 2F FF F7 2F FF F7 02 02 D0 32 00 00 00 00 00 00 00 00 00 00 00 00 00 00 00 03 00 00 00 00 00 00 00 00 00 00 00 00 00 00 00 00 00 00 00 00 00 00 00 00 00 00 00 00 00 00 00 00 00 00 00 00 02 00 01 36 00 00 00 00 04 04*,...O.\...=..=......./../…,,,,,,,,,,
0,1536,2:25.896.032,79.000 us,2 B,,SP,55,Write Transaction,00 00,..,,,,,,,,,,
0,1537,2:25.901.381,85.300 us,2 B,,SP,55,Read Transaction,00 00*,..,,,,,,,,,,
0,1538,2:25.916.048,79.000 us,2 B,,SP,55,Write Transaction,00 00,..,,,,,,,,,,
0,1539,2:25.921.394,82.000 us,2 B,,SP,55,Read Transaction,00 00*,..,,,,,,,,,,
0,1540,2:25.936.075,79.000 us,2 B,,SP,55,Write Transaction,00 00,..,,,,,,,,,,
0,1541,2:25.941.421,85.300 us,2 B,,SP,55,Read Transaction,00 00*,..,,,,,,,,,,
0,1542,2:25.956.093,79.000 us,2 B,,SP,55,Write Transaction,00 00,..,,,,,,,,,,
0,1543,2:25.961.436,82.000 us,2 B,,SP,55,Read Transaction,00 08*,..,,,,,,,,,,
0,1544,2:25.961.795,79.000 us,2 B,,SP,55,Write Transaction,12 01,..,,,,,,,,,,
0,1545,2:25.970.136,2.322.300 ms,92 B,,SP,55,Read Transaction,00 14 FD 4E 02 57 01 B7 02 3E C0 02 3E 64 1F FF F6 1F FF F6 20 00 03 20 00 03 02 02 D0 32 00 00 00 00 00 00 00 00 00 00 00 00 00 00 00 03 00 00 00 00 00 00 00 00 00 00 00 00 00 00 00 00 00 00 00 00 00 00 00 00 00 00 00 00 00 00 00 00 00 00 00 00 02 00 01 36 00 00 00 00 04 04*,...N.W...>..>d...... .. …,,,,,,,,,,
0,1546,2:25.976.114,79.000 us,2 B,,SP,55,Write Transaction,00 00,..,,,,,,,,,,
0,1547,2:25.981.460,85.300 us,2 B,,SP,55,Read Transaction,00 00*,..,,,,,,,,,,
0,1548,2:25.996.126,79.000 us,2 B,,SP,55,Write Transaction,00 00,..,,,,,,,,,,
0,1549,2:26.001.472,82.000 us,2 B,,SP,55,Read Transaction,00 08*,..,,,,,,,,,,
0,1550,2:26.001.831,79.000 us,2 B,,SP,55,Write Transaction,12 01,..,,,,,,,,,,
0,1551,2:26.010.171,2.325.900 ms,92 B,,SP,55,Read Transaction,00 19 FD 53 02 53 01 B0 02 3F D3 02 3F 71 1F FF F4 1F FF F3 2F FF FA 2F FF FC 02 02 D0 32 00 00 00 00 00 00 00 00 00 00 00 00 00 00 00 03 00 00 00 00 00 00 00 00 00 00 00 00 00 00 00 00 00 00 00 00 00 00 00 00 00 00 00 00 00 00 00 00 00 00 00 00 02 00 01 36 00 00 00 00 04 04*,...S.S...?..?q....../../…,,,,,,,,,,
0,1552,2:26.016.142,79.000 us,2 B,,SP,55,Write Transaction,00 00,..,,,,,,,,,,
0,1553,2:26.021.486,85.200 us,2 B,,SP,55,Read Transaction,00 00*,..,,,,,,,,,,
0,1554,2:26.036.160,79.200 us,2 B,,SP,55,Write Transaction,00 00,..,,,,,,,,,,
0,1555,2:26.041.510,82.000 us,2 B,,SP,55,Read Transaction,00 08*,..,,,,,,,,,,
0,1556,2:26.041.869,79.000 us,2 B,,SP,55,Write Transaction,12 01,..,,,,,,,,,,
0,1557,2:26.050.207,2.322.200 ms,92 B,,SP,55,Read Transaction,00 1E FD 50 02 51 01 BC 02 41 1A 02 40 BA 1F FF FD 1F FF FD 20 00 0D 20 00 0B 02 02 D0 32 00 00 00 00 00 00 00 00 00 00 00 00 00 00 00 03 00 00 00 00 00 00 00 00 00 00 00 00 00 00 00 00 00 00 00 00 00 00 00 00 00 00 00 00 00 00 00 00 00 00 00 00 02 00 01 36 00 00 00 00 04 04*,...P.Q...A..@....... .. …,,,,,,,,,,
0,1558,2:26.056.186,79.000 us,2 B,,SP,55,Write Transaction,00 00,..,,,,,,,,,,
0,1559,2:26.061.532,85.200 us,2 B,,SP,55,Read Transaction,00 00*,..,,,,,,,,,,
0,1560,2:26.076.194,79.000 us,2 B,,SP,55,Write Transaction,00 00,..,,,,,,,,,,
0,1561,2:26.081.541,81.900 us,2 B,,SP,55,Read Transaction,00 08*,..,,,,,,,,,,
0,1562,2:26.081.900,79.000 us,2 B,,SP,55,Write Transaction,12 01,..,,,,,,,,,,
0,1563,2:26.090.245,2.321.800 ms,92 B,,SP,55,Read Transaction,00 23 FD 52 02 51 01 BF 02 42 4A 02 41 E7 10 00 05 10 00 03 20 00 01 20 00 00 02 02 D0 32 00 00 00 00 00 00 00 00 00 00 00 00 00 00 00 03 00 00 00 00 00 00 00 00 00 00 00 00 00 00 00 00 00 00 00 00 00 00 00 00 00 00 00 00 00 00 00 00 00 00 00 00 02 00 01 36 00 00 00 00 04 04*,.#.R.Q...BJ.A....... .. …,,,,,,,,,,
0,1564,2:26.096.227,79.000 us,2 B,,SP,55,Write Transaction,00 00,..,,,,,,,,,,
0,1565,2:26.101.574,85.300 us,2 B,,SP,55,Read Transaction,00 00*,..,,,,,,,,,,
0,1566,2:26.115.985,79.100 us,2 B,,SP,55,Write Transaction,00 00,..,,,,,,,,,,
0,1567,2:26.121.330,81.900 us,2 B,,SP,55,Read Transaction,00 00*,..,,,,,,,,,,
0,1568,2:26.136.014,79.000 us,2 B,,SP,55,Write Transaction,00 00,..,,,,,,,,,,
0,1569,2:26.141.363,85.200 us,2 B,,SP,55,Read Transaction,00 00*,..,,,,,,,,,,
0,1570,2:26.156.023,79.000 us,2 B,,SP,55,Write Transaction,00 00,..,,,,,,,,,,
0,1571,2:26.161.367,81.900 us,2 B,,SP,55,Read Transaction,00 08*,..,,,,,,,,,,
0,1572,2:26.161.725,79.000 us,2 B,,SP,55,Write Transaction,12 01,..,,,,,,,,,,
0,1573,2:26.170.069,2.322.100 ms,92 B,,SP,55,Read Transaction,00 28 FD 56 02 55 01 BA 02 43 81 02 43 1F 10 00 0A 10 00 09 2F FF FE 2F FF FD 02 02 D0 32 00 00 00 00 00 00 00 00 00 00 00 00 00 00 00 03 00 00 00 00 00 00 00 00 00 00 00 00 00 00 00 00 00 00 00 00 00 00 00 00 00 00 00 00 00 00 00 00 00 00 00 00 02 00 01 36 00 00 00 00 04 04*,.(.V.U...C..C......./../…,,,,,,,,,,
0,1574,2:26.176.054,79.000 us,2 B,,SP,55,Write Transaction,00 00,..,,,,,,,,,,
0,1575,2:26.181.400,85.200 us,2 B,,SP,55,Read Transaction,00 00*,..,,,,,,,,,,
0,1576,2:26.196.066,79.000 us,2 B,,SP,55,Write Transaction,00 00,..,,,,,,,,,,
0,1577,2:26.201.412,81.900 us,2 B,,SP,55,Read Transaction,00 08*,..,,,,,,,,,,
0,1578,2:26.201.769,79.000 us,2 B,,SP,55,Write Transaction,12 01,..,,,,,,,,,,
0,1579,2:26.210.108,2.321.400 ms,92 B,,SP,55,Read Transaction,00 2D FD 53 02 50 01 B7 02 44 A7 02 44 43 1F FF F6 1F FF F6 2F FF FA 2F FF F9 02 02 D0 32 00 00 00 00 00 00 00 00 00 00 00 00 00 00 00 03 00 00 00 00 00 00 00 00 00 00 00 00 00 00 00 00 00 00 00 00 00 00 00 00 00 00 00 00 00 00 00 00 00 00 00 00 02 00 01 36 00 00 00 00 04 04*,.-.S.P...D..DC....../../…,,,,,,,,,,
0,1580,2:26.216.126,79.100 us,2 B,,SP,55,Write Transaction,00 00,..,,,,,,,,,,
0,1581,2:26.221.472,85.200 us,2 B,,SP,55,Read Transaction,00 00*,..,,,,,,,,,,
0,1582,2:26.236.106,79.100 us,2 B,,SP,55,Write Transaction,00 00,..,,,,,,,,,,
0,1583,2:26.241.452,81.900 us,2 B,,SP,55,Read Transaction,00 08*,..,,,,,,,,,,
0,1584,2:26.241.810,79.000 us,2 B,,SP,55,Write Transaction,12 01,..,,,,,,,,,,
0,1585,2:26.250.150,2.322.200 ms,92 B,,SP,55,Read Transaction,00 32 FD 52 02 59 01 BC 02 45 F1 02 45 8B 1F FF FD 1F FF FC 20 00 02 20 00 03 02 02 D0 32 20 89 32 00 00 00 00 00 00 00 00 00 00 00 00 03 00 00 00 00 00 00 00 00 00 00 00 00 00 00 00 00 00 00 00 00 00 00 00 00 00 00 00 00 00 00 00 00 00 00 00 00 02 00 01 36 00 00 00 00 04 04*,.2.R.Y...E..E....... .. …,,,,,,,,,,
0,1586,2:26.256.129,79.000 us,2 B,,SP,55,Write Transaction,00 00,..,,,,,,,,,,
0,1587,2:26.261.476,85.200 us,2 B,,SP,55,Read Transaction,00 00*,..,,,,,,,,,,
0,1588,2:26.276.146,79.100 us,2 B,,SP,55,Write Transaction,00 00,..,,,,,,,,,,
0,1589,2:26.281.501,82.000 us,2 B,,SP,55,Read Transaction,00 08*,..,,,,,,,,,,
0,1590,2:26.281.859,79.200 us,2 B,,SP,55,Write Transaction,12 01,..,,,,,,,,,,
0,1591,2:26.290.203,2.322.200 ms,92 B,,SP,55,Read Transaction,00 37 FD 51 02 54 01 BA 02 46 FD 02 46 99 1F FF FF 1F FF FE 20 00 14 20 00 13 02 02 D0 32 00 00 00 00 00 00 00 00 00 00 00 00 00 00 00 03 00 00 00 00 00 00 00 00 00 00 00 00 00 00 00 00 00 00 00 00 00 00 00 00 00 00 00 00 00 00 00 00 00 00 00 00 02 00 01 36 00 00 00 00 04 04*,.7.Q.T...F..F....... .. …,,,,,,,,,,
0,1592,2:26.296.167,79.000 us,2 B,,SP,55,Write Transaction,00 00,..,,,,,,,,,,
0,1593,2:26.301.513,85.200 us,2 B,,SP,55,Read Transaction,00 00*,..,,,,,,,,,,
0,1594,2:26.316.189,79.000 us,2 B,,SP,55,Write Transaction,00 00,..,,,,,,,,,,
0,1595,2:26.321.535,82.000 us,2 B,,SP,55,Read Transaction,00 00*,..,,,,,,,,,,
0,1596,2:26.336.198,79.000 us,2 B,,SP,55,Write Transaction,00 00,..,,,,,,,,,,
0,1597,2:26.341.544,85.200 us,2 B,,SP,55,Read Transaction,00 00*,..,,,,,,,,,,
0,1598,2:26.355.982,79.100 us,2 B,,SP,55,Write Transaction,00 00,..,,,,,,,,,,
0,1599,2:26.361.329,82.000 us,2 B,,SP,55,Read Transaction,00 08*,..,,,,,,,,,,
0,1600,2:26.361.688,79.000 us,2 B,,SP,55,Write Transaction,12 01,..,,,,,,,,,,
0,1601,2:26.370.029,2.322.700 ms,92 B,,SP,55,Read Transaction,00 3C FD 50 02 54 01 B8 02 45 A3 02 45 3F 1F FF F7 1F FF F6 2F FF FD 2F FF FC 02 02 D0 32 00 00 00 00 00 00 00 00 00 00 00 00 00 00 00 03 00 00 00 00 00 00 00 00 00 00 00 00 00 00 00 00 00 00 00 00 00 00 00 00 00 00 00 00 00 00 00 00 00 00 00 00 02 00 01 36 00 00 00 00 04 04*,.<.P.T...E..E?....../../…,,,,,,,,,,
0,1602,2:26.375.993,79.100 us,2 B,,SP,55,Write Transaction,00 00,..,,,,,,,,,,
0,1603,2:26.381.339,85.200 us,2 B,,SP,55,Read Transaction,00 00*,..,,,,,,,,,,
0,1604,2:26.396.017,79.000 us,2 B,,SP,55,Write Transaction,00 00,..,,,,,,,,,,
0,1605,2:26.401.363,81.900 us,2 B,,SP,55,Read Transaction,00 08*,..,,,,,,,,,,
0,1606,2:26.401.722,79.000 us,2 B,,SP,55,Write Transaction,12 01,..,,,,,,,,,,
0,1607,2:26.410.062,2.321.200 ms,92 B,,SP,55,Read Transaction,00 41 FD 55 02 51 01 BA 02 42 FA 02 42 98 10 00 09 10 00 09 20 00 06 20 00 0A 02 02 D0 32 00 00 00 00 00 00 00 00 00 00 00 00 00 00 00 03 00 00 00 00 00 00 00 00 00 00 00 00 00 00 00 00 00 00 00 00 00 00 00 00 00 00 00 00 00 00 00 00 00 00 00 00 02 00 01 36 00 00 00 00 04 04*,.A.U.Q...B..B....... .. …,,,,,,,,,,
0,1608,2:26.416.040,79.000 us,2 B,,SP,55,Write Transaction,00 00,..,,,,,,,,,,
0,1609,2:26.421.386,85.200 us,2 B,,SP,55,Read Transaction,00 00*,..,,,,,,,,,,
0,1610,2:26.436.051,79.000 us,2 B,,SP,55,Write Transaction,00 00,..,,,,,,,,,,
0,1611,2:26.441.415,81.900 us,2 B,,SP,55,Read Transaction,00 08*,..,,,,,,,,,,
0,1612,2:26.441.776,79.000 us,2 B,,SP,55,Write Transaction,12 01,..,,,,,,,,,,
0,1613,2:26.450.116,2.322.100 ms,92 B,,SP,55,Read Transaction,00 46 FD 51 02 5C 01 BB 02 41 5C 02 40 FA 1F FF F8 1F FF F8 2F FF F6 2F FF F6 02 02 D0 32 00 00 00 00 00 00 00 00 00 00 00 00 00 00 00 03 00 00 00 00 00 00 00 00 00 00 00 00 00 00 00 00 00 00 00 00 00 00 00 00 00 00 00 00 00 00 00 00 00 00 00 00 02 00 01 36 00 00 00 00 04 04*,.F.Q.\...A\.@......./../…,,,,,,,,,,
0,1614,2:26.456.066,79.100 us,2 B,,SP,55,Write Transaction,00 00,..,,,,,,,,,,
0,1615,2:26.461.413,85.200 us,2 B,,SP,55,Read Transaction,00 00*,..,,,,,,,,,,
0,1616,2:26.476.091,79.200 us,2 B,,SP,55,Write Transaction,00 00,..,,,,,,,,,,
0,1617,2:26.481.444,82.100 us,2 B,,SP,55,Read Transaction,00 08*,..,,,,,,,,,,
0,1618,2:26.481.802,79.200 us,2 B,,SP,55,Write Transaction,12 01,..,,,,,,,,,,
0,1619,2:26.490.146,2.322.500 ms,92 B,,SP,55,Read Transaction,00 4B FD 4F 02 53 01 B9 02 3F E6 02 3F 84 10 00 05 10 00 05 20 00 0A 20 00 0A 02 02 D0 32 00 00 00 00 00 00 00 00 00 00 00 00 00 00 00 03 00 00 00 00 00 00 00 00 00 00 00 00 00 00 00 00 00 00 00 00 00 00 00 00 00 00 00 00 00 00 00 00 00 00 00 00 02 00 01 3E 00 00 00 00 04 04*,.K.O.S...?..?....... .. …,,,,,,,,,,
0,1620,2:26.496.115,79.000 us,2 B,,SP,55,Write Transaction,00 00,..,,,,,,,,,,
0,1621,2:26.501.461,85.200 us,2 B,,SP,55,Read Transaction,00 00*,..,,,,,,,,,,
0,1622,2:26.516.124,79.000 us,2 B,,SP,55,Write Transaction,00 00,..,,,,,,,,,,
0,1623,2:26.521.470,82.000 us,2 B,,SP,55,Read Transaction,00 00*,..,,,,,,,,,,
0,1624,2:26.536.155,79.000 us,2 B,,SP,55,Write Transaction,00 00,..,,,,,,,,,,
0,1625,2:26.541.501,85.200 us,2 B,,SP,55,Read Transaction,00 00*,..,,,,,,,,,,
0,1626,2:26.556.161,79.100 us,2 B,,SP,55,Write Transaction,00 00,..,,,,,,,,,,
0,1627,2:26.561.507,82.100 us,2 B,,SP,55,Read Transaction,00 08*,..,,,,,,,,,,
0,1628,2:26.561.866,79.100 us,2 B,,SP,55,Write Transaction,12 01,..,,,,,,,,,,
0,1629,2:26.570.209,2.321.300 ms,92 B,,SP,55,Read Transaction,00 50 FD 4D 02 53 01 B5 02 3F 8E 02 3F 2B 1F FF FB 1F FF FA 20 00 0B 20 00 0B 02 02 D0 32 00 00 00 00 00 00 00 00 00 00 00 00 00 00 00 03 00 00 00 00 00 00 00 00 00 00 00 00 00 00 00 00 00 00 00 00 00 00 00 00 00 00 00 00 00 00 00 00 00 00 00 00 02 00 01 3E 00 00 00 00 04 04*,.P.M.S...?..?+...... .. …,,,,,,,,,,
0,1630,2:26.576.191,79.100 us,2 B,,SP,55,Write Transaction,00 00,..,,,,,,,,,,
0,1631,2:26.581.537,85.200 us,2 B,,SP,55,Read Transaction,00 00*,..,,,,,,,,,,
0,1632,2:26.596.195,79.000 us,2 B,,SP,55,Write Transaction,00 00,..,,,,,,,,,,
0,1633,2:26.601.539,82.000 us,2 B,,SP,55,Read Transaction,00 08*,..,,,,,,,,,,
0,1634,2:26.601.897,79.000 us,2 B,,SP,55,Write Transaction,12 01,..,,,,,,,,,,
0,1635,2:26.610.237,2.322.100 ms,92 B,,SP,55,Read Transaction,00 55 FD 50 02 5B 01 B7 02 3F DB 02 3F 7C 10 00 0B 10 00 0C 20 00 07 20 00 06 02 02 D0 32 00 00 00 00 00 00 00 00 00 00 00 00 00 00 00 03 00 00 00 00 00 00 00 00 00 00 00 00 00 00 00 00 00 00 00 00 00 00 00 00 00 00 00 00 00 00 00 00 00 00 00 00 02 00 01 3E 00 00 00 00 04 04*,.U.P.[...?..?|...... .. …,,,,,,,,,,
0,1636,2:26.615.970,79.000 us,2 B,,SP,55,Write Transaction,00 00,..,,,,,,,,,,
0,1637,2:26.621.319,85.200 us,2 B,,SP,55,Read Transaction,00 00*,..,,,,,,,,,,
0,1638,2:26.636.002,79.000 us,2 B,,SP,55,Write Transaction,00 00,..,,,,,,,,,,
0,1639,2:26.641.354,82.100 us,2 B,,SP,55,Read Transaction,00 08*,..,,,,,,,,,,
0,1640,2:26.641.713,79.200 us,2 B,,SP,55,Write Transaction,12 01,..,,,,,,,,,,
0,1641,2:26.650.055,2.322.300 ms,92 B,,SP,55,Read Transaction,00 5A FD 53 02 5A 01 B4 02 40 62 02 40 00 1F FF F9 1F FF FB 20 00 05 20 00 05 02 02 D0 32 00 00 00 00 00 00 00 00 00 00 00 00 00 00 00 03 00 00 00 00 00 00 00 00 00 00 00 00 00 00 00 00 00 00 00 00 00 00 00 00 00 00 00 00 00 00 00 00 00 00 00 00 02 00 01 3E 00 00 00 00 04 04*,.Z.S.Z...@b.@....... .. …,,,,,,,,,,
0,1642,2:26.656.017,79.000 us,2 B,,SP,55,Write Transaction,00 00,..,,,,,,,,,,
0,1643,2:26.661.366,85.400 us,2 B,,SP,55,Read Transaction,00 00*,..,,,,,,,,,,
0,1644,2:26.676.060,79.000 us,2 B,,SP,55,Write Transaction,00 00,..,,,,,,,,,,
0,1645,2:26.681.411,82.100 us,2 B,,SP,55,Read Transaction,00 08*,..,,,,,,,,,,
0,1646,2:26.681.770,79.100 us,2 B,,SP,55,Write Transaction,12 01,..,,,,,,,,,,
0,1647,2:26.690.112,2.322.100 ms,92 B,,SP,55,Read Transaction,00 5F FD 50 02 5B 01 BA 02 41 15 02 40 AD 10 00 03 10 00 03 20 00 02 20 00 04 02 02 D0 32 00 00 00 00 00 00 00 00 00 00 00 00 00 00 00 03 00 00 00 00 00 00 00 00 00 00 00 00 00 00 00 00 00 00 00 00 00 00 00 00 00 00 00 00 00 00 00 00 00 00 00 00 02 00 01 3E 00 00 00 00 04 04*,._.P.[...A..@....... .. …,,,,,,,,,,
0,1648,2:26.696.060,79.000 us,2 B,,SP,55,Write Transaction,00 00,..,,,,,,,,,,
0,1649,2:26.701.405,85.200 us,2 B,,SP,55,Read Transaction,00 00*,..,,,,,,,,,,
0,1650,2:26.716.078,79.000 us,2 B,,SP,55,Write Transaction,00 00,..,,,,,,,,,,
0,1651,2:26.721.424,81.900 us,2 B,,SP,55,Read Transaction,00 00*,..,,,,,,,,,,
0,1652,2:26.736.089,79.000 us,2 B,,SP,55,Write Transaction,00 00,..,,,,,,,,,,
0,1653,2:26.741.436,85.200 us,2 B,,SP,55,Read Transaction,00 00*,..,,,,,,,,,,
0,1654,2:26.756.101,79.000 us,2 B,,SP,55,Write Transaction,00 00,..,,,,,,,,,,
0,1655,2:26.761.448,81.900 us,2 B,,SP,55,Read Transaction,00 08*,..,,,,,,,,,,
0,1656,2:26.761.806,79.100 us,2 B,,SP,55,Write Transaction,12 01,..,,,,,,,,,,
0,1657,2:26.770.145,2.322.500 ms,92 B,,SP,55,Read Transaction,00 64 FD 55 02 54 01 B6 02 41 F5 02 41 91 1F FF FE 1F FF FF 20 00 0D 20 00 0C 02 02 D0 32 00 00 00 00 00 00 00 00 00 00 00 00 00 00 00 03 00 00 00 00 00 00 00 00 00 00 00 00 00 00 00 00 00 00 00 00 00 00 00 00 00 00 00 00 00 00 00 00 00 00 00 00 02 00 01 3E 00 00 00 00 04 04*,.d.U.T...A..A....... .. …,,,,,,,,,,
0,1658,2:26.776.125,79.100 us,2 B,,SP,55,Write Transaction,00 00,..,,,,,,,,,,
0,1659,2:26.781.472,85.400 us,2 B,,SP,55,Read Transaction,00 00*,..,,,,,,,,,,
0,1660,2:26.796.135,78.900 us,2 B,,SP,55,Write Transaction,00 00,..,,,,,,,,,,
0,1661,2:26.801.484,81.900 us,2 B,,SP,55,Read Transaction,00 08*,..,,,,,,,,,,
0,1662,2:26.801.844,79.000 us,2 B,,SP,55,Write Transaction,12 01,..,,,,,,,,,,
0,1663,2:26.810.184,2.322.400 ms,92 B,,SP,55,Read Transaction,00 69 FD 52 02 5B 01 B4 02 43 35 02 42 D2 10 00 06 10 00 05 20 00 00 20 00 00 02 02 D0 32 00 00 00 00 00 00 00 00 00 00 00 00 00 00 00 03 00 00 00 00 00 00 00 00 00 00 00 00 00 00 00 00 00 00 00 00 00 00 00 00 00 00 00 00 00 00 00 00 00 00 00 00 02 00 01 3E 00 00 00 00 04 04*,.i.R.[...C5.B....... .. …,,,,,,,,,,
0,1664,2:26.816.167,79.000 us,2 B,,SP,55,Write Transaction,00 00,..,,,,,,,,,,
0,1665,2:26.821.512,85.200 us,2 B,,SP,55,Read Transaction,00 00*,..,,,,,,,,,,
0,1666,2:26.836.185,79.100 us,2 B,,SP,55,Write Transaction,00 00,..,,,,,,,,,,
0,1667,2:26.841.531,81.900 us,2 B,,SP,55,Read Transaction,00 08*,..,,,,,,,,,,
0,1668,2:26.841.889,79.200 us,2 B,,SP,55,Write Transaction,12 01,..,,,,,,,,,,
0,1669,2:26.850.245,2.325.800 ms,92 B,,SP,55,Read Transaction,00 6E FD 52 02 5C 01 B4 02 44 80 02 44 1E 10 00 07 10 00 06 20 00 04 20 00 04 02 02 D0 32 00 00 00 00 00 00 00 00 00 00 00 00 00 00 00 03 00 00 00 00 00 00 00 00 00 00 00 00 00 00 00 00 00 00 00 00 00 00 00 00 00 00 00 00 00 00 00 00 00 00 00 00 02 00 01 3E 00 00 00 00 04 04*,.n.R.\...D..D....... .. …,,,,,,,,,,
0,1670,2:26.855.963,79.100 us,2 B,,SP,55,Write Transaction,00 00,..,,,,,,,,,,
0,1671,2:26.861.318,85.300 us,2 B,,SP,55,Read Transaction,00 00*,..,,,,,,,,,,
0,1672,2:26.875.973,79.200 us,2 B,,SP,55,Write Transaction,00 00,..,,,,,,,,,,
0,1673,2:26.881.327,82.100 us,2 B,,SP,55,Read Transaction,00 08*,..,,,,,,,,,,
0,1674,2:26.881.685,79.100 us,2 B,,SP,55,Write Transaction,12 01,..,,,,,,,,,,
0,1675,2:26.890.040,2.322.000 ms,92 B,,SP,55,Read Transaction,00 73 FD 51 02 59 01 AD 02 45 DB 02 45 79 10 00 0B 10 00 0A 20 00 0F 20 00 0F 02 02 D0 32 00 00 00 00 00 00 00 00 00 00 00 00 00 00 00 03 00 00 00 00 00 00 00 00 00 00 00 00 00 00 00 00 00 00 00 00 00 00 00 00 00 00 00 00 00 00 00 00 00 00 00 00 02 00 01 3E 00 00 00 00 04 04*,.s.Q.Y...E..Ey...... .. …,,,,,,,,,,
0,1676,2:26.896.000,79.100 us,2 B,,SP,55,Write Transaction,00 00,..,,,,,,,,,,
0,1677,2:26.901.346,85.300 us,2 B,,SP,55,Read Transaction,00 00*,..,,,,,,,,,,
0,1678,2:26.916.004,79.000 us,2 B,,SP,55,Write Transaction,00 00,..,,,,,,,,,,
0,1679,2:26.921.349,82.000 us,2 B,,SP,55,Read Transaction,00 00*,..,,,,,,,,,,
0,1680,2:26.936.040,79.000 us,2 B,,SP,55,Write Transaction,00 00,..,,,,,,,,,,
0,1681,2:26.941.384,85.200 us,2 B,,SP,55,Read Transaction,00 08*,..,,,,,,,,,,
0,1682,2:26.941.746,79.100 us,2 B,,SP,55,Write Transaction,12 01,..,,,,,,,,,,
0,1683,2:26.950.085,2.322.500 ms,92 B,,SP,55,Read Transaction,00 78 FD 52 02 5D 01 B2 02 47 14 02 46 B1 1F FF FD 1F FF FE 2F FF F9 2F FF F7 02 02 D0 32 00 00 00 00 00 00 00 00 00 00 00 00 00 00 00 03 00 00 00 00 00 00 00 00 00 00 00 00 00 00 00 00 00 00 00 00 00 00 00 00 00 00 00 00 00 00 00 00 00 00 00 00 02 00 01 3E 00 00 00 00 04 04*,.x.R.]...G..F......./../…,,,,,,,,,,
0,1684,2:26.956.044,79.000 us,2 B,,SP,55,Write Transaction,00 00,..,,,,,,,,,,
0,1685,2:26.961.391,81.900 us,2 B,,SP,55,Read Transaction,00 00*,..,,,,,,,,,,
0,1686,2:26.976.074,79.000 us,2 B,,SP,55,Write Transaction,00 00,..,,,,,,,,,,
0,1687,2:26.981.420,85.200 us,2 B,,SP,55,Read Transaction,00 00*,..,,,,,,,,,,
0,1688,2:26.996.083,79.000 us,2 B,,SP,55,Write Transaction,00 00,..,,,,,,,,,,
0,1689,2:27.001.429,81.900 us,2 B,,SP,55,Read Transaction,00 08*,..,,,,,,,,,,
0,1690,2:27.001.788,79.000 us,2 B,,SP,55,Write Transaction,12 01,..,,,,,,,,,,
0,1691,2:27.010.125,2.322.300 ms,92 B,,SP,55,Read Transaction,00 7D FD 4F 02 56 01 B5 02 48 5A 02 47 F9 1F FF E9 1F FF EB 2F FF FD 2F FF FD 02 02 D0 32 00 00 00 00 00 00 00 00 00 00 00 00 00 00 00 03 00 00 00 00 00 00 00 00 00 00 00 00 00 00 00 00 00 00 00 00 00 00 00 00 00 00 00 00 00 00 00 00 00 00 00 00 02 00 01 3E 00 00 00 00 04 04*,.}.O.V...HZ.G......./../…,,,,,,,,,,
0,1692,2:27.016.114,79.000 us,2 B,,SP,55,Write Transaction,00 00,..,,,,,,,,,,
0,1693,2:27.021.461,85.200 us,2 B,,SP,55,Read Transaction,00 00*,..,,,,,,,,,,
0,1694,2:27.036.123,79.000 us,2 B,,SP,55,Write Transaction,00 00,..,,,,,,,,,,
0,1695,2:27.041.469,81.900 us,2 B,,SP,55,Read Transaction,00 08*,..,,,,,,,,,,
0,1696,2:27.041.827,79.000 us,2 B,,SP,55,Write Transaction,12 01,..,,,,,,,,,,
0,1697,2:27.050.167,2.322.300 ms,92 B,,SP,55,Read Transaction,00 82 FD 4F 02 58 01 BC 02 49 A5 02 49 43 10 00 01 1F FF FF 2F FF F8 2F FF F9 02 02 D0 32 20 A1 64 00 00 00 00 00 00 00 00 00 00 00 00 03 00 00 00 00 00 00 00 00 00 00 00 00 00 00 00 00 00 00 00 00 00 00 00 00 00 00 00 00 00 00 00 00 00 00 00 00 02 00 01 3E 00 00 00 00 04 04*,...O.X...I..IC....../../…,,,,,,,,,,
0,1698,2:27.056.146,79.000 us,2 B,,SP,55,Write Transaction,00 00,..,,,,,,,,,,
0,1699,2:27.061.493,85.200 us,2 B,,SP,55,Read Transaction,00 00*,..,,,,,,,,,,
0,1700,2:27.076.163,79.000 us,2 B,,SP,55,Write Transaction,00 00,..,,,,,,,,,,
0,1701,2:27.081.509,81.900 us,2 B,,SP,55,Read Transaction,00 08*,..,,,,,,,,,,
0,1702,2:27.081.868,79.000 us,2 B,,SP,55,Write Transaction,12 01,..,,,,,,,,,,
0,1703,2:27.090.207,2.321.700 ms,92 B,,SP,55,Read Transaction,00 87 FD 4D 02 5B 01 B0 02 4B 00 02 4A 9F 10 00 01 1F FF FF 2F FF F6 2F FF F2 02 02 D0 32 00 00 00 00 00 00 00 00 00 00 00 00 00 00 00 03 00 00 00 00 00 00 00 00 00 00 00 00 00 00 00 00 00 00 00 00 00 00 00 00 00 00 00 00 00 00 00 00 00 00 00 00 02 00 01 3E 00 00 00 00 04 04*,...M.[...K..J......./../…,,,,,,,,,,
0,1704,2:27.096.181,79.000 us,2 B,,SP,55,Write Transaction,00 00,..,,,,,,,,,,
0,1705,2:27.101.530,85.200 us,2 B,,SP,55,Read Transaction,00 00*,..,,,,,,,,,,
0,1706,2:27.115.964,79.100 us,2 B,,SP,55,Write Transaction,00 00,..,,,,,,,,,,
0,1707,2:27.121.321,82.000 us,2 B,,SP,55,Read Transaction,00 00*,..,,,,,,,,,,
0,1708,2:27.135.978,79.000 us,2 B,,SP,55,Write Transaction,00 00,..,,,,,,,,,,
0,1709,2:27.141.323,85.200 us,2 B,,SP,55,Read Transaction,00 08*,..,,,,,,,,,,
0,1710,2:27.141.685,79.100 us,2 B,,SP,55,Write Transaction,12 01,..,,,,,,,,,,
0,1711,2:27.150.024,2.322.300 ms,92 B,,SP,55,Read Transaction,00 8C FD 4E 02 56 01 B2 02 4A C0 02 4A 5D 1F FF FA 1F FF FA 20 00 0C 20 00 0A 02 02 D0 32 00 00 00 00 00 00 00 00 00 00 00 00 00 00 00 03 00 00 00 00 00 00 00 00 00 00 00 00 00 00 00 00 00 00 00 00 00 00 00 00 00 00 00 00 00 00 00 00 00 00 00 00 02 00 01 3E 00 00 00 00 04 04*,...N.V...J..J]...... .. …,,,,,,,,,,
0,1712,2:27.155.995,79.000 us,2 B,,SP,55,Write Transaction,00 00,..,,,,,,,,,,
0,1713,2:27.161.345,81.900 us,2 B,,SP,55,Read Transaction,00 00*,..,,,,,,,,,,
0,1714,2:27.176.016,79.000 us,2 B,,SP,55,Write Transaction,00 00,..,,,,,,,,,,
0,1715,2:27.181.362,85.200 us,2 B,,SP,55,Read Transaction,00 08*,..,,,,,,,,,,
0,1716,2:27.181.723,79.100 us,2 B,,SP,55,Write Transaction,12 01,..,,,,,,,,,,
0,1717,2:27.190.065,2.322.200 ms,92 B,,SP,55,Read Transaction,00 91 FD 4E 02 54 01 B2 02 48 7A 02 48 16 10 00 0A 10 00 0A 20 00 07 20 00 08 02 02 D0 32 00 00 00 00 00 00 00 00 00 00 00 00 00 00 00 03 00 00 00 00 00 00 00 00 00 00 00 00 00 00 00 00 00 00 00 00 00 00 00 00 00 00 00 00 00 00 00 00 00 00 00 00 02 00 01 3E 00 00 00 00 04 04*,...N.T...Hz.H....... .. …,,,,,,,,,,
0,1718,2:27.196.036,79.000 us,2 B,,SP,55,Write Transaction,00 00,..,,,,,,,,,,
0,1719,2:27.201.384,82.000 us,2 B,,SP,55,Read Transaction,00 00*,..,,,,,,,,,,
0,1720,2:27.216.050,79.000 us,2 B,,SP,55,Write Transaction,00 00,..,,,,,,,,,,
0,1721,2:27.221.397,85.200 us,2 B,,SP,55,Read Transaction,00 00*,..,,,,,,,,,,
0,1722,2:27.236.060,79.100 us,2 B,,SP,55,Write Transaction,00 00,..,,,,,,,,,,
0,1723,2:27.241.405,81.900 us,2 B,,SP,55,Read Transaction,00 08*,..,,,,,,,,,,
0,1724,2:27.241.763,79.000 us,2 B,,SP,55,Write Transaction,12 01,..,,,,,,,,,,
0,1725,2:27.250.104,2.322.200 ms,92 B,,SP,55,Read Transaction,00 96 FD 4E 02 52 01 AD 02 46 85 02 46 25 1F FF FB 1F FF FA 20 00 0F 20 00 11 02 02 D0 32 00 00 00 00 00 00 00 00 00 00 00 00 00 00 00 03 00 00 00 00 00 00 00 00 00 00 00 00 00 00 00 00 00 00 00 00 00 00 00 00 00 00 00 00 00 00 00 00 00 00 00 00 02 00 01 3E 00 00 00 00 04 04*,...N.R...F..F%...... .. …,,,,,,,,,,
0,1726,2:27.256.084,79.000 us,2 B,,SP,55,Write Transaction,00 00,..,,,,,,,,,,
0,1727,2:27.261.430,85.200 us,2 B,,SP,55,Read Transaction,00 00*,..,,,,,,,,,,
0,1728,2:27.276.108,78.900 us,2 B,,SP,55,Write Transaction,00 00,..,,,,,,,,,,
0,1729,2:27.281.452,81.900 us,2 B,,SP,55,Read Transaction,00 08*,..,,,,,,,,,,
0,1730,2:27.281.809,79.000 us,2 B,,SP,55,Write Transaction,12 01,..,,,,,,,,,,
0,1731,2:27.290.149,2.322.100 ms,92 B,,SP,55,Read Transaction,00 9B FD 50 02 56 01 B0 02 45 37 02 44 D7 10 00 11 10 00 10 2F FF F6 2F FF F5 02 02 D0 32 00 00 00 00 00 00 00 00 00 00 00 00 00 00 00 03 00 00 00 00 00 00 00 00 00 00 00 00 00 00 00 00 00 00 00 00 00 00 00 00 00 00 00 00 00 00 00 00 00 00 00 00 02 00 01 42 00 00 00 00 04 04*,...P.V...E7.D......./../…,,,,,,,,,,
0,1732,2:27.296.135,79.000 us,2 B,,SP,55,Write Transaction,00 00,..,,,,,,,,,,
0,1733,2:27.301.490,85.300 us,2 B,,SP,55,Read Transaction,00 00*,..,,,,,,,,,,
0,1734,2:27.316.140,79.000 us,2 B,,SP,55,Write Transaction,00 00,..,,,,,,,,,,
0,1735,2:27.321.484,81.900 us,2 B,,SP,55,Read Transaction,00 00*,..,,,,,,,,,,
0,1736,2:27.336.160,79.100 us,2 B,,SP,55,Write Transaction,00 00,..,,,,,,,,,,
0,1737,2:27.341.507,85.200 us,2 B,,SP,55,Read Transaction,00 08*,..,,,,,,,,,,
0,1738,2:27.341.869,79.000 us,2 B,,SP,55,Write Transaction,12 01,..,,,,,,,,,,
0,1739,2:27.350.208,2.322.100 ms,92 B,,SP,55,Read Transaction,00 A0 FD 4F 02 58 01 B7 02 44 8C 02 44 25 10 00 06 10 00 08 2F FF F8 2F FF F9 02 02 D0 32 00 00 00 00 00 00 00 00 00 00 00 00 00 00 00 03 00 00 00 00 00 00 00 00 00 00 00 00 00 00 00 00 00 00 00 00 00 00 00 00 00 00 00 00 00 00 00 00 00 00 00 00 02 00 01 42 00 00 00 00 04 04*,...O.X...D..D%....../../…,,,,,,,,,,
0,1740,2:27.355.942,79.000 us,2 B,,SP,55,Write Transaction,00 00,..,,,,,,,,,,
0,1741,2:27.361.288,82.000 us,2 B,,SP,55,Read Transaction,00 00*,..,,,,,,,,,,
0,1742,2:27.375.952,79.100 us,2 B,,SP,55,Write Transaction,00 00,..,,,,,,,,,,
0,1743,2:27.381.297,85.400 us,2 B,,SP,55,Read Transaction,00 08*,..,,,,,,,,,,
0,1744,2:27.381.659,79.200 us,2 B,,SP,55,Write Transaction,12 01,..,,,,,,,,,,
0,1745,2:27.390.014,2.325.800 ms,92 B,,SP,55,Read Transaction,00 A5 FD 50 02 56 01 B1 02 44 C0 02 44 5F 10 00 00 1F FF FF 20 00 03 20 00 01 02 02 D0 32 00 00 00 00 00 00 00 00 00 00 00 00 00 00 00 03 00 00 00 00 00 00 00 00 00 00 00 00 00 00 00 00 00 00 00 00 00 00 00 00 00 00 00 00 00 00 00 00 00 00 00 00 02 00 01 42 00 00 00 00 04 04*,...P.V...D..D_...... .. …,,,,,,,,,,
0,1746,2:27.395.979,79.100 us,2 B,,SP,55,Write Transaction,00 00,..,,,,,,,,,,
0,1747,2:27.401.324,81.900 us,2 B,,SP,55,Read Transaction,00 00*,..,,,,,,,,,,
0,1748,2:27.415.987,79.000 us,2 B,,SP,55,Write Transaction,00 00,..,,,,,,,,,,
0,1749,2:27.421.333,85.200 us,2 B,,SP,55,Read Transaction,00 00*,..,,,,,,,,,,
0,1750,2:27.436.014,79.000 us,2 B,,SP,55,Write Transaction,00 00,..,,,,,,,,,,
0,1751,2:27.441.361,82.000 us,2 B,,SP,55,Read Transaction,00 08*,..,,,,,,,,,,
0,1752,2:27.441.719,79.100 us,2 B,,SP,55,Write Transaction,12 01,..,,,,,,,,,,
0,1753,2:27.450.058,2.324.800 ms,92 B,,SP,55,Read Transaction,00 AA FD 4D 02 5D 01 AF 02 45 24 02 44 BB 10 00 0D 10 00 0E 2F FF F1 2F FF F0 02 02 D0 32 00 00 00 00 00 00 00 00 00 00 00 00 00 00 00 03 00 00 00 00 00 00 00 00 00 00 00 00 00 00 00 00 00 00 00 00 00 00 00 00 00 00 00 00 00 00 00 00 00 00 00 00 02 00 01 42 00 00 00 00 04 04*,...M.]...E$.D......./../…,,,,,,,,,,
0,1754,2:27.456.023,79.100 us,2 B,,SP,55,Write Transaction,00 00,..,,,,,,,,,,
0,1755,2:27.461.378,85.400 us,2 B,,SP,55,Read Transaction,00 00*,..,,,,,,,,,,
0,1756,2:27.476.045,79.000 us,2 B,,SP,55,Write Transaction,00 00,..,,,,,,,,,,
0,1757,2:27.481.390,82.000 us,2 B,,SP,55,Read Transaction,00 08*,..,,,,,,,,,,
0,1758,2:27.481.749,79.100 us,2 B,,SP,55,Write Transaction,12 01,..,,,,,,,,,,
0,1759,2:27.490.088,2.321.200 ms,92 B,,SP,55,Read Transaction,00 AF FD 4D 02 54 01 B5 02 45 CE 02 45 6E 1F FF F1 1F FF F1 2F FF F0 2F FF F1 02 02 D0 32 00 00 00 00 00 00 00 00 00 00 00 00 00 00 00 03 00 00 00 00 00 00 00 00 00 00 00 00 00 00 00 00 00 00 00 00 00 00 00 00 00 00 00 00 00 00 00 00 00 00 00 00 02 00 01 42 00 00 00 00 04 04*,...M.T...E..En....../../…,,,,,,,,,,
0,1760,2:27.496.063,79.000 us,2 B,,SP,55,Write Transaction,00 00,..,,,,,,,,,,
0,1761,2:27.501.406,85.200 us,2 B,,SP,55,Read Transaction,00 00*,..,,,,,,,,,,
0,1762,2:27.516.086,79.000 us,2 B,,SP,55,Write Transaction,00 00,..,,,,,,,,,,
0,1763,2:27.521.440,81.900 us,2 B,,SP,55,Read Transaction,00 00*,..,,,,,,,,,,
0,1764,2:27.536.111,79.000 us,2 B,,SP,55,Write Transaction,00 00,..,,,,,,,,,,
0,1765,2:27.541.456,85.200 us,2 B,,SP,55,Read Transaction,00 08*,..,,,,,,,,,,
0,1766,2:27.541.819,79.000 us,2 B,,SP,55,Write Transaction,12 01,..,,,,,,,,,,
0,1767,2:27.550.158,2.322.400 ms,92 B,,SP,55,Read Transaction,00 B4 FD 4D 02 58 01 AE 02 46 85 02 46 23 10 00 11 10 00 13 2F FF FD 2F FF FA 02 02 D0 32 00 00 00 00 00 00 00 00 00 00 00 00 00 00 00 03 00 00 00 00 00 00 00 00 00 00 00 00 00 00 00 00 00 00 00 00 00 00 00 00 00 00 00 00 00 00 00 00 00 00 00 00 02 00 01 42 00 00 00 00 04 04*,...M.X...F..F#....../../…,,,,,,,,,,
0,1768,2:27.556.132,79.000 us,2 B,,SP,55,Write Transaction,00 00,..,,,,,,,,,,
0,1769,2:27.561.477,81.900 us,2 B,,SP,55,Read Transaction,00 00*,..,,,,,,,,,,
0,1770,2:27.576.141,79.100 us,2 B,,SP,55,Write Transaction,00 00,..,,,,,,,,,,
0,1771,2:27.581.487,85.100 us,2 B,,SP,55,Read Transaction,00 08*,..,,,,,,,,,,
0,1772,2:27.581.849,79.000 us,2 B,,SP,55,Write Transaction,12 01,..,,,,,,,,,,
0,1773,2:27.590.188,2.322.100 ms,92 B,,SP,55,Read Transaction,00 B9 FD 53 02 5E 01 B0 02 47 97 02 47 34 10 00 0E 10 00 0C 20 00 0F 20 00 0E 02 02 D0 32 00 00 00 00 00 00 00 00 00 00 00 00 00 00 00 03 00 00 00 00 00 00 00 00 00 00 00 00 00 00 00 00 00 00 00 00 00 00 00 00 00 00 00 00 00 00 00 00 00 00 00 00 02 00 01 42 00 00 00 00 04 04*,...S.^...G..G4...... .. …,,,,,,,,,,
0,1774,2:27.596.159,79.000 us,2 B,,SP,55,Write Transaction,00 00,..,,,,,,,,,,
0,1775,2:27.601.504,81.900 us,2 B,,SP,55,Read Transaction,00 00*,..,,,,,,,,,,
0,1776,2:27.615.930,79.000 us,2 B,,SP,55,Write Transaction,00 00,..,,,,,,,,,,
0,1777,2:27.621.276,85.200 us,2 B,,SP,55,Read Transaction,00 08*,..,,,,,,,,,,
0,1778,2:27.621.638,79.000 us,2 B,,SP,55,Write Transaction,12 01,..,,,,,,,,,,
0,1779,2:27.629.976,2.322.000 ms,92 B,,SP,55,Read Transaction,00 BE FD 50 02 53 01 B3 02 48 BD 02 48 54 1F FF FE 10 00 01 20 00 01 20 00 01 02 02 D0 32 00 00 00 00 00 00 00 00 00 00 00 00 00 00 00 03 00 00 00 00 00 00 00 00 00 00 00 00 00 00 00 00 00 00 00 00 00 00 00 00 00 00 00 00 00 00 00 00 00 00 00 00 02 00 01 42 00 00 00 00 04 04*,...P.S...H..HT...... .. …,,,,,,,,,,
0,1780,2:27.635.962,79.000 us,2 B,,SP,55,Write Transaction,00 00,..,,,,,,,,,,
0,1781,2:27.641.309,82.000 us,2 B,,SP,55,Read Transaction,00 00*,..,,,,,,,,,,
0,1782,2:27.655.978,79.000 us,2 B,,SP,55,Write Transaction,00 00,..,,,,,,,,,,
0,1783,2:27.661.335,85.300 us,2 B,,SP,55,Read Transaction,00 00*,..,,,,,,,,,,
0,1784,2:27.675.994,79.000 us,2 B,,SP,55,Write Transaction,00 00,..,,,,,,,,,,
0,1785,2:27.681.340,81.900 us,2 B,,SP,55,Read Transaction,00 08*,..,,,,,,,,,,
0,1786,2:27.681.698,79.100 us,2 B,,SP,55,Write Transaction,12 01,..,,,,,,,,,,
0,1787,2:27.690.038,2.322.300 ms,92 B,,SP,55,Read Transaction,00 C3 FD 50 02 54 01 B4 02 4A 12 02 49 AF 10 00 04 10 00 04 20 00 03 20 00 02 02 02 C6 32 00 00 00 00 00 00 00 00 00 00 00 00 00 00 00 03 00 00 00 00 00 00 00 00 00 00 00 00 00 00 00 00 00 00 00 00 00 00 00 00 00 00 00 00 00 00 00 00 00 00 00 00 02 00 01 42 00 00 00 00 04 04*,...P.T...J..I....... .. …,,,,,,,,,,
0,1788,2:27.696.020,79.000 us,2 B,,SP,55,Write Transaction,00 00,..,,,,,,,,,,
0,1789,2:27.701.367,85.000 us,2 B,,SP,55,Read Transaction,00 00*,..,,,,,,,,,,
0,1790,2:27.716.031,79.000 us,2 B,,SP,55,Write Transaction,00 00,..,,,,,,,,,,
0,1791,2:27.721.376,81.900 us,2 B,,SP,55,Read Transaction,00 00*,..,,,,,,,,,,
0,1792,2:27.736.040,79.000 us,2 B,,SP,55,Write Transaction,00 00,..,,,,,,,,,,
0,1793,2:27.741.385,85.100 us,2 B,,SP,55,Read Transaction,00 08*,..,,,,,,,,,,
0,1794,2:27.741.747,79.000 us,2 B,,SP,55,Write Transaction,12 01,..,,,,,,,,,,
0,1795,2:27.750.088,2.322.000 ms,92 B,,SP,55,Read Transaction,00 C8 FD 51 02 54 01 B0 02 4B 5E 02 4A FB 10 00 09 10 00 09 2F FF F7 2F FF F8 02 02 C6 32 00 00 00 00 00 00 00 00 00 00 00 00 00 00 00 03 00 00 00 00 00 00 00 00 00 00 00 00 00 00 00 00 00 00 00 00 00 00 00 00 00 00 00 00 00 00 00 00 00 00 00 00 02 00 01 42 00 00 00 00 04 04*,...Q.T...K^.J......./../…,,,,,,,,,,
0,1796,2:27.756.065,79.100 us,2 B,,SP,55,Write Transaction,00 00,..,,,,,,,,,,
0,1797,2:27.761.417,82.100 us,2 B,,SP,55,Read Transaction,00 00*,..,,,,,,,,,,
0,1798,2:27.776.087,79.100 us,2 B,,SP,55,Write Transaction,00 00,..,,,,,,,,,,
0,1799,2:27.781.433,84.600 us,2 B,,SP,55,Read Transaction,00 08*,..,,,,,,,,,,
0,1800,2:27.781.793,79.000 us,2 B,,SP,55,Write Transaction,12 01,..,,,,,,,,,,
0,1801,2:27.790.134,2.322.300 ms,92 B,,SP,55,Read Transaction,00 CD FD 52 02 5D 01 B3 02 4C A1 02 4C 3D 10 00 07 10 00 06 2F FF FD 2F FF FE 02 02 C6 32 00 00 00 00 00 00 00 00 00 00 00 00 00 00 00 03 00 00 00 00 00 00 00 00 00 00 00 00 00 00 00 00 00 00 00 00 00 00 00 00 00 00 00 00 00 00 00 00 00 00 00 00 02 00 01 42 00 00 00 00 04 04*,...R.]...L..L=....../../…,,,,,,,,,,
0,1802,2:27.796.111,78.900 us,2 B,,SP,55,Write Transaction,00 00,..,,,,,,,,,,
0,1803,2:27.801.457,82.000 us,2 B,,SP,55,Read Transaction,00 00*,..,,,,,,,,,,
0,1804,2:27.816.123,79.000 us,2 B,,SP,55,Write Transaction,00 00,..,,,,,,,,,,
0,1805,2:27.821.465,84.600 us,2 B,,SP,55,Read Transaction,00 08*,..,,,,,,,,,,
0,1806,2:27.821.826,79.000 us,2 B,,SP,55,Write Transaction,12 01,..,,,,,,,,,,
0,1807,2:27.830.166,2.322.300 ms,92 B,,SP,55,Read Transaction,00 D2 FD 4E 02 58 01 B8 02 4D D5 02 4D 6A 1F FF F7 1F FF F7 20 00 01 20 00 00 02 02 C6 32 00 00 00 00 00 00 00 00 00 00 00 00 00 00 00 03 00 00 00 00 00 00 00 00 00 00 00 00 00 00 00 00 00 00 00 00 00 00 00 00 00 00 00 00 00 00 00 00 00 00 00 00 02 00 01 42 00 00 00 00 04 04*,...N.X...M..Mj...... .. …,,,,,,,,,,
0,1808,2:27.836.150,79.000 us,2 B,,SP,55,Write Transaction,00 00,..,,,,,,,,,,
0,1809,2:27.841.531,82.100 us,2 B,,SP,55,Read Transaction,00 00*,..,,,,,,,,,,
0,1810,2:27.855.915,79.000 us,2 B,,SP,55,Write Transaction,00 00,..,,,,,,,,,,
0,1811,2:27.861.263,85.200 us,2 B,,SP,55,Read Transaction,00 00*,..,,,,,,,,,,
0,1812,2:27.875.925,79.000 us,2 B,,SP,55,Write Transaction,00 00,..,,,,,,,,,,
0,1813,2:27.881.277,82.000 us,2 B,,SP,55,Read Transaction,00 08*,..,,,,,,,,,,
0,1814,2:27.881.636,79.100 us,2 B,,SP,55,Write Transaction,12 01,..,,,,,,,,,,
0,1815,2:27.889.979,2.322.300 ms,92 B,,SP,55,Read Transaction,00 D7 FD 4D 02 58 01 B2 02 4F 2B 02 4E C1 10 00 03 10 00 02 2F FF F8 2F FF F7 02 02 C6 32 00 00 00 00 00 00 00 00 00 00 00 00 00 00 00 03 00 00 00 00 00 00 00 00 00 00 00 00 00 00 00 00 00 00 00 00 00 00 00 00 00 00 00 00 00 00 00 00 00 00 00 00 02 00 01 42 00 00 00 00 04 04*,...M.X...O+.N......./../…,,,,,,,,,,
0,1816,2:27.895.959,79.100 us,2 B,,SP,55,Write Transaction,00 00,..,,,,,,,,,,
0,1817,2:27.901.306,85.200 us,2 B,,SP,55,Read Transaction,00 00*,..,,,,,,,,,,
0,1818,2:27.915.971,79.000 us,2 B,,SP,55,Write Transaction,00 00,..,,,,,,,,,,
0,1819,2:27.921.317,81.900 us,2 B,,SP,55,Read Transaction,00 00*,..,,,,,,,,,,
0,1820,2:27.935.999,79.000 us,2 B,,SP,55,Write Transaction,00 00,..,,,,,,,,,,
0,1821,2:27.941.344,84.600 us,2 B,,SP,55,Read Transaction,00 08*,..,,,,,,,,,,
0,1822,2:27.941.705,79.000 us,2 B,,SP,55,Write Transaction,12 01,..,,,,,,,,,,
0,1823,2:27.950.046,2.322.400 ms,92 B,,SP,55,Read Transaction,00 DC FD 51 02 59 01 B8 02 4F B6 02 4F 52 10 00 07 10 00 07 20 00 0C 20 00 0C 02 02 C6 32 00 00 00 00 00 00 00 00 00 00 00 00 00 00 00 03 00 00 00 00 00 00 00 00 00 00 00 00 00 00 00 00 00 00 00 00 00 00 00 00 00 00 00 00 00 00 00 00 00 00 00 00 02 00 01 42 00 00 00 00 04 04*,...Q.Y...O..OR...... .. …,,,,,,,,,,
0,1824,2:27.956.003,79.000 us,2 B,,SP,55,Write Transaction,00 00,..,,,,,,,,,,
0,1825,2:27.961.348,81.900 us,2 B,,SP,55,Read Transaction,00 00*,..,,,,,,,,,,
0,1826,2:27.976.032,79.000 us,2 B,,SP,55,Write Transaction,00 00,..,,,,,,,,,,
0,1827,2:27.981.379,84.500 us,2 B,,SP,55,Read Transaction,00 08*,..,,,,,,,,,,
0,1828,2:27.981.740,79.000 us,2 B,,SP,55,Write Transaction,12 01,..,,,,,,,,,,
0,1829,2:27.990.079,2.322.300 ms,92 B,,SP,55,Read Transaction,00 E1 FD 50 02 56 01 B1 02 4E 07 02 4D A3 10 00 06 10 00 07 20 00 04 20 00 03 02 02 C6 32 00 00 00 00 00 00 00 00 00 00 00 00 00 00 00 03 00 00 00 00 00 00 00 00 00 00 00 00 00 00 00 00 00 00 00 00 00 00 00 00 00 00 00 00 00 00 00 00 00 00 00 00 02 00 01 42 00 00 00 00 04 04*,...P.V...N..M....... .. …,,,,,,,,,,
0,1830,2:27.996.056,79.200 us,2 B,,SP,55,Write Transaction,00 00,..,,,,,,,,,,
0,1831,2:28.001.405,81.900 us,2 B,,SP,55,Read Transaction,00 00*,..,,,,,,,,,,
0,1832,2:28.016.070,79.000 us,2 B,,SP,55,Write Transaction,00 00,..,,,,,,,,,,
0,1833,2:28.021.417,84.100 us,2 B,,SP,55,Read Transaction,00 08*,..,,,,,,,,,,
0,1834,2:28.021.777,79.100 us,2 B,,SP,55,Write Transaction,12 01,..,,,,,,,,,,
0,1835,2:28.030.117,2.322.400 ms,92 B,,SP,55,Read Transaction,00 E6 FD 4E 02 59 01 B1 02 4C 09 02 4B 9F 10 00 03 10 00 01 20 00 0E 20 00 0F 02 02 C6 32 00 00 00 00 00 00 00 00 00 00 00 00 00 00 00 03 00 00 00 00 00 00 00 00 00 00 00 00 00 00 00 00 00 00 00 00 00 00 00 00 00 00 00 00 00 00 00 00 00 00 00 00 02 00 01 42 00 00 00 00 04 04*,...N.Y...L..K....... .. …,,,,,,,,,,
0,1836,2:28.036.085,79.000 us,2 B,,SP,55,Write Transaction,00 00,..,,,,,,,,,,
0,1837,2:28.041.431,82.000 us,2 B,,SP,55,Read Transaction,00 00*,..,,,,,,,,,,
0,1838,2:28.056.096,79.000 us,2 B,,SP,55,Write Transaction,00 00,..,,,,,,,,,,
0,1839,2:28.061.443,85.200 us,2 B,,SP,55,Read Transaction,00 00*,..,,,,,,,,,,
0,1840,2:28.076.116,79.000 us,2 B,,SP,55,Write Transaction,00 00,..,,,,,,,,,,
0,1841,2:28.081.463,81.900 us,2 B,,SP,55,Read Transaction,00 08*,..,,,,,,,,,,
0,1842,2:28.081.821,79.000 us,2 B,,SP,55,Write Transaction,12 01,..,,,,,,,,,,
0,1843,2:28.090.158,2.322.400 ms,92 B,,SP,55,Read Transaction,00 EB FD 50 02 57 01 B1 02 4A AA 02 4A 43 10 00 00 10 00 00 20 00 09 20 00 07 02 02 C6 32 00 00 00 00 00 00 00 00 00 00 00 00 00 00 00 03 00 00 00 00 00 00 00 00 00 00 00 00 00 00 00 00 00 00 00 00 00 00 00 00 00 00 00 00 00 00 00 00 00 00 00 00 02 00 01 46 00 00 00 00 04 04*,...P.W...J..JC...... .. …,,,,,,,,,,
0,1844,2:28.096.150,79.100 us,2 B,,SP,55,Write Transaction,00 00,..,,,,,,,,,,
0,1845,2:28.101.497,82.700 us,2 B,,SP,55,Read Transaction,00 00*,..,,,,,,,,,,
0,1846,2:28.115.918,79.000 us,2 B,,SP,55,Write Transaction,00 00,..,,,,,,,,,,
0,1847,2:28.121.261,82.000 us,2 B,,SP,55,Read Transaction,00 00*,..,,,,,,,,,,
0,1848,2:28.135.927,79.000 us,2 B,,SP,55,Write Transaction,00 00,..,,,,,,,,,,
0,1849,2:28.141.275,84.200 us,2 B,,SP,55,Read Transaction,00 08*,..,,,,,,,,,,
0,1850,2:28.141.636,79.200 us,2 B,,SP,55,Write Transaction,12 01,..,,,,,,,,,,
0,1851,2:28.150.006,2.322.100 ms,92 B,,SP,55,Read Transaction,00 F0 FD 51 02 5B 01 AC 02 49 FE 02 49 9B 1F FF F3 1F FF F4 2F FF F9 2F FF F9 02 02 C6 32 00 00 00 00 00 00 00 00 00 00 00 00 00 00 00 03 00 00 00 00 00 00 00 00 00 00 00 00 00 00 00 00 00 00 00 00 00 00 00 00 00 00 00 00 00 00 00 00 00 00 00 00 02 00 01 46 00 00 00 00 04 04*,...Q.[...I..I......./../…,,,,,,,,,,
0,1852,2:28.155.952,79.000 us,2 B,,SP,55,Write Transaction,00 00,..,,,,,,,,,,
0,1853,2:28.161.298,82.100 us,2 B,,SP,55,Read Transaction,00 00*,..,,,,,,,,,,
0,1854,2:28.175.972,79.100 us,2 B,,SP,55,Write Transaction,00 00,..,,,,,,,,,,
0,1855,2:28.181.320,83.700 us,2 B,,SP,55,Read Transaction,00 08*,..,,,,,,,,,,
0,1856,2:28.181.680,79.100 us,2 B,,SP,55,Write Transaction,12 01,..,,,,,,,,,,
0,1857,2:28.190.029,2.324.800 ms,92 B,,SP,55,Read Transaction,00 F5 FD 51 02 55 01 B5 02 49 EA 02 49 8D 10 00 04 10 00 03 2F FF F4 2F FF F4 02 02 C6 32 00 00 00 00 00 00 00 00 00 00 00 00 00 00 00 03 00 00 00 00 00 00 00 00 00 00 00 00 00 00 00 00 00 00 00 00 00 00 00 00 00 00 00 00 00 00 00 00 00 00 00 00 02 00 01 46 00 00 00 00 04 04*,...Q.U...I..I......./../…,,,,,,,,,,
0,1858,2:28.195.987,79.000 us,2 B,,SP,55,Write Transaction,00 00,..,,,,,,,,,,
0,1859,2:28.201.336,81.900 us,2 B,,SP,55,Read Transaction,00 00*,..,,,,,,,,,,
0,1860,2:28.216.014,79.000 us,2 B,,SP,55,Write Transaction,00 00,..,,,,,,,,,,
0,1861,2:28.221.359,82.400 us,2 B,,SP,55,Read Transaction,00 08*,..,,,,,,,,,,
0,1862,2:28.221.718,79.000 us,2 B,,SP,55,Write Transaction,12 01,..,,,,,,,,,,
0,1863,2:28.230.056,2.322.400 ms,92 B,,SP,55,Read Transaction,00 FA FD 52 02 5D 01 B5 02 4A 61 02 49 FD 1F FF F5 1F FF F3 2F FF F6 2F FF F8 02 02 C6 32 00 00 00 00 00 00 00 00 00 00 00 00 00 00 00 03 00 00 00 00 00 00 00 00 00 00 00 00 00 00 00 00 00 00 00 00 00 00 00 00 00 00 00 00 00 00 00 00 00 00 00 00 02 00 01 46 00 00 00 00 04 04*,...R.]...Ja.I......./../…,,,,,,,,,,
0,1864,2:28.236.029,79.100 us,2 B,,SP,55,Write Transaction,00 00,..,,,,,,,,,,
0,1865,2:28.241.377,82.100 us,2 B,,SP,55,Read Transaction,00 00*,..,,,,,,,,,,
0,1866,2:28.256.050,79.000 us,2 B,,SP,55,Write Transaction,00 00,..,,,,,,,,,,
0,1867,2:28.261.395,82.200 us,2 B,,SP,55,Read Transaction,00 08*,..,,,,,,,,,,
0,1868,2:28.261.754,79.100 us,2 B,,SP,55,Write Transaction,12 01,..,,,,,,,,,,
0,1869,2:28.270.094,2.322.300 ms,92 B,,SP,55,Read Transaction,00 FF FD 52 02 5D 01 B5 02 4A EE 02 4A 8C 10 00 06 10 00 06 20 00 04 20 00 04 02 02 C6 32 00 00 00 00 00 00 00 00 00 00 00 00 00 00 00 03 00 00 00 00 00 00 00 00 00 00 00 00 00 00 00 00 00 00 00 00 00 00 00 00 00 00 00 00 00 00 00 00 00 00 00 00 02 00 01 46 00 00 00 00 05 05*,...R.]...J..J....... .. …,,,,,,,,,,
0,1870,2:28.276.066,79.000 us,2 B,,SP,55,Write Transaction,00 00,..,,,,,,,,,,
0,1871,2:28.281.411,81.900 us,2 B,,SP,55,Read Transaction,00 00*,..,,,,,,,,,,
0,1872,2:28.296.093,79.000 us,2 B,,SP,55,Write Transaction,00 00,..,,,,,,,,,,
0,1873,2:28.301.439,82.300 us,2 B,,SP,55,Read Transaction,00 00*,..,,,,,,,,,,
0,1874,2:28.316.100,79.100 us,2 B,,SP,55,Write Transaction,00 00,..,,,,,,,,,,
0,1875,2:28.321.446,82.000 us,2 B,,SP,55,Read Transaction,00 00*,..,,,,,,,,,,
0,1876,2:28.336.127,79.100 us,2 B,,SP,55,Write Transaction,00 00,..,,,,,,,,,,
0,1877,2:28.341.475,82.200 us,2 B,,SP,55,Read Transaction,00 08*,..,,,,,,,,,,
0,1878,2:28.341.834,79.100 us,2 B,,SP,55,Write Transaction,12 01,..,,,,,,,,,,
0,1879,2:28.350.174,2.322.600 ms,92 B,,SP,55,Read Transaction,00 04 FD 51 02 5B 01 B1 02 4B 93 02 4B 30 10 00 03 10 00 02 20 00 0A 20 00 06 02 02 C6 32 00 00 00 00 00 00 00 00 00 00 00 00 00 00 00 03 00 00 00 00 00 00 00 00 00 00 00 00 00 00 00 00 00 00 00 00 00 00 00 00 00 00 00 00 00 00 00 00 00 00 00 00 02 00 01 46 00 00 00 00 05 05*,...Q.[...K..K0...... .. …,,,,,,,,,,
0,1880,2:28.355.891,79.000 us,2 B,,SP,55,Write Transaction,00 00,..,,,,,,,,,,
0,1881,2:28.361.238,81.900 us,2 B,,SP,55,Read Transaction,00 00*,..,,,,,,,,,,
0,1882,2:28.375.922,78.900 us,2 B,,SP,55,Write Transaction,00 00,..,,,,,,,,,,
0,1883,2:28.381.270,82.400 us,2 B,,SP,55,Read Transaction,00 08*,..,,,,,,,,,,
0,1884,2:28.381.630,79.200 us,2 B,,SP,55,Write Transaction,12 01,..,,,,,,,,,,
0,1885,2:28.389.976,2.322.200 ms,92 B,,SP,55,Read Transaction,00 09 FD 50 02 5A 01 B1 02 4C A2 02 4C 40 1F FF EF 1F FF EF 20 00 07 20 00 08 02 02 C6 32 00 00 00 00 00 00 00 00 00 00 00 00 00 00 00 03 00 00 00 00 00 00 00 00 00 00 00 00 00 00 00 00 00 00 00 00 00 00 00 00 00 00 00 00 00 00 00 00 00 00 00 00 02 00 01 46 00 00 00 00 05 05*,...P.Z...L..L@...... .. …,,,,,,,,,,
0,1886,2:28.395.929,79.000 us,2 B,,SP,55,Write Transaction,00 00,..,,,,,,,,,,
0,1887,2:28.401.281,81.900 us,2 B,,SP,55,Read Transaction,00 00*,..,,,,,,,,,,
0,1888,2:28.415.946,79.000 us,2 B,,SP,55,Write Transaction,00 00,..,,,,,,,,,,
0,1889,2:28.421.292,82.200 us,2 B,,SP,55,Read Transaction,00 08*,..,,,,,,,,,,
0,1890,2:28.421.651,79.000 us,2 B,,SP,55,Write Transaction,12 01,..,,,,,,,,,,
0,1891,2:28.429.992,2.322.600 ms,92 B,,SP,55,Read Transaction,00 0E FD 51 02 5A 01 B1 02 4D C9 02 4D 69 1F FF F5 1F FF F6 2F FF FD 2F FF FD 02 02 C6 32 00 00 00 00 00 00 00 00 00 00 00 00 00 00 00 03 00 00 00 00 00 00 00 00 00 00 00 00 00 00 00 00 00 00 00 00 00 00 00 00 00 00 00 00 00 00 00 00 00 00 00 00 02 00 01 46 00 00 00 00 05 05*,...Q.Z...M..Mi....../../…,,,,,,,,,,
0,1892,2:28.435.978,79.000 us,2 B,,SP,55,Write Transaction,00 00,..,,,,,,,,,,
0,1893,2:28.441.331,82.100 us,2 B,,SP,55,Read Transaction,00 00*,..,,,,,,,,,,
0,1894,2:28.455.992,79.000 us,2 B,,SP,55,Write Transaction,00 00,..,,,,,,,,,,
0,1895,2:28.461.336,82.300 us,2 B,,SP,55,Read Transaction,00 08*,..,,,,,,,,,,
0,1896,2:28.461.695,79.000 us,2 B,,SP,55,Write Transaction,12 01,..,,,,,,,,,,
0,1897,2:28.470.046,2.326.000 ms,92 B,,SP,55,Read Transaction,00 13 FD 51 02 51 01 B0 02 4F 00 02 4E 9E 1F FF F9 1F FF F9 2F FF F2 2F FF F2 02 02 C6 32 00 00 00 00 00 00 00 00 00 00 00 00 00 00 00 03 00 00 00 00 00 00 00 00 00 00 00 00 00 00 00 00 00 00 00 00 00 00 00 00 00 00 00 00 00 00 00 00 00 00 00 00 02 00 01 46 00 00 00 00 05 05*,...Q.Q...O..N......./../…,,,,,,,,,,
0,1898,2:28.476.014,79.100 us,2 B,,SP,55,Write Transaction,00 00,..,,,,,,,,,,
0,1899,2:28.481.361,82.000 us,2 B,,SP,55,Read Transaction,00 00*,..,,,,,,,,,,
0,1900,2:28.496.026,79.000 us,2 B,,SP,55,Write Transaction,00 00,..,,,,,,,,,,
0,1901,2:28.501.370,82.200 us,2 B,,SP,55,Read Transaction,00 00*,..,,,,,,,,,,
0,1902,2:28.516.045,79.000 us,2 B,,SP,55,Write Transaction,00 00,..,,,,,,,,,,
0,1903,2:28.521.391,81.900 us,2 B,,SP,55,Read Transaction,00 00*,..,,,,,,,,,,
0,1904,2:28.536.069,79.200 us,2 B,,SP,55,Write Transaction,00 00,..,,,,,,,,,,
0,1905,2:28.541.423,82.500 us,2 B,,SP,55,Read Transaction,00 08*,..,,,,,,,,,,
0,1906,2:28.541.782,79.200 us,2 B,,SP,55,Write Transaction,12 01,..,,,,,,,,,,
0,1907,2:28.550.126,2.322.200 ms,92 B,,SP,55,Read Transaction,00 18 FD 51 02 58 01 B6 02 50 35 02 4F D3 1F FF F1 1F FF F0 2F FF FF 20 00 00 02 02 C6 32 00 00 00 00 00 00 00 00 00 00 00 00 00 00 00 03 00 00 00 00 00 00 00 00 00 00 00 00 00 00 00 00 00 00 00 00 00 00 00 00 00 00 00 00 00 00 00 00 00 00 00 00 02 00 01 46 00 00 00 00 05 05*,...Q.X...P5.O......./.. …,,,,,,,,,,
0,1908,2:28.556.083,79.000 us,2 B,,SP,55,Write Transaction,00 00,..,,,,,,,,,,
0,1909,2:28.561.437,82.000 us,2 B,,SP,55,Read Transaction,00 00*,..,,,,,,,,,,
0,1910,2:28.576.105,79.000 us,2 B,,SP,55,Write Transaction,00 00,..,,,,,,,,,,
0,1911,2:28.581.451,82.300 us,2 B,,SP,55,Read Transaction,00 08*,..,,,,,,,,,,
0,1912,2:28.581.810,79.000 us,2 B,,SP,55,Write Transaction,12 01,..,,,,,,,,,,
0,1913,2:28.590.162,2.326.000 ms,92 B,,SP,55,Read Transaction,00 1D FD 4E 02 53 01 B1 02 51 57 02 50 F3 1F FF F7 1F FF F6 2F FF F1 2F FF F2 02 02 C6 32 00 00 00 00 00 00 00 00 00 00 00 00 00 00 00 03 00 00 00 00 00 00 00 00 00 00 00 00 00 00 00 00 00 00 00 00 00 00 00 00 00 00 00 00 00 00 00 00 00 00 00 00 02 00 01 46 00 00 00 00 05 05*,...N.S...QW.P......./../…,,,,,,,,,,
0,1914,2:28.596.125,79.000 us,2 B,,SP,55,Write Transaction,00 00,..,,,,,,,,,,
0,1915,2:28.601.475,81.900 us,2 B,,SP,55,Read Transaction,00 00*,..,,,,,,,,,,
0,1916,2:28.615.888,79.000 us,2 B,,SP,55,Write Transaction,00 00,..,,,,,,,,,,
0,1917,2:28.621.232,82.200 us,2 B,,SP,55,Read Transaction,00 08*,..,,,,,,,,,,
0,1918,2:28.621.591,79.000 us,2 B,,SP,55,Write Transaction,12 01,..,,,,,,,,,,
0,1919,2:28.629.931,2.322.300 ms,92 B,,SP,55,Read Transaction,00 22 FD 48 02 55 01 AF 02 52 92 02 52 27 10 00 08 10 00 09 2F FF F9 2F FF F9 02 02 C6 32 00 00 00 00 00 00 00 00 00 00 00 00 00 00 00 03 00 00 00 00 00 00 00 00 00 00 00 00 00 00 00 00 00 00 00 00 00 00 00 00 00 00 00 00 00 00 00 00 00 00 00 00 02 00 01 46 00 00 00 00 05 05*,"."".H.U...R..R'....../../…",,,,,,,,,,
0,1920,2:28.635.920,79.000 us,2 B,,SP,55,Write Transaction,00 00,..,,,,,,,,,,
0,1921,2:28.641.266,82.000 us,2 B,,SP,55,Read Transaction,00 00*,..,,,,,,,,,,
0,1922,2:28.655.931,79.000 us,2 B,,SP,55,Write Transaction,00 00,..,,,,,,,,,,
0,1923,2:28.661.277,82.300 us,2 B,,SP,55,Read Transaction,00 08*,..,,,,,,,,,,
0,1924,2:28.661.636,79.000 us,2 B,,SP,55,Write Transaction,12 01,..,,,,,,,,,,
0,1925,2:28.669.976,2.322.700 ms,92 B,,SP,55,Read Transaction,00 27 FD 51 02 54 01 B8 02 53 E0 02 53 76 10 00 02 10 00 03 20 00 0D 20 00 0E 02 02 C6 32 00 00 00 00 00 00 00 00 00 00 00 00 00 00 00 03 00 00 00 00 00 00 00 00 00 00 00 00 00 00 00 00 00 00 00 00 00 00 00 00 00 00 00 00 00 00 00 00 00 00 00 00 02 00 01 46 00 00 00 00 05 05*,.'.Q.T...S..Sv...... .. …,,,,,,,,,,
0,1926,2:28.675.948,79.000 us,2 B,,SP,55,Write Transaction,00 00,..,,,,,,,,,,
0,1927,2:28.681.295,82.000 us,2 B,,SP,55,Read Transaction,00 00*,..,,,,,,,,,,
0,1928,2:28.695.980,79.000 us,2 B,,SP,55,Write Transaction,00 00,..,,,,,,,,,,
0,1929,2:28.701.328,82.200 us,2 B,,SP,55,Read Transaction,00 00*,..,,,,,,,,,,
0,1930,2:28.715.994,79.000 us,2 B,,SP,55,Write Transaction,00 00,..,,,,,,,,,,
0,1931,2:28.721.345,82.000 us,2 B,,SP,55,Read Transaction,00 00*,..,,,,,,,,,,
0,1932,2:28.736.016,79.100 us,2 B,,SP,55,Write Transaction,00 00,..,,,,,,,,,,
0,1933,2:28.741.370,82.300 us,2 B,,SP,55,Read Transaction,00 08*,..,,,,,,,,,,
0,1934,2:28.741.729,79.100 us,2 B,,SP,55,Write Transaction,12 01,..,,,,,,,,,,
0,1935,2:28.750.071,2.324.100 ms,92 B,,SP,55,Read Transaction,00 2C FD 51 02 52 01 B3 02 55 0A 02 54 A9 1F FF EE 1F FF EF 2F FF FF 20 00 01 02 02 C6 32 00 00 00 00 00 00 00 00 00 00 00 00 00 00 00 03 00 00 00 00 00 00 00 00 00 00 00 00 00 00 00 00 00 00 00 00 00 00 00 00 00 00 00 00 00 00 00 00 00 00 00 00 02 00 01 46 00 00 00 00 05 05*,.,.Q.R...U..T......./.. …,,,,,,,,,
0,1936,2:28.756.021,79.000 us,2 B,,SP,55,Write Transaction,00 00,..,,,,,,,,,,
0,1937,2:28.761.367,81.900 us,2 B,,SP,55,Read Transaction,00 00*,..,,,,,,,,,,
0,1938,2:28.776.048,79.200 us,2 B,,SP,55,Write Transaction,00 00,..,,,,,,,,,,
0,1939,2:28.781.397,82.300 us,2 B,,SP,55,Read Transaction,00 08*,..,,,,,,,,,,
0,1940,2:28.781.757,79.100 us,2 B,,SP,55,Write Transaction,12 01,..,,,,,,,,,,
0,1941,2:28.790.096,2.322.300 ms,92 B,,SP,55,Read Transaction,00 31 FD 4C 02 58 01 B4 02 54 62 02 53 F9 10 00 06 10 00 04 2F FF FE 20 00 01 02 02 C6 32 00 00 00 00 00 00 00 00 00 00 00 00 00 00 00 03 00 00 00 00 00 00 00 00 00 00 00 00 00 00 00 00 00 00 00 00 00 00 00 00 00 00 00 00 00 00 00 00 00 00 00 00 02 00 01 46 00 00 00 00 05 05*,.1.L.X...Tb.S......./.. …,,,,,,,,,,
0,1942,2:28.796.072,79.000 us,2 B,,SP,55,Write Transaction,00 00,..,,,,,,,,,,
0,1943,2:28.801.417,81.900 us,2 B,,SP,55,Read Transaction,00 00*,..,,,,,,,,,,
0,1944,2:28.816.083,79.100 us,2 B,,SP,55,Write Transaction,00 00,..,,,,,,,,,,
0,1945,2:28.821.428,82.200 us,2 B,,SP,55,Read Transaction,00 08*,..,,,,,,,,,,
0,1946,2:28.821.787,79.100 us,2 B,,SP,55,Write Transaction,12 01,..,,,,,,,,,,
0,1947,2:28.830.132,2.324.900 ms,92 B,,SP,55,Read Transaction,00 36 FD 4C 02 58 01 AE 02 52 46 02 51 E7 10 00 00 10 00 01 2F FF FA 2F FF F9 02 02 C6 32 00 00 00 00 00 00 00 00 00 00 00 00 00 00 00 03 00 00 00 00 00 00 00 00 00 00 00 00 00 00 00 00 00 00 00 00 00 00 00 00 00 00 00 00 00 00 00 00 00 00 00 00 02 00 01 46 00 00 00 00 05 05*,.6.L.X...RF.Q......./../…,,,,,,,,,,
0,1948,2:28.836.097,79.100 us,2 B,,SP,55,Write Transaction,00 00,..,,,,,,,,,,
0,1949,2:28.841.451,82.100 us,2 B,,SP,55,Read Transaction,00 00*,..,,,,,,,,,,
0,1950,2:28.855.881,79.000 us,2 B,,SP,55,Write Transaction,00 00,..,,,,,,,,,,
0,1951,2:28.861.227,82.300 us,2 B,,SP,55,Read Transaction,00 08*,..,,,,,,,,,,
0,1952,2:28.861.585,79.000 us,2 B,,SP,55,Write Transaction,12 01,..,,,,,,,,,,
0,1953,2:28.869.925,2.320.700 ms,92 B,,SP,55,Read Transaction,00 3B FD 51 02 56 01 B1 02 50 E3 02 50 7C 10 00 07 10 00 05 20 00 09 20 00 09 02 02 C6 32 00 00 00 00 00 00 00 00 00 00 00 00 00 00 00 03 00 00 00 00 00 00 00 00 00 00 00 00 00 00 00 00 00 00 00 00 00 00 00 00 00 00 00 00 00 00 00 00 00 00 00 00 02 00 01 46 00 00 00 00 05 05*,.;.Q.V...P..P|...... .. …,,,,,,,,,,
0,1954,2:28.875.894,79.000 us,2 B,,SP,55,Write Transaction,00 00,..,,,,,,,,,,
0,1955,2:28.881.241,81.900 us,2 B,,SP,55,Read Transaction,00 00*,..,,,,,,,,,,
0,1956,2:28.895.909,79.100 us,2 B,,SP,55,Write Transaction,00 00,..,,,,,,,,,,
0,1957,2:28.901.255,85.200 us,2 B,,SP,55,Read Transaction,00 00*,..,,,,,,,,,,
0,1958,2:28.915.934,79.000 us,2 B,,SP,55,Write Transaction,00 00,..,,,,,,,,,,
0,1959,2:28.921.279,82.000 us,2 B,,SP,55,Read Transaction,00 00*,..,,,,,,,,,,
0,1960,2:28.935.945,79.000 us,2 B,,SP,55,Write Transaction,00 00,..,,,,,,,,,,
0,1961,2:28.941.292,82.400 us,2 B,,SP,55,Read Transaction,00 08*,..,,,,,,,,,,
0,1962,2:28.941.651,79.000 us,2 B,,SP,55,Write Transaction,12 01,..,,,,,,,,,,
0,1963,2:28.949.991,2.322.300 ms,92 B,,SP,55,Read Transaction,00 40 FD 50 02 5C 01 B3 02 50 05 02 4F A0 10 00 05 10 00 06 2F FF F2 2F FF F0 02 02 C6 64 00 00 00 00 00 00 00 00 00 00 00 00 00 00 00 03 00 00 00 00 00 00 00 00 00 00 00 00 00 00 00 00 00 00 00 00 00 00 00 00 00 00 00 00 00 00 00 00 00 00 00 00 02 00 01 4B 00 00 00 00 05 05*,.@.P.\...P..O......./../…,,,,,,,,,,
0,1964,2:28.955.979,78.900 us,2 B,,SP,55,Write Transaction,00 00,..,,,,,,,,,,
0,1965,2:28.961.327,81.900 us,2 B,,SP,55,Read Transaction,00 00*,..,,,,,,,,,,
0,1966,2:28.975.982,79.000 us,2 B,,SP,55,Write Transaction,00 00,..,,,,,,,,,,
0,1967,2:28.981.327,82.200 us,2 B,,SP,55,Read Transaction,00 08*,..,,,,,,,,,,
0,1968,2:28.981.685,79.100 us,2 B,,SP,55,Write Transaction,12 01,..,,,,,,,,,,
0,1969,2:28.990.026,2.322.300 ms,92 B,,SP,55,Read Transaction,00 45 FD 4E 02 5B 01 B1 02 4F EC 02 4F 88 10 00 00 1F FF FF 2F FF F2 2F FF F4 02 02 C6 64 00 00 00 00 00 00 00 00 00 00 00 00 00 00 00 03 00 00 00 00 00 00 00 00 00 00 00 00 00 00 00 00 00 00 00 00 00 00 00 00 00 00 00 00 00 00 00 00 00 00 00 00 02 00 01 4B 00 00 00 00 05 05*,.E.N.[...O..O......./../…,,,,,,,,,,
0,1970,2:28.996.013,79.000 us,2 B,,SP,55,Write Transaction,00 00,..,,,,,,,,,,
0,1971,2:29.001.360,82.000 us,2 B,,SP,55,Read Transaction,00 00*,..,,,,,,,,,,
0,1972,2:29.016.029,79.000 us,2 B,,SP,55,Write Transaction,00 00,..,,,,,,,,,,
0,1973,2:29.021.376,82.200 us,2 B,,SP,55,Read Transaction,00 08*,..,,,,,,,,,,
0,1974,2:29.021.735,79.000 us,2 B,,SP,55,Write Transaction,12 01,..,,,,,,,,,,
0,1975,2:29.030.075,2.324.000 ms,92 B,,SP,55,Read Transaction,00 4A FD 52 02 56 01 B3 02 50 0A 02 4F A8 1F FF F4 1F FF F6 2F FF F5 2F FF F4 02 02 C6 64 00 00 00 00 00 00 00 00 00 00 00 00 00 00 00 03 00 00 00 00 00 00 00 00 00 00 00 00 00 00 00 00 00 00 00 00 00 00 00 00 00 00 00 00 00 00 00 00 00 00 00 00 02 00 01 4B 00 00 00 00 05 05*,.J.R.V...P..O......./../…,,,,,,,,,,
0,1976,2:29.036.054,79.200 us,2 B,,SP,55,Write Transaction,00 00,..,,,,,,,,,,
0,1977,2:29.041.404,82.000 us,2 B,,SP,55,Read Transaction,00 00*,..,,,,,,,,,,
0,1978,2:29.056.065,79.100 us,2 B,,SP,55,Write Transaction,00 00,..,,,,,,,,,,
0,1979,2:29.061.411,82.200 us,2 B,,SP,55,Read Transaction,00 08*,..,,,,,,,,,,
0,1980,2:29.061.770,79.000 us,2 B,,SP,55,Write Transaction,12 01,..,,,,,,,,,,
0,1981,2:29.070.108,2.322.100 ms,92 B,,SP,55,Read Transaction,00 4F FD 4D 02 56 01 AE 02 50 68 02 50 01 10 00 07 10 00 07 20 00 06 20 00 06 02 02 D0 64 00 00 00 00 00 00 00 00 00 00 00 00 00 00 00 03 00 00 00 00 00 00 00 00 00 00 00 00 00 00 00 00 00 00 00 00 00 00 00 00 00 00 00 00 00 00 00 00 00 00 00 00 02 00 01 4B 00 00 00 00 05 05*,.O.M.V...Ph.P....... .. …,,,,,,,,,,
0,1982,2:29.076.081,79.000 us,2 B,,SP,55,Write Transaction,00 00,..,,,,,,,,,,
0,1983,2:29.081.427,81.900 us,2 B,,SP,55,Read Transaction,00 00*,..,,,,,,,,,,
0,1984,2:29.096.110,79.000 us,2 B,,SP,55,Write Transaction,00 00,..,,,,,,,,,,
0,1985,2:29.101.457,82.300 us,2 B,,SP,55,Read Transaction,00 00*,..,,,,,,,,,,
0,1986,2:29.115.875,79.000 us,2 B,,SP,55,Write Transaction,00 00,..,,,,,,,,,,
0,1987,2:29.121.222,81.900 us,2 B,,SP,55,Read Transaction,00 00*,..,,,,,,,,,,
0,1988,2:29.135.887,79.000 us,2 B,,SP,55,Write Transaction,00 00,..,,,,,,,,,,
0,1989,2:29.141.237,82.300 us,2 B,,SP,55,Read Transaction,00 08*,..,,,,,,,,,,
0,1990,2:29.141.597,79.000 us,2 B,,SP,55,Write Transaction,12 01,..,,,,,,,,,,
0,1991,2:29.149.936,2.322.400 ms,92 B,,SP,55,Read Transaction,00 54 FD 50 02 57 01 B2 02 50 E6 02 50 86 1F FF EF 1F FF EE 2F FF F5 2F FF F2 02 02 D0 64 00 00 00 00 00 00 00 00 00 00 00 00 00 00 00 03 00 00 00 00 00 00 00 00 00 00 00 00 00 00 00 00 00 00 00 00 00 00 00 00 00 00 00 00 00 00 00 00 00 00 00 00 02 00 01 4B 00 00 00 00 05 05*,.T.P.W...P..P......./../…,,,,,,,,,,
0,1992,2:29.155.912,79.000 us,2 B,,SP,55,Write Transaction,00 00,..,,,,,,,,,,
0,1993,2:29.161.255,82.000 us,2 B,,SP,55,Read Transaction,00 00*,..,,,,,,,,,,
0,1994,2:29.175.937,79.100 us,2 B,,SP,55,Write Transaction,00 00,..,,,,,,,,,,
0,1995,2:29.181.284,82.400 us,2 B,,SP,55,Read Transaction,00 08*,..,,,,,,,,,,
0,1996,2:29.181.642,79.200 us,2 B,,SP,55,Write Transaction,12 01,..,,,,,,,,,,
0,1997,2:29.189.986,2.322.400 ms,92 B,,SP,55,Read Transaction,00 59 FD 4D 02 5B 01 B6 02 51 A3 02 51 3F 1F FF F9 1F FF FB 2F FF F9 2F FF F9 02 02 D0 64 00 00 00 00 00 00 00 00 00 00 00 00 00 00 00 03 00 00 00 00 00 00 00 00 00 00 00 00 00 00 00 00 00 00 00 00 00 00 00 00 00 00 00 00 00 00 00 00 00 00 00 00 02 00 01 4B 00 00 00 00 05 05*,.Y.M.[...Q..Q?....../../…,,,,,,,,,,
0,1998,2:29.195.953,79.200 us,2 B,,SP,55,Write Transaction,00 00,..,,,,,,,,,,
0,1999,2:29.201.302,82.000 us,2 B,,SP,55,Read Transaction,00 00*,..,,,,,,,,,,
0,2000,2:29.215.963,79.200 us,2 B,,SP,55,Write Transaction,00 00,..,,,,,,,,,,
0,2001,2:29.221.315,82.300 us,2 B,,SP,55,Read Transaction,00 08*,..,,,,,,,,,,
0,2002,2:29.221.673,79.100 us,2 B,,SP,55,Write Transaction,12 01,..,,,,,,,,,,
0,2003,2:29.230.015,2.321.700 ms,92 B,,SP,55,Read Transaction,00 5E FD 13 02 58 01 B7 02 52 A2 02 52 3B 10 00 05 10 00 04 20 00 0B 20 00 0B 02 02 D0 64 00 00 00 00 00 00 00 00 00 00 00 00 00 00 00 03 00 00 00 00 00 00 00 00 00 00 00 00 00 00 00 00 00 00 00 00 00 00 00 00 00 00 00 00 00 00 00 00 00 00 00 00 02 00 01 4B 00 00 00 00 05 05*,.^...X...R..R;...... .. …,,,,,,,,,,
0,2004,2:29.235.990,79.000 us,2 B,,SP,55,Write Transaction,00 00,..,,,,,,,,,,
0,2005,2:29.241.336,82.000 us,2 B,,SP,55,Read Transaction,00 00*,..,,,,,,,,,,
0,2006,2:29.256.000,79.000 us,2 B,,SP,55,Write Transaction,00 00,..,,,,,,,,,,
0,2007,2:29.261.345,82.200 us,2 B,,SP,55,Read Transaction,00 08*,..,,,,,,,,,,
0,2008,2:29.261.703,79.000 us,2 B,,SP,55,Write Transaction,12 01,..,,,,,,,,,,
0,2009,2:29.270.044,2.322.500 ms,92 B,,SP,55,Read Transaction,00 63 FD 4D 02 59 01 B7 02 53 C3 02 53 5D 10 00 0E 10 00 11 2F FF F9 2F FF F7 02 02 DA 64 00 00 00 00 00 00 00 00 00 00 00 00 00 00 00 03 00 00 00 00 00 00 00 00 00 00 00 00 00 00 00 00 00 00 00 00 00 00 00 00 00 00 00 00 00 00 00 00 00 00 00 00 02 00 01 4B 00 00 00 00 05 05*,.c.M.Y...S..S]....../../…,,,,,,,,,,
0,2010,2:29.276.045,79.000 us,2 B,,SP,55,Write Transaction,00 00,..,,,,,,,,,,
0,2011,2:29.281.402,81.900 us,2 B,,SP,55,Read Transaction,00 00*,..,,,,,,,,,,
0,2012,2:29.296.042,79.100 us,2 B,,SP,55,Write Transaction,00 00,..,,,,,,,,,,
0,2013,2:29.301.387,82.200 us,2 B,,SP,55,Read Transaction,00 00*,..,,,,,,,,,,
0,2014,2:29.316.063,79.000 us,2 B,,SP,55,Write Transaction,00 00,..,,,,,,,,,,
0,2015,2:29.321.410,82.000 us,2 B,,SP,55,Read Transaction,00 00*,..,,,,,,,,,,
0,2016,2:29.336.086,79.000 us,2 B,,SP,55,Write Transaction,00 00,..,,,,,,,,,,
0,2017,2:29.341.432,82.300 us,2 B,,SP,55,Read Transaction,00 08*,..,,,,,,,,,,
0,2018,2:29.341.791,79.000 us,2 B,,SP,55,Write Transaction,12 01,..,,,,,,,,,,
0,2019,2:29.350.141,2.322.500 ms,92 B,,SP,55,Read Transaction,00 68 FD 50 02 5B 01 B4 02 54 EE 02 54 8B 10 00 05 10 00 05 2F FF F1 2F FF F1 02 02 DA 64 00 00 00 00 00 00 00 00 00 00 00 00 00 00 00 03 00 00 00 00 00 00 00 00 00 00 00 00 00 00 00 00 00 00 00 00 00 00 00 00 00 00 00 00 00 00 00 00 00 00 00 00 02 00 01 4B 00 00 00 00 05 05*,.h.P.[...T..T......./../…,,,,,,,,,,
0,2020,2:29.355.865,79.000 us,2 B,,SP,55,Write Transaction,00 00,..,,,,,,,,,,
0,2021,2:29.361.212,82.000 us,2 B,,SP,55,Read Transaction,00 00*,..,,,,,,,,,,
0,2022,2:29.375.874,79.000 us,2 B,,SP,55,Write Transaction,00 00,..,,,,,,,,,,
0,2023,2:29.381.219,82.300 us,2 B,,SP,55,Read Transaction,00 08*,..,,,,,,,,,,
0,2024,2:29.381.578,79.000 us,2 B,,SP,55,Write Transaction,12 01,..,,,,,,,,,,
0,2025,2:29.389.918,2.322.200 ms,92 B,,SP,55,Read Transaction,00 6D FD 4D 02 59 01 B2 02 55 F0 02 55 88 10 00 0C 10 00 0E 2F FF F8 2F FF F8 02 02 DA 64 00 00 00 00 00 00 00 00 00 00 00 00 00 00 00 03 00 00 00 00 00 00 00 00 00 00 00 00 00 00 00 00 00 00 00 00 00 00 00 00 00 00 00 00 00 00 00 00 00 00 00 00 02 00 01 4B 00 00 00 00 05 05*,.m.M.Y...U..U......./../…,,,,,,,,,,
0,2026,2:29.395.890,79.000 us,2 B,,SP,55,Write Transaction,00 00,..,,,,,,,,,,
0,2027,2:29.401.236,82.000 us,2 B,,SP,55,Read Transaction,00 00*,..,,,,,,,,,,
0,2028,2:29.415.915,79.000 us,2 B,,SP,55,Write Transaction,00 00,..,,,,,,,,,,
0,2029,2:29.421.262,82.300 us,2 B,,SP,55,Read Transaction,00 08*,..,,,,,,,,,,
0,2030,2:29.421.621,79.000 us,2 B,,SP,55,Write Transaction,12 01,..,,,,,,,,,,
0,2031,2:29.429.962,2.322.300 ms,92 B,,SP,55,Read Transaction,00 72 FD 4D 02 58 01 B6 02 57 03 02 56 9F 1F FF F5 1F FF F4 20 00 04 20 00 04 02 02 DA 64 00 00 00 00 00 00 00 00 00 00 00 00 00 00 00 03 00 00 00 00 00 00 00 00 00 00 00 00 00 00 00 00 00 00 00 00 00 00 00 00 00 00 00 00 00 00 00 00 00 00 00 00 02 00 01 4B 00 00 00 00 05 05*,.r.M.X...W..V....... .. …,,,,,,,,,,
0,2032,2:29.435.935,79.000 us,2 B,,SP,55,Write Transaction,00 00,..,,,,,,,,,,
0,2033,2:29.441.282,81.900 us,2 B,,SP,55,Read Transaction,00 00*,..,,,,,,,,,,
0,2034,2:29.455.954,79.000 us,2 B,,SP,55,Write Transaction,00 00,..,,,,,,,,,,
0,2035,2:29.461.301,82.300 us,2 B,,SP,55,Read Transaction,00 08*,..,,,,,,,,,,
0,2036,2:29.461.660,79.000 us,2 B,,SP,55,Write Transaction,12 01,..,,,,,,,,,,
0,2037,2:29.469.999,2.322.600 ms,92 B,,SP,55,Read Transaction,00 77 FD 4C 02 54 01 B2 02 58 23 02 57 BE 10 00 06 10 00 05 2F FF FB 2F FF FB 02 02 E4 64 1F EA 64 00 00 00 00 00 00 00 00 00 00 00 00 03 00 00 00 00 00 00 00 00 00 00 00 00 00 00 00 00 00 00 00 00 00 00 00 00 00 00 00 00 00 00 00 00 00 00 00 00 02 00 01 4B 00 00 00 00 05 05*,.w.L.T...X#.W......./../…,,,,,,,,,,
0,2038,2:29.475.973,79.000 us,2 B,,SP,55,Write Transaction,00 00,..,,,,,,,,,,
0,2039,2:29.481.320,81.900 us,2 B,,SP,55,Read Transaction,00 00*,..,,,,,,,,,,
0,2040,2:29.495.987,79.000 us,2 B,,SP,55,Write Transaction,00 00,..,,,,,,,,,,
0,2041,2:29.501.336,82.300 us,2 B,,SP,55,Read Transaction,00 00*,..,,,,,,,,,,
0,2042,2:29.516.005,79.200 us,2 B,,SP,55,Write Transaction,00 00,..,,,,,,,,,,
0,2043,2:29.521.348,82.000 us,2 B,,SP,55,Read Transaction,00 00*,..,,,,,,,,,,
0,2044,2:29.536.026,79.000 us,2 B,,SP,55,Write Transaction,00 00,..,,,,,,,,,,
0,2045,2:29.541.372,82.300 us,2 B,,SP,55,Read Transaction,00 08*,..,,,,,,,,,,
0,2046,2:29.541.731,79.000 us,2 B,,SP,55,Write Transaction,12 01,..,,,,,,,,,,
0,2047,2:29.550.073,2.322.700 ms,92 B,,SP,55,Read Transaction,00 7C FD 50 02 55 01 B0 02 59 4D 02 58 E5 1F FF FF 1F FF FE 20 00 07 20 00 05 02 02 E4 64 00 00 00 00 00 00 00 00 00 00 00 00 00 00 00 03 00 00 00 00 00 00 00 00 00 00 00 00 00 00 00 00 00 00 00 00 00 00 00 00 00 00 00 00 00 00 00 00 00 00 00 00 02 00 01 4B 00 00 00 00 05 05*,.|.P.U...YM.X....... .. …,,,,,,,,,,
0,2048,2:29.556.051,79.000 us,2 B,,SP,55,Write Transaction,00 00,..,,,,,,,,,,
0,2049,2:29.561.397,82.000 us,2 B,,SP,55,Read Transaction,00 00*,..,,,,,,,,,,
0,2050,2:29.576.063,79.100 us,2 B,,SP,55,Write Transaction,00 00,..,,,,,,,,,,
0,2051,2:29.581.417,82.400 us,2 B,,SP,55,Read Transaction,00 08*,..,,,,,,,,,,
0,2052,2:29.581.775,79.200 us,2 B,,SP,55,Write Transaction,12 01,..,,,,,,,,,,
0,2053,2:29.590.176,2.321.600 ms,92 B,,SP,55,Read Transaction,00 81 FD 4E 02 53 01 B6 02 59 A4 02 59 3B 1F FF F6 1F FF F5 20 00 0C 20 00 0A 02 02 E4 64 00 00 00 00 00 00 00 00 00 00 00 00 00 00 00 03 00 00 00 00 00 00 00 00 00 00 00 00 00 00 00 00 00 00 00 00 00 00 00 00 00 00 00 00 00 00 00 00 00 00 00 00 02 00 01 4B 00 00 00 00 05 05*,...N.S...Y..Y;...... .. …,,,,,,,,,,
0,2054,2:29.596.085,79.000 us,2 B,,SP,55,Write Transaction,00 00,..,,,,,,,,,,
0,2055,2:29.601.432,81.900 us,2 B,,SP,55,Read Transaction,00 00*,..,,,,,,,,,,
0,2056,2:29.615.854,79.100 us,2 B,,SP,55,Write Transaction,00 00,..,,,,,,,,,,
0,2057,2:29.621.200,82.300 us,2 B,,SP,55,Read Transaction,00 08*,..,,,,,,,,,,
0,2058,2:29.621.558,79.000 us,2 B,,SP,55,Write Transaction,12 01,..,,,,,,,,,,
0,2059,2:29.629.903,2.322.400 ms,92 B,,SP,55,Read Transaction,00 86 FD 4F 02 56 01 B2 02 57 EB 02 57 82 1F FF F9 1F FF FA 2F FF FF 2F FF FE 02 02 E4 64 00 00 00 00 00 00 00 00 00 00 00 00 00 00 00 03 00 00 00 00 00 00 00 00 00 00 00 00 00 00 00 00 00 00 00 00 00 00 00 00 00 00 00 00 00 00 00 00 00 00 00 00 02 00 01 4B 00 00 00 00 05 05*,...O.V...W..W......./../…,,,,,,,,,,
0,2060,2:29.635.878,79.000 us,2 B,,SP,55,Write Transaction,00 00,..,,,,,,,,,,
0,2061,2:29.641.227,81.900 us,2 B,,SP,55,Read Transaction,00 00*,..,,,,,,,,,,
0,2062,2:29.655.897,79.200 us,2 B,,SP,55,Write Transaction,00 00,..,,,,,,,,,,
0,2063,2:29.661.244,82.300 us,2 B,,SP,55,Read Transaction,00 08*,..,,,,,,,,,,
0,2064,2:29.661.603,79.000 us,2 B,,SP,55,Write Transaction,12 01,..,,,,,,,,,,
0,2065,2:29.669.943,2.322.500 ms,92 B,,SP,55,Read Transaction,00 8B FD 4F 02 53 01 B4 02 55 FB 02 55 92 10 00 05 10 00 05 2F FF F3 2F FF F3 02 02 EE 64 00 00 00 00 00 00 00 00 00 00 00 00 00 00 00 03 00 00 00 00 00 00 00 00 00 00 00 00 00 00 00 00 00 00 00 00 00 00 00 00 00 00 00 00 00 00 00 00 00 00 00 00 02 00 01 4B 00 00 00 00 05 05*,...O.S...U..U......./../…,,,,,,,,,,
0,2066,2:29.675.915,79.100 us,2 B,,SP,55,Write Transaction,00 00,..,,,,,,,,,,
0,2067,2:29.681.264,82.000 us,2 B,,SP,55,Read Transaction,00 00*,..,,,,,,,,,,
0,2068,2:29.695.935,79.000 us,2 B,,SP,55,Write Transaction,00 00,..,,,,,,,,,,
0,2069,2:29.701.282,82.200 us,2 B,,SP,55,Read Transaction,00 00*,..,,,,,,,,,,
0,2070,2:29.715.944,79.000 us,2 B,,SP,55,Write Transaction,00 00,..,,,,,,,,,,
0,2071,2:29.721.290,81.900 us,2 B,,SP,55,Read Transaction,00 00*,..,,,,,,,,,,
0,2072,2:29.735.976,79.000 us,2 B,,SP,55,Write Transaction,00 00,..,,,,,,,,,,
0,2073,2:29.741.322,82.300 us,2 B,,SP,55,Read Transaction,00 08*,..,,,,,,,,,,
0,2074,2:29.741.681,79.000 us,2 B,,SP,55,Write Transaction,12 01,..,,,,,,,,,,
0,2075,2:29.750.028,2.326.100 ms,92 B,,SP,55,Read Transaction,00 90 FD 51 02 59 01 B4 02 54 E5 02 54 7C 10 00 01 10 00 01 2F FF F9 2F FF F7 02 02 EE 64 00 00 00 00 00 00 00 00 00 00 00 00 00 00 00 03 00 00 00 00 00 00 00 00 00 00 00 00 00 00 00 00 00 00 00 00 00 00 00 00 00 00 00 00 00 00 00 00 00 00 00 00 02 00 01 4F 00 00 00 00 05 05*,...Q.Y...T..T|....../../…,,,,,,,,,,
0,2076,2:29.755.995,79.100 us,2 B,,SP,55,Write Transaction,00 00,..,,,,,,,,,,
0,2077,2:29.761.342,82.000 us,2 B,,SP,55,Read Transaction,00 00*,..,,,,,,,,,,
0,2078,2:29.776.003,79.000 us,2 B,,SP,55,Write Transaction,00 00,..,,,,,,,,,,
0,2079,2:29.781.350,82.300 us,2 B,,SP,55,Read Transaction,00 08*,..,,,,,,,,,,
0,2080,2:29.781.709,79.100 us,2 B,,SP,55,Write Transaction,12 01,..,,,,,,,,,,
0,2081,2:29.790.049,2.322.600 ms,92 B,,SP,55,Read Transaction,00 95 FD 4C 02 56 01 B3 02 54 5C 02 53 F5 1F FF F8 1F FF F8 2F FF FE 20 00 00 02 02 EE 64 00 00 00 00 00 00 00 00 00 00 00 00 00 00 00 03 00 00 00 00 00 00 00 00 00 00 00 00 00 00 00 00 00 00 00 00 00 00 00 00 00 00 00 00 00 00 00 00 00 00 00 00 02 00 01 4F 00 00 00 00 05 05*,...L.V...T\.S......./.. …,,,,,,,,,,
0,2082,2:29.796.020,79.000 us,2 B,,SP,55,Write Transaction,00 00,..,,,,,,,,,,
0,2083,2:29.801.367,82.000 us,2 B,,SP,55,Read Transaction,00 00*,..,,,,,,,,,,
0,2084,2:29.816.053,79.000 us,2 B,,SP,55,Write Transaction,00 00,..,,,,,,,,,,
0,2085,2:29.821.400,82.200 us,2 B,,SP,55,Read Transaction,00 08*,..,,,,,,,,,,
0,2086,2:29.821.759,79.000 us,2 B,,SP,55,Write Transaction,12 01,..,,,,,,,,,,
0,2087,2:29.830.098,2.323.600 ms,92 B,,SP,55,Read Transaction,00 9A FD 52 02 58 01 B4 02 54 53 02 53 EA 1F FF FA 1F FF F9 20 00 07 20 00 08 02 02 EE 64 00 00 00 00 00 00 00 00 00 00 00 00 00 00 00 03 00 00 00 00 00 00 00 00 00 00 00 00 00 00 00 00 00 00 00 00 00 00 00 00 00 00 00 00 00 00 00 00 00 00 00 00 02 00 01 4F 00 00 00 00 05 05*,...R.X...TS.S....... .. …,,,,,,,,,,
0,2088,2:29.836.070,79.200 us,2 B,,SP,55,Write Transaction,00 00,..,,,,,,,,,,
0,2089,2:29.841.425,82.100 us,2 B,,SP,55,Read Transaction,00 00*,..,,,,,,,,,,
0,2090,2:29.855.833,79.000 us,2 B,,SP,55,Write Transaction,00 00,..,,,,,,,,,,
0,2091,2:29.861.181,82.300 us,2 B,,SP,55,Read Transaction,00 08*,..,,,,,,,,,,
0,2092,2:29.861.541,79.000 us,2 B,,SP,55,Write Transaction,12 01,..,,,,,,,,,,
0,2093,2:29.869.882,2.322.300 ms,92 B,,SP,55,Read Transaction,00 9F FD 4E 02 55 01 AC 02 54 5C 02 53 F4 1F FF FE 1F FF FC 20 00 09 20 00 0B 02 02 F8 64 00 00 00 00 00 00 00 00 00 00 00 00 00 00 00 03 00 00 00 00 00 00 00 00 00 00 00 00 00 00 00 00 00 00 00 00 00 00 00 00 00 00 00 00 00 00 00 00 00 00 00 00 02 00 01 4F 00 00 00 00 05 05*,...N.U...T\.S....... .. …,,,,,,,,,,
0,2094,2:29.875.858,79.100 us,2 B,,SP,55,Write Transaction,00 00,..,,,,,,,,,,
0,2095,2:29.881.205,82.000 us,2 B,,SP,55,Read Transaction,00 00*,..,,,,,,,,,,
0,2096,2:29.895.870,79.100 us,2 B,,SP,55,Write Transaction,00 00,..,,,,,,,,,,
0,2097,2:29.901.215,84.700 us,2 B,,SP,55,Read Transaction,00 00*,..,,,,,,,,,,
0,2098,2:29.915.890,79.000 us,2 B,,SP,55,Write Transaction,00 00,..,,,,,,,,,,
0,2099,2:29.921.236,81.900 us,2 B,,SP,55,Read Transaction,00 00*,..,,,,,,,,,,
0,2100,2:29.935.909,79.000 us,2 B,,SP,55,Write Transaction,00 00,..,,,,,,,,,,
0,2101,2:29.941.258,82.300 us,2 B,,SP,55,Read Transaction,00 08*,..,,,,,,,,,,
0,2102,2:29.941.617,79.000 us,2 B,,SP,55,Write Transaction,12 01,..,,,,,,,,,,
0,2103,2:29.949.962,2.321.800 ms,92 B,,SP,55,Read Transaction,00 A4 FD 4D 02 57 01 B0 02 54 BD 02 54 5D 10 00 11 10 00 0F 20 00 02 20 00 01 02 02 F8 64 00 00 00 00 00 00 00 00 00 00 00 00 00 00 00 03 00 00 00 00 00 00 00 00 00 00 00 00 00 00 00 00 00 00 00 00 00 00 00 00 00 00 00 00 00 00 00 00 00 00 00 00 02 00 01 4F 00 00 00 00 05 05*,...M.W...T..T]...... .. …,,,,,,,,,,
0,2104,2:29.955.939,79.000 us,2 B,,SP,55,Write Transaction,00 00,..,,,,,,,,,,
0,2105,2:29.961.284,81.900 us,2 B,,SP,55,Read Transaction,00 00*,..,,,,,,,,,,
0,2106,2:29.975.951,79.000 us,2 B,,SP,55,Write Transaction,00 00,..,,,,,,,,,,
0,2107,2:29.981.301,82.200 us,2 B,,SP,55,Read Transaction,00 08*,..,,,,,,,,,,
0,2108,2:29.981.659,79.000 us,2 B,,SP,55,Write Transaction,12 01,..,,,,,,,,,,
0,2109,2:29.989.999,2.322.200 ms,92 B,,SP,55,Read Transaction,00 A9 FD 4D 02 54 01 B2 02 55 5F 02 54 F9 1F FF FE 1F FF FF 20 00 02 20 00 02 02 02 F8 64 00 00 00 00 00 00 00 00 00 00 00 00 00 00 00 03 00 00 00 00 00 00 00 00 00 00 00 00 00 00 00 00 00 00 00 00 00 00 00 00 00 00 00 00 00 00 00 00 00 00 00 00 02 00 01 4F 00 00 00 00 05 05*,...M.T...U_.T....... .. …,,,,,,,,,,
0,2110,2:29.995.990,79.000 us,2 B,,SP,55,Write Transaction,00 00,..,,,,,,,,,,
0,2111,2:30.001.338,81.900 us,2 B,,SP,55,Read Transaction,00 00*,..,,,,,,,,,,
0,2112,2:30.015.991,79.000 us,2 B,,SP,55,Write Transaction,00 00,..,,,,,,,,,,
0,2113,2:30.021.335,82.300 us,2 B,,SP,55,Read Transaction,00 08*,..,,,,,,,,,,
0,2114,2:30.021.694,79.000 us,2 B,,SP,55,Write Transaction,12 01,..,,,,,,,,,,
0,2115,2:30.030.031,2.322.300 ms,92 B,,SP,55,Read Transaction,00 AE FD 52 02 57 01 B1 02 56 36 02 55 CD 1F FF FA 1F FF FA 20 00 04 20 00 05 02 02 F8 64 00 00 00 00 00 00 00 00 00 00 00 00 00 00 00 03 00 00 00 00 00 00 00 00 00 00 00 00 00 00 00 00 00 00 00 00 00 00 00 00 00 00 00 00 00 00 00 00 00 00 00 00 02 00 01 4F 00 00 00 00 05 05*,...R.W...V6.U....... .. …,,,,,,,,,,
0,2116,2:30.036.004,79.000 us,2 B,,SP,55,Write Transaction,00 00,..,,,,,,,,,,
0,2117,2:30.041.353,82.000 us,2 B,,SP,55,Read Transaction,00 00*,..,,,,,,,,,,
0,2118,2:30.056.027,78.900 us,2 B,,SP,55,Write Transaction,00 00,..,,,,,,,,,,
0,2119,2:30.061.371,82.200 us,2 B,,SP,55,Read Transaction,00 08*,..,,,,,,,,,,
0,2120,2:30.061.730,79.000 us,2 B,,SP,55,Write Transaction,12 01,..,,,,,,,,,,
0,2121,2:30.070.083,2.326.100 ms,92 B,,SP,55,Read Transaction,00 B3 FD 54 02 51 01 B6 02 57 10 02 56 AC 10 00 00 10 00 00 2F FF EF 2F FF F1 02 02 F8 64 00 00 00 00 00 00 00 00 00 00 00 00 00 00 00 03 00 00 00 00 00 00 00 00 00 00 00 00 00 00 00 00 00 00 00 00 00 00 00 00 00 00 00 00 00 00 00 00 00 00 00 00 02 00 01 4F 00 00 00 00 05 05*,...T.Q...W..V......./../…,,,,,,,,,,
0,2122,2:30.076.044,79.000 us,2 B,,SP,55,Write Transaction,00 00,..,,,,,,,,,,
0,2123,2:30.081.389,82.000 us,2 B,,SP,55,Read Transaction,00 00*,..,,,,,,,,,,
0,2124,2:30.096.064,79.000 us,2 B,,SP,55,Write Transaction,00 00,..,,,,,,,,,,
0,2125,2:30.101.411,82.300 us,2 B,,SP,55,Read Transaction,00 00*,..,,,,,,,,,,
0,2126,2:30.115.834,79.100 us,2 B,,SP,55,Write Transaction,00 00,..,,,,,,,,,,
0,2127,2:30.121.181,81.900 us,2 B,,SP,55,Read Transaction,00 00*,..,,,,,,,,,,
0,2128,2:30.135.850,79.000 us,2 B,,SP,55,Write Transaction,00 00,..,,,,,,,,,,
0,2129,2:30.141.196,82.200 us,2 B,,SP,55,Read Transaction,00 08*,..,,,,,,,,,,
0,2130,2:30.141.554,79.000 us,2 B,,SP,55,Write Transaction,12 01,..,,,,,,,,,,
0,2131,2:30.149.895,2.322.400 ms,92 B,,SP,55,Read Transaction,00 B8 FD 4D 02 59 01 AF 02 58 2B 02 57 BF 1F FF EF 1F FF EE 20 00 18 20 00 17 02 02 F8 64 00 00 00 00 00 00 00 00 00 00 00 00 00 00 00 03 00 00 00 00 00 00 00 00 00 00 00 00 00 00 00 00 00 00 00 00 00 00 00 00 00 00 00 00 00 00 00 00 00 00 00 00 02 00 01 4F 00 00 00 00 05 05*,...M.Y...X+.W....... .. …,,,,,,,,,,
0,2132,2:30.155.868,79.100 us,2 B,,SP,55,Write Transaction,00 00,..,,,,,,,,,,
0,2133,2:30.161.215,81.900 us,2 B,,SP,55,Read Transaction,00 00*,..,,,,,,,,,,
0,2134,2:30.175.894,79.100 us,2 B,,SP,55,Write Transaction,00 00,..,,,,,,,,,,
0,2135,2:30.181.241,82.300 us,2 B,,SP,55,Read Transaction,00 08*,..,,,,,,,,,,
0,2136,2:30.181.600,79.000 us,2 B,,SP,55,Write Transaction,12 01,..,,,,,,,,,,
0,2137,2:30.189.941,2.322.600 ms,92 B,,SP,55,Read Transaction,00 BD FD 51 02 58 01 B3 02 59 31 02 58 CB 1F FF FF 1F FF FE 20 00 06 20 00 07 02 02 F8 64 00 00 00 00 00 00 00 00 00 00 00 00 00 00 00 03 00 00 00 00 00 00 00 00 00 00 00 00 00 00 00 00 00 00 00 00 00 00 00 00 00 00 00 00 00 00 00 00 00 00 00 00 02 00 01 4F 00 00 00 00 05 05*,...Q.X...Y1.X....... .. …,,,,,,,,,,
0,2138,2:30.195.915,79.100 us,2 B,,SP,55,Write Transaction,00 00,..,,,,,,,,,,
0,2139,2:30.201.261,82.000 us,2 B,,SP,55,Read Transaction,00 00*,..,,,,,,,,,,
0,2140,2:30.215.927,79.000 us,2 B,,SP,55,Write Transaction,00 00,..,,,,,,,,,,
0,2141,2:30.221.275,82.300 us,2 B,,SP,55,Read Transaction,00 08*,..,,,,,,,,,,
0,2142,2:30.221.636,79.000 us,2 B,,SP,55,Write Transaction,12 01,..,,,,,,,,,,
0,2143,2:30.229.981,2.322.400 ms,92 B,,SP,55,Read Transaction,00 C2 FD 51 02 58 01 B8 02 5A 2B 02 59 C4 10 00 0A 10 00 08 2F FF F0 2F FF EE 02 02 F8 64 00 00 00 00 00 00 00 00 00 00 00 00 00 00 00 03 00 00 00 00 00 00 00 00 00 00 00 00 00 00 00 00 00 00 00 00 00 00 00 00 00 00 00 00 00 00 00 00 00 00 00 00 02 00 01 4F 00 00 00 00 05 05*,...Q.X...Z+.Y......./../…,,,,,,,,,,
0,2144,2:30.235.955,78.900 us,2 B,,SP,55,Write Transaction,00 00,..,,,,,,,,,,
0,2145,2:30.241.302,81.900 us,2 B,,SP,55,Read Transaction,00 00*,..,,,,,,,,,,
0,2146,2:30.255.958,79.100 us,2 B,,SP,55,Write Transaction,00 00,..,,,,,,,,,,
0,2147,2:30.261.305,82.200 us,2 B,,SP,55,Read Transaction,00 08*,..,,,,,,,,,,
0,2148,2:30.261.663,79.100 us,2 B,,SP,55,Write Transaction,12 01,..,,,,,,,,,,
0,2149,2:30.270.007,2.322.500 ms,92 B,,SP,55,Read Transaction,00 C7 FD 52 02 59 01 B0 02 5B 43 02 5A DD 10 00 07 10 00 08 2F FF FF 2F FF FE 02 02 F8 64 1F E6 64 00 00 00 00 00 00 00 00 00 00 00 00 03 00 00 00 00 00 00 00 00 00 00 00 00 00 00 00 00 00 00 00 00 00 00 00 00 00 00 00 00 00 00 00 00 00 00 00 00 02 00 01 4F 00 00 00 00 05 05*,...R.Y...[C.Z......./../…,,,,,,,,,,
0,2150,2:30.275.984,79.000 us,2 B,,SP,55,Write Transaction,00 00,..,,,,,,,,,,
0,2151,2:30.281.330,81.900 us,2 B,,SP,55,Read Transaction,00 00*,..,,,,,,,,,,
0,2152,2:30.296.005,79.000 us,2 B,,SP,55,Write Transaction,00 00,..,,,,,,,,,,
0,2153,2:30.301.350,82.200 us,2 B,,SP,55,Read Transaction,00 00*,..,,,,,,,,,,
0,2154,2:30.316.027,78.900 us,2 B,,SP,55,Write Transaction,00 00,..,,,,,,,,,,
0,2155,2:30.321.373,81.900 us,2 B,,SP,55,Read Transaction,00 00*,..,,,,,,,,,,
0,2156,2:30.336.045,79.000 us,2 B,,SP,55,Write Transaction,00 00,..,,,,,,,,,,
0,2157,2:30.341.390,82.200 us,2 B,,SP,55,Read Transaction,00 08*,..,,,,,,,,,,
0,2158,2:30.341.749,79.000 us,2 B,,SP,55,Write Transaction,12 01,..,,,,,,,,,,
0,2159,2:30.350.086,2.323.200 ms,92 B,,SP,55,Read Transaction,00 CC FD 4C 02 55 01 B3 02 5C 79 02 5C 13 1F FF F9 1F FF F8 20 00 10 20 00 10 02 02 F8 64 00 00 00 00 00 00 00 00 00 00 00 00 00 00 00 03 00 00 00 00 00 00 00 00 00 00 00 00 00 00 00 00 00 00 00 00 00 00 00 00 00 00 00 00 00 00 00 00 00 00 00 00 02 00 01 4F 00 00 00 00 05 05*,...L.U...\y.\....... .. …,,,,,,,,,,
0,2160,2:30.355.812,79.100 us,2 B,,SP,55,Write Transaction,00 00,..,,,,,,,,,,
0,2161,2:30.361.162,81.900 us,2 B,,SP,55,Read Transaction,00 00*,..,,,,,,,,,,
0,2162,2:30.375.839,79.000 us,2 B,,SP,55,Write Transaction,00 00,..,,,,,,,,,,
0,2163,2:30.381.185,82.200 us,2 B,,SP,55,Read Transaction,00 08*,..,,,,,,,,,,
0,2164,2:30.381.544,79.000 us,2 B,,SP,55,Write Transaction,12 01,..,,,,,,,,,,
0,2165,2:30.389.884,2.322.500 ms,92 B,,SP,55,Read Transaction,00 D1 FD 4D 02 55 01 B4 02 5D 39 02 5C D6 1F FF FE 1F FF FF 20 00 06 20 00 07 02 02 F8 64 00 00 00 00 00 00 00 00 00 00 00 00 00 00 00 03 00 00 00 00 00 00 00 00 00 00 00 00 00 00 00 00 00 00 00 00 00 00 00 00 00 00 00 00 00 00 00 00 00 00 00 00 02 00 01 4F 00 00 00 00 05 05*,...M.U...]9.\....... .. …,,,,,,,,,,
0,2166,2:30.395.852,79.000 us,2 B,,SP,55,Write Transaction,00 00,..,,,,,,,,,,
0,2167,2:30.401.201,81.900 us,2 B,,SP,55,Read Transaction,00 00*,..,,,,,,,,,,
0,2168,2:30.415.868,79.000 us,2 B,,SP,55,Write Transaction,00 00,..,,,,,,,,,,
0,2169,2:30.421.212,82.200 us,2 B,,SP,55,Read Transaction,00 08*,..,,,,,,,,,,
0,2170,2:30.421.571,78.900 us,2 B,,SP,55,Write Transaction,12 01,..,,,,,,,,,,
0,2171,2:30.429.910,2.322.100 ms,92 B,,SP,55,Read Transaction,00 D6 FD 4E 02 55 01 ED 02 5B E9 02 5B 84 10 00 04 10 00 03 20 00 09 20 00 0A 02 02 F8 64 00 00 00 00 00 00 00 00 00 00 00 00 00 00 00 03 00 00 00 00 00 00 00 00 00 00 00 00 00 00 00 00 00 00 00 00 00 00 00 00 00 00 00 00 00 00 00 00 00 00 00 00 02 00 01 4F 00 00 00 00 05 05*,...N.U...[..[....... .. …,,,,,,,,,,
0,2172,2:30.435.898,79.000 us,2 B,,SP,55,Write Transaction,00 00,..,,,,,,,,,,
0,2173,2:30.441.242,82.000 us,2 B,,SP,55,Read Transaction,00 00*,..,,,,,,,,,,
0,2174,2:30.455.920,79.000 us,2 B,,SP,55,Write Transaction,00 00,..,,,,,,,,,,
0,2175,2:30.461.266,82.300 us,2 B,,SP,55,Read Transaction,00 08*,..,,,,,,,,,,
0,2176,2:30.461.625,79.100 us,2 B,,SP,55,Write Transaction,12 01,..,,,,,,,,,,
0,2177,2:30.469.965,2.322.100 ms,92 B,,SP,55,Read Transaction,00 DB FD 4F 02 58 01 B4 02 59 8A 02 59 25 1F FF F6 1F FF F7 20 00 0B 20 00 0C 02 02 F8 64 00 00 00 00 00 00 00 00 00 00 00 00 00 00 00 03 00 00 00 00 00 00 00 00 00 00 00 00 00 00 00 00 00 00 00 00 00 00 00 00 00 00 00 00 00 00 00 00 00 00 00 00 02 00 01 4F 00 00 00 00 05 05*,...O.X...Y..Y%...... .. …,,,,,,,,,,
0,2178,2:30.475.936,79.000 us,2 B,,SP,55,Write Transaction,00 00,..,,,,,,,,,,
0,2179,2:30.481.281,81.900 us,2 B,,SP,55,Read Transaction,00 00*,..,,,,,,,,,,
0,2180,2:30.495.948,79.100 us,2 B,,SP,55,Write Transaction,00 00,..,,,,,,,,,,
0,2181,2:30.501.301,82.400 us,2 B,,SP,55,Read Transaction,00 00*,..,,,,,,,,,,
0,2182,2:30.515.963,79.000 us,2 B,,SP,55,Write Transaction,00 00,..,,,,,,,,,,
0,2183,2:30.521.310,82.000 us,2 B,,SP,55,Read Transaction,00 00*,..,,,,,,,,,,
0,2184,2:30.535.989,79.000 us,2 B,,SP,55,Write Transaction,00 00,..,,,,,,,,,,
0,2185,2:30.541.335,82.300 us,2 B,,SP,55,Read Transaction,00 08*,..,,,,,,,,,,
0,2186,2:30.541.694,79.000 us,2 B,,SP,55,Write Transaction,12 01,..,,,,,,,,,,
0,2187,2:30.550.034,2.322.600 ms,92 B,,SP,55,Read Transaction,00 E0 FD 4C 02 55 01 AE 02 57 FA 02 57 95 1F FF F4 1F FF F4 20 00 0E 20 00 0B 02 02 F8 64 00 00 00 00 00 00 00 00 00 00 00 00 00 00 00 03 00 00 00 00 00 00 00 00 00 00 00 00 00 00 00 00 00 00 00 00 00 00 00 00 00 00 00 00 00 00 00 00 00 00 00 00 02 00 01 4F 00 00 00 00 05 05*,...L.U...W..W....... .. …,,,,,,,,,,
0,2188,2:30.556.009,79.100 us,2 B,,SP,55,Write Transaction,00 00,..,,,,,,,,,,
0,2189,2:30.561.355,81.900 us,2 B,,SP,55,Read Transaction,00 00*,..,,,,,,,,,,
0,2190,2:30.576.017,79.100 us,2 B,,SP,55,Write Transaction,00 00,..,,,,,,,,,,
0,2191,2:30.581.373,82.400 us,2 B,,SP,55,Read Transaction,00 08*,..,,,,,,,,,,
0,2192,2:30.581.734,79.100 us,2 B,,SP,55,Write Transaction,12 01,..,,,,,,,,,,
0,2193,2:30.590.078,2.322.600 ms,92 B,,SP,55,Read Transaction,00 E5 FD 4F 02 55 01 B7 02 56 E7 02 56 82 1F FF EB 1F FF EB 2F FF F8 2F FF F9 02 02 F8 64 00 00 00 00 00 00 00 00 00 00 00 00 00 00 00 03 00 00 00 00 00 00 00 00 00 00 00 00 00 00 00 00 00 00 00 00 00 00 00 00 00 00 00 00 00 00 00 00 00 00 00 00 02 00 01 53 00 00 00 00 05 05*,...O.U...V..V......./../…,,,,,,,,,,
0,2194,2:30.596.044,79.000 us,2 B,,SP,55,Write Transaction,00 00,..,,,,,,,,,,
0,2195,2:30.601.391,81.900 us,2 B,,SP,55,Read Transaction,00 00*,..,,,,,,,,,,
0,2196,2:30.615.817,79.000 us,2 B,,SP,55,Write Transaction,00 00,..,,,,,,,,,,
0,2197,2:30.621.162,82.300 us,2 B,,SP,55,Read Transaction,00 08*,..,,,,,,,,,,
0,2198,2:30.621.520,79.000 us,2 B,,SP,55,Write Transaction,12 01,..,,,,,,,,,,
0,2199,2:30.629.863,2.322.300 ms,92 B,,SP,55,Read Transaction,00 EA FD 4D 02 57 01 B3 02 56 5F 02 55 F7 1F FF F4 1F FF F8 2F FF EF 2F FF EC 02 02 F8 64 00 00 00 00 00 00 00 00 00 00 00 00 00 00 00 03 00 00 00 00 00 00 00 00 00 00 00 00 00 00 00 00 00 00 00 00 00 00 00 00 00 00 00 00 00 00 00 00 00 00 00 00 02 00 01 53 00 00 00 00 05 05*,...M.W...V_.U......./../…,,,,,,,,,,
0,2200,2:30.635.837,79.000 us,2 B,,SP,55,Write Transaction,00 00,..,,,,,,,,,,
0,2201,2:30.641.183,81.900 us,2 B,,SP,55,Read Transaction,00 00*,..,,,,,,,,,,
0,2202,2:30.655.851,79.000 us,2 B,,SP,55,Write Transaction,00 00,..,,,,,,,,,,
0,2203,2:30.661.195,82.200 us,2 B,,SP,55,Read Transaction,00 08*,..,,,,,,,,,,
0,2204,2:30.661.553,78.900 us,2 B,,SP,55,Write Transaction,12 01,..,,,,,,,,,,
0,2205,2:30.669.896,2.322.600 ms,92 B,,SP,55,Read Transaction,00 EF FD 4B 02 52 01 B3 02 56 63 02 55 FD 10 00 02 10 00 02 20 00 0A 20 00 09 02 03 02 64 00 00 00 00 00 00 00 00 00 00 00 00 00 00 00 03 00 00 00 00 00 00 00 00 00 00 00 00 00 00 00 00 00 00 00 00 00 00 00 00 00 00 00 00 00 00 00 00 00 00 00 00 02 00 01 53 00 00 00 00 05 05*,...K.R...Vc.U....... .. …,,,,,,,,,,
0,2206,2:30.675.882,79.100 us,2 B,,SP,55,Write Transaction,00 00,..,,,,,,,,,,
0,2207,2:30.681.226,81.900 us,2 B,,SP,55,Read Transaction,00 00*,..,,,,,,,,,,
0,2208,2:30.695.893,79.000 us,2 B,,SP,55,Write Transaction,00 00,..,,,,,,,,,,
0,2209,2:30.701.239,82.300 us,2 B,,SP,55,Read Transaction,00 00*,..,,,,,,,,,,
0,2210,2:30.715.937,79.000 us,2 B,,SP,55,Write Transaction,00 00,..,,,,,,,,,,
0,2211,2:30.721.287,82.000 us,2 B,,SP,55,Read Transaction,00 00*,..,,,,,,,,,,
0,2212,2:30.735.931,79.200 us,2 B,,SP,55,Write Transaction,00 00,..,,,,,,,,,,
0,2213,2:30.741.285,82.400 us,2 B,,SP,55,Read Transaction,00 08*,..,,,,,,,,,,
0,2214,2:30.741.646,79.100 us,2 B,,SP,55,Write Transaction,12 01,..,,,,,,,,,,
0,2215,2:30.749.995,2.322.300 ms,92 B,,SP,55,Read Transaction,00 F4 FD 4C 02 57 01 B2 02 56 83 02 56 1B 1F FF FD 1F FF FC 20 00 02 20 00 03 02 03 02 64 00 00 00 00 00 00 00 00 00 00 00 00 00 00 00 03 00 00 00 00 00 00 00 00 00 00 00 00 00 00 00 00 00 00 00 00 00 00 00 00 00 00 00 00 00 00 00 00 00 00 00 00 02 00 01 53 00 00 00 00 05 05*,...L.W...V..V....... .. …,,,,,,,,,,
0,2216,2:30.755.955,79.000 us,2 B,,SP,55,Write Transaction,00 00,..,,,,,,,,,,
0,2217,2:30.761.304,82.000 us,2 B,,SP,55,Read Transaction,00 00*,..,,,,,,,,,,
0,2218,2:30.775.967,79.200 us,2 B,,SP,55,Write Transaction,00 00,..,,,,,,,,,,
0,2219,2:30.781.320,82.300 us,2 B,,SP,55,Read Transaction,00 08*,..,,,,,,,,,,
0,2220,2:30.781.679,79.000 us,2 B,,SP,55,Write Transaction,12 01,..,,,,,,,,,,
0,2221,2:30.790.017,2.322.500 ms,92 B,,SP,55,Read Transaction,00 F9 FD 4E 02 55 01 B1 02 56 FF 02 56 9A 10 00 0B 10 00 0B 20 00 08 20 00 08 02 03 02 64 00 00 00 00 00 00 00 00 00 00 00 00 00 00 00 03 00 00 00 00 00 00 00 00 00 00 00 00 00 00 00 00 00 00 00 00 00 00 00 00 00 00 00 00 00 00 00 00 00 00 00 00 02 00 01 53 00 00 00 00 05 05*,...N.U...V..V....... .. …,,,,,,,,,,
0,2222,2:30.795.989,79.100 us,2 B,,SP,55,Write Transaction,00 00,..,,,,,,,,,,
0,2223,2:30.801.341,82.000 us,2 B,,SP,55,Read Transaction,00 00*,..,,,,,,,,,,
0,2224,2:30.816.000,79.100 us,2 B,,SP,55,Write Transaction,00 00,..,,,,,,,,,,
0,2225,2:30.821.350,82.300 us,2 B,,SP,55,Read Transaction,00 08*,..,,,,,,,,,,
0,2226,2:30.821.709,79.100 us,2 B,,SP,55,Write Transaction,12 01,..,,,,,,,,,,
0,2227,2:30.830.049,2.322.400 ms,92 B,,SP,55,Read Transaction,00 FE FD 4B 02 57 01 B3 02 57 A6 02 57 43 10 00 08 10 00 07 20 00 00 2F FF FF 02 03 02 64 00 00 00 00 00 00 00 00 00 00 00 00 00 00 00 03 00 00 00 00 00 00 00 00 00 00 00 00 00 00 00 00 00 00 00 00 00 00 00 00 00 00 00 00 00 00 00 00 00 00 00 00 02 00 01 53 00 00 00 00 05 05*,...K.W...W..WC...... ../…,,,,,,,,,,
0,2228,2:30.836.027,79.000 us,2 B,,SP,55,Write Transaction,00 00,..,,,,,,,,,,
0,2229,2:30.841.373,81.900 us,2 B,,SP,55,Read Transaction,00 00*,..,,,,,,,,,,
0,2230,2:30.855.799,79.000 us,2 B,,SP,55,Write Transaction,00 00,..,,,,,,,,,,
0,2231,2:30.861.145,82.300 us,2 B,,SP,55,Read Transaction,00 08*,..,,,,,,,,,,
0,2232,2:30.861.504,79.000 us,2 B,,SP,55,Write Transaction,12 01,..,,,,,,,,,,
0,2233,2:30.869.845,2.322.200 ms,92 B,,SP,55,Read Transaction,00 03 FD 4E 02 59 01 AE 02 58 A9 02 58 41 10 00 00 10 00 01 2F FF FC 2F FF FB 02 03 02 64 00 00 00 00 00 00 00 00 00 00 00 00 00 00 00 03 00 00 00 00 00 00 00 00 00 00 00 00 00 00 00 00 00 00 00 00 00 00 00 00 00 00 00 00 00 00 00 00 00 00 00 00 02 00 01 53 00 00 00 00 06 06*,...N.Y...X..XA....../../…,,,,,,,,,,
0,2234,2:30.875.812,79.000 us,2 B,,SP,55,Write Transaction,00 00,..,,,,,,,,,,
0,2235,2:30.881.163,82.000 us,2 B,,SP,55,Read Transaction,00 00*,..,,,,,,,,,,
0,2236,2:30.895.833,79.100 us,2 B,,SP,55,Write Transaction,00 00,..,,,,,,,,,,
0,2237,2:30.901.179,82.200 us,2 B,,SP,55,Read Transaction,00 00*,..,,,,,,,,,,
0,2238,2:30.915.849,79.000 us,2 B,,SP,55,Write Transaction,00 00,..,,,,,,,,,,
0,2239,2:30.921.195,81.900 us,2 B,,SP,55,Read Transaction,00 00*,..,,,,,,,,,,
0,2240,2:30.935.861,79.000 us,2 B,,SP,55,Write Transaction,00 00,..,,,,,,,,,,
0,2241,2:30.941.210,82.200 us,2 B,,SP,55,Read Transaction,00 08*,..,,,,,,,,,,
0,2242,2:30.941.570,79.000 us,2 B,,SP,55,Write Transaction,12 01,..,,,,,,,,,,
0,2243,2:30.949.910,2.321.000 ms,92 B,,SP,55,Read Transaction,00 08 FD 4D 02 56 01 B3 02 59 AD 02 59 43 10 00 11 10 00 0F 20 00 08 20 00 09 02 03 02 64 00 00 00 00 00 00 00 00 00 00 00 00 00 00 00 03 00 00 00 00 00 00 00 00 00 00 00 00 00 00 00 00 00 00 00 00 00 00 00 00 00 00 00 00 00 00 00 00 00 00 00 00 02 00 01 53 00 00 00 00 06 06*,...M.V...Y..YC...... .. …,,,,,,,,,,
0,2244,2:30.955.899,79.100 us,2 B,,SP,55,Write Transaction,00 00,..,,,,,,,,,,
0,2245,2:30.961.248,81.900 us,2 B,,SP,55,Read Transaction,00 00*,..,,,,,,,,,,
0,2246,2:30.975.898,79.000 us,2 B,,SP,55,Write Transaction,00 00,..,,,,,,,,,,
0,2247,2:30.981.242,82.300 us,2 B,,SP,55,Read Transaction,00 08*,..,,,,,,,,,,
0,2248,2:30.981.601,79.000 us,2 B,,SP,55,Write Transaction,12 01,..,,,,,,,,,,
0,2249,2:30.989.943,2.323.300 ms,92 B,,SP,55,Read Transaction,00 0D FD 4D 02 59 01 B0 02 5A A0 02 5A 37 1F FF F3 1F FF F3 20 00 0A 20 00 0B 02 03 02 64 00 00 00 00 00 00 00 00 00 00 00 00 00 00 00 03 00 00 00 00 00 00 00 00 00 00 00 00 00 00 00 00 00 00 00 00 00 00 00 00 00 00 00 00 00 00 00 00 00 00 00 00 02 00 01 53 00 00 00 00 06 06*,...M.Y...Z..Z7...... .. …,,,,,,,,,,
0,2250,2:30.995.925,79.100 us,2 B,,SP,55,Write Transaction,00 00,..,,,,,,,,,,
0,2251,2:31.001.276,81.900 us,2 B,,SP,55,Read Transaction,00 00*,..,,,,,,,,,,
0,2252,2:31.015.942,79.100 us,2 B,,SP,55,Write Transaction,00 00,..,,,,,,,,,,
0,2253,2:31.021.288,82.200 us,2 B,,SP,55,Read Transaction,00 08*,..,,,,,,,,,,
0,2254,2:31.021.646,79.000 us,2 B,,SP,55,Write Transaction,12 01,..,,,,,,,,,,
0,2255,2:31.029.988,2.322.400 ms,92 B,,SP,55,Read Transaction,00 12 FD 4D 02 57 01 B1 02 5B B5 02 5B 4D 1F FF F5 1F FF F4 2F FF F2 2F FF F3 02 03 02 64 00 00 00 00 00 00 00 00 00 00 00 00 00 00 00 03 00 00 00 00 00 00 00 00 00 00 00 00 00 00 00 00 00 00 00 00 00 00 00 00 00 00 00 00 00 00 00 00 00 00 00 00 02 00 01 53 00 00 00 00 06 06*,...M.W...[..[M....../../…,,,,,,,,,,
0,2256,2:31.035.961,79.100 us,2 B,,SP,55,Write Transaction,00 00,..,,,,,,,,,,
0,2257,2:31.041.308,81.900 us,2 B,,SP,55,Read Transaction,00 00*,..,,,,,,,,,,
0,2258,2:31.055.975,79.000 us,2 B,,SP,55,Write Transaction,00 00,..,,,,,,,,,,
0,2259,2:31.061.320,82.200 us,2 B,,SP,55,Read Transaction,00 08*,..,,,,,,,,,,
0,2260,2:31.061.679,79.000 us,2 B,,SP,55,Write Transaction,12 01,..,,,,,,,,,,
0,2261,2:31.070.020,2.322.500 ms,92 B,,SP,55,Read Transaction,00 17 FD 50 02 55 01 B3 02 5C CE 02 5C 66 1F FF F1 1F FF F3 20 00 03 20 00 02 02 03 02 64 00 00 00 00 00 00 00 00 00 00 00 00 00 00 00 03 00 00 00 00 00 00 00 00 00 00 00 00 00 00 00 00 00 00 00 00 00 00 00 00 00 00 00 00 00 00 00 00 00 00 00 00 02 00 01 53 00 00 00 00 06 06*,...P.U...\..\f...... .. …,,,,,,,,,,
0,2262,2:31.076.028,79.000 us,2 B,,SP,55,Write Transaction,00 00,..,,,,,,,,,,
0,2263,2:31.081.376,82.000 us,2 B,,SP,55,Read Transaction,00 00*,..,,,,,,,,,,
0,2264,2:31.096.012,79.000 us,2 B,,SP,55,Write Transaction,00 00,..,,,,,,,,,,
0,2265,2:31.101.358,82.200 us,2 B,,SP,55,Read Transaction,00 00*,..,,,,,,,,,,
0,2266,2:31.115.797,79.100 us,2 B,,SP,55,Write Transaction,00 00,..,,,,,,,,,,
0,2267,2:31.121.144,81.900 us,2 B,,SP,55,Read Transaction,00 00*,..,,,,,,,,,,
0,2268,2:31.135.816,79.000 us,2 B,,SP,55,Write Transaction,00 00,..,,,,,,,,,,
0,2269,2:31.141.162,82.300 us,2 B,,SP,55,Read Transaction,00 08*,..,,,,,,,,,,
0,2270,2:31.141.521,79.000 us,2 B,,SP,55,Write Transaction,12 01,..,,,,,,,,,,
0,2271,2:31.149.861,2.322.300 ms,92 B,,SP,55,Read Transaction,00 1C FD 4D 02 55 01 B3 02 5D EA 02 5D 82 1F FF F5 1F FF F1 20 00 04 20 00 02 02 03 02 64 20 12 64 00 00 00 00 00 00 00 00 00 00 00 00 03 00 00 00 00 00 00 00 00 00 00 00 00 00 00 00 00 00 00 00 00 00 00 00 00 00 00 00 00 00 00 00 00 00 00 00 00 02 00 01 53 00 00 00 00 06 06*,...M.U...]..]....... .. …,,,,,,,,,,
0,2272,2:31.155.832,79.000 us,2 B,,SP,55,Write Transaction,00 00,..,,,,,,,,,,
0,2273,2:31.161.179,81.900 us,2 B,,SP,55,Read Transaction,00 00*,..,,,,,,,,,,
0,2274,2:31.175.856,78.900 us,2 B,,SP,55,Write Transaction,00 00,..,,,,,,,,,,
0,2275,2:31.181.201,82.200 us,2 B,,SP,55,Read Transaction,00 08*,..,,,,,,,,,,
0,2276,2:31.181.560,79.000 us,2 B,,SP,55,Write Transaction,12 01,..,,,,,,,,,,
0,2277,2:31.189.901,2.322.700 ms,92 B,,SP,55,Read Transaction,00 21 FD 4C 02 57 01 B1 02 5E F9 02 5E 93 1F FF F4 1F FF F3 20 00 11 20 00 10 02 03 02 64 00 00 00 00 00 00 00 00 00 00 00 00 00 00 00 03 00 00 00 00 00 00 00 00 00 00 00 00 00 00 00 00 00 00 00 00 00 00 00 00 00 00 00 00 00 00 00 00 00 00 00 00 02 00 01 53 00 00 00 00 06 06*,.!.L.W...^..^....... .. …,,,,,,,,,,
0,2278,2:31.195.869,79.100 us,2 B,,SP,55,Write Transaction,00 00,..,,,,,,,,,,
0,2279,2:31.201.216,81.900 us,2 B,,SP,55,Read Transaction,00 00*,..,,,,,,,,,,
0,2280,2:31.215.895,79.000 us,2 B,,SP,55,Write Transaction,00 00,..,,,,,,,,,,
0,2281,2:31.221.241,82.300 us,2 B,,SP,55,Read Transaction,00 08*,..,,,,,,,,,,
0,2282,2:31.221.600,79.100 us,2 B,,SP,55,Write Transaction,12 01,..,,,,,,,,,,
0,2283,2:31.229.944,2.322.500 ms,92 B,,SP,55,Read Transaction,00 26 FD 4C 02 58 01 AF 02 5E BC 02 5E 54 10 00 01 10 00 02 2F FF FF 20 00 00 02 03 02 64 00 00 00 00 00 00 00 00 00 00 00 00 00 00 00 03 00 00 00 00 00 00 00 00 00 00 00 00 00 00 00 00 00 00 00 00 00 00 00 00 00 00 00 00 00 00 00 00 00 00 00 00 02 00 01 53 00 00 00 00 06 06*,.&.L.X...^..^T....../.. …,,,,,,,,,,
0,2284,2:31.235.902,79.000 us,2 B,,SP,55,Write Transaction,00 00,..,,,,,,,,,,
0,2285,2:31.241.249,81.900 us,2 B,,SP,55,Read Transaction,00 00*,..,,,,,,,,,,
0,2286,2:31.255.932,79.000 us,2 B,,SP,55,Write Transaction,00 00,..,,,,,,,,,,
0,2287,2:31.261.280,82.300 us,2 B,,SP,55,Read Transaction,00 08*,..,,,,,,,,,,
0,2288,2:31.261.640,79.000 us,2 B,,SP,55,Write Transaction,12 01,..,,,,,,,,,,
0,2289,2:31.269.980,2.322.300 ms,92 B,,SP,55,Read Transaction,00 2B FD 4C 02 53 01 AF 02 5C 90 02 5C 28 1F FF F0 1F FF F0 2F FF F4 2F FF F2 02 03 02 64 00 00 00 00 00 00 00 00 00 00 00 00 00 00 00 03 00 00 00 00 00 00 00 00 00 00 00 00 00 00 00 00 00 00 00 00 00 00 00 00 00 00 00 00 00 00 00 00 00 00 00 00 02 00 01 53 00 00 00 00 06 06*,.+.L.S...\..\(....../../…,,,,,,,,,,
0,2290,2:31.275.940,79.100 us,2 B,,SP,55,Write Transaction,00 00,..,,,,,,,,,,
0,2291,2:31.281.287,81.900 us,2 B,,SP,55,Read Transaction,00 00*,..,,,,,,,,,,
0,2292,2:31.295.954,79.000 us,2 B,,SP,55,Write Transaction,00 00,..,,,,,,,,,,
0,2293,2:31.301.302,82.200 us,2 B,,SP,55,Read Transaction,00 00*,..,,,,,,,,,,
0,2294,2:31.315.986,79.000 us,2 B,,SP,55,Write Transaction,00 00,..,,,,,,,,,,
0,2295,2:31.321.332,81.900 us,2 B,,SP,55,Read Transaction,00 00*,..,,,,,,,,,,
0,2296,2:31.336.004,79.100 us,2 B,,SP,55,Write Transaction,00 00,..,,,,,,,,,,
0,2297,2:31.341.355,82.400 us,2 B,,SP,55,Read Transaction,00 08*,..,,,,,,,,,,
0,2298,2:31.341.714,79.200 us,2 B,,SP,55,Write Transaction,12 01,..,,,,,,,,,,
0,2299,2:31.350.058,2.322.000 ms,92 B,,SP,55,Read Transaction,00 30 FD 4B 02 54 01 B1 02 5A 7B 02 5A 19 10 00 04 10 00 03 2F FF FF 2F FF FF 02 03 02 64 00 00 00 00 00 00 00 00 00 00 00 00 00 00 00 03 00 00 00 00 00 00 00 00 00 00 00 00 00 00 00 00 00 00 00 00 00 00 00 00 00 00 00 00 00 00 00 00 00 00 00 00 02 00 01 53 00 00 00 00 06 06*,.0.K.T...Z{.Z......./../…,,,,,,,,,,
0,2300,2:31.355.780,79.000 us,2 B,,SP,55,Write Transaction,00 00,..,,,,,,,,,,
0,2301,2:31.361.124,81.900 us,2 B,,SP,55,Read Transaction,00 00*,..,,,,,,,,,,
0,2302,2:31.375.798,79.000 us,2 B,,SP,55,Write Transaction,00 00,..,,,,,,,,,,
0,2303,2:31.381.145,82.200 us,2 B,,SP,55,Read Transaction,00 08*,..,,,,,,,,,,
0,2304,2:31.381.503,79.000 us,2 B,,SP,55,Write Transaction,12 01,..,,,,,,,,,,
0,2305,2:31.389.860,2.322.700 ms,92 B,,SP,55,Read Transaction,00 35 FD 50 02 53 01 B5 02 58 FC 02 58 95 10 00 07 10 00 08 20 00 07 20 00 07 02 03 02 64 00 00 00 00 00 00 00 00 00 00 00 00 00 00 00 03 00 00 00 00 00 00 00 00 00 00 00 00 00 00 00 00 00 00 00 00 00 00 00 00 00 00 00 00 00 00 00 00 00 00 00 00 02 00 01 57 00 00 00 00 06 06*,.5.P.S...X..X....... .. …,,,,,,,,,,
0,2306,2:31.395.823,79.000 us,2 B,,SP,55,Write Transaction,00 00,..,,,,,,,,,,
0,2307,2:31.401.169,82.200 us,2 B,,SP,55,Read Transaction,00 00*,..,,,,,,,,,,
0,2308,2:31.415.828,79.000 us,2 B,,SP,55,Write Transaction,00 00,..,,,,,,,,,,
0,2309,2:31.421.173,82.200 us,2 B,,SP,55,Read Transaction,00 08*,..,,,,,,,,,,
0,2310,2:31.421.531,79.000 us,2 B,,SP,55,Write Transaction,12 01,..,,,,,,,,,,
0,2311,2:31.429.872,2.322.400 ms,92 B,,SP,55,Read Transaction,00 3A FD 4B 02 58 01 B0 02 58 2D 02 57 C6 10 00 07 10 00 07 2F FF F7 2F FF F6 02 03 02 64 00 00 00 00 00 00 00 00 00 00 00 00 00 00 00 03 00 00 00 00 00 00 00 00 00 00 00 00 00 00 00 00 00 00 00 00 00 00 00 00 00 00 00 00 00 00 00 00 00 00 00 00 02 00 01 57 00 00 00 00 06 06*,.:.K.X...X-.W......./../…,,,,,,,,,,
0,2312,2:31.435.846,79.000 us,2 B,,SP,55,Write Transaction,00 00,..,,,,,,,,,,
0,2313,2:31.441.194,82.100 us,2 B,,SP,55,Read Transaction,00 00*,..,,,,,,,,,,
0,2314,2:31.455.860,79.000 us,2 B,,SP,55,Write Transaction,00 00,..,,,,,,,,,,
0,2315,2:31.461.206,82.300 us,2 B,,SP,55,Read Transaction,00 08*,..,,,,,,,,,,
0,2316,2:31.461.565,79.000 us,2 B,,SP,55,Write Transaction,12 01,..,,,,,,,,,,
0,2317,2:31.469.905,2.322.600 ms,92 B,,SP,55,Read Transaction,00 3F FD 4D 02 5A 01 B5 02 57 F7 02 57 8F 10 00 0B 10 00 0B 2F FF F6 2F FF F6 02 03 02 64 00 00 00 00 00 00 00 00 00 00 00 00 00 00 00 03 00 00 00 00 00 00 00 00 00 00 00 00 00 00 00 00 00 00 00 00 00 00 00 00 00 00 00 00 00 00 00 00 00 00 00 00 02 00 01 57 00 00 00 00 06 06*,.?.M.Z...W..W......./../…,,,,,,,,,,
0,2318,2:31.475.890,79.000 us,2 B,,SP,55,Write Transaction,00 00,..,,,,,,,,,,
0,2319,2:31.481.238,81.900 us,2 B,,SP,55,Read Transaction,00 00*,..,,,,,,,,,,
0,2320,2:31.495.912,79.000 us,2 B,,SP,55,Write Transaction,00 00,..,,,,,,,,,,
0,2321,2:31.501.257,82.200 us,2 B,,SP,55,Read Transaction,00 00*,..,,,,,,,,,,
0,2322,2:31.515.930,78.900 us,2 B,,SP,55,Write Transaction,00 00,..,,,,,,,,,,
0,2323,2:31.521.275,82.000 us,2 B,,SP,55,Read Transaction,00 00*,..,,,,,,,,,,
0,2324,2:31.535.951,79.100 us,2 B,,SP,55,Write Transaction,00 00,..,,,,,,,,,,
0,2325,2:31.541.297,82.300 us,2 B,,SP,55,Read Transaction,00 08*,..,,,,,,,,,,
0,2326,2:31.541.656,79.100 us,2 B,,SP,55,Write Transaction,12 01,..,,,,,,,,,,
0,2327,2:31.549.996,2.320.600 ms,92 B,,SP,55,Read Transaction,00 44 FD 4B 02 58 01 B1 02 58 0C 02 57 AD 1F FF F8 1F FF F9 2F FF FE 2F FF FD 02 03 02 64 00 00 00 00 00 00 00 00 00 00 00 00 00 00 00 03 00 00 00 00 00 00 00 00 00 00 00 00 00 00 00 00 00 00 00 00 00 00 00 00 00 00 00 00 00 00 00 00 00 00 00 00 02 00 01 57 00 00 00 00 06 06*,.D.K.X...X..W......./../…,,,,,,,,,,
0,2328,2:31.555.966,79.000 us,2 B,,SP,55,Write Transaction,00 00,..,,,,,,,,,,
0,2329,2:31.561.315,81.900 us,2 B,,SP,55,Read Transaction,00 00*,..,,,,,,,,,,
0,2330,2:31.575.980,79.000 us,2 B,,SP,55,Write Transaction,00 00,..,,,,,,,,,,
0,2331,2:31.581.327,82.300 us,2 B,,SP,55,Read Transaction,00 08*,..,,,,,,,,,,
0,2332,2:31.581.686,79.000 us,2 B,,SP,55,Write Transaction,12 01,..,,,,,,,,,,
0,2333,2:31.590.026,2.322.600 ms,92 B,,SP,55,Read Transaction,00 49 FD 4B 02 58 01 B2 02 58 27 02 57 C5 1F FF FD 1F FF FB 2F FF F1 2F FF EF 02 03 02 64 00 00 00 00 00 00 00 00 00 00 00 00 00 00 00 03 00 00 00 00 00 00 00 00 00 00 00 00 00 00 00 00 00 00 00 00 00 00 00 00 00 00 00 00 00 00 00 00 00 00 00 00 02 00 01 57 00 00 00 00 06 06*,.I.K.X...X'.W......./../…,,,,,,,,,,
0,2334,2:31.596.000,79.100 us,2 B,,SP,55,Write Transaction,00 00,..,,,,,,,,,,
0,2335,2:31.601.347,81.900 us,2 B,,SP,55,Read Transaction,00 00*,..,,,,,,,,,,
0,2336,2:31.615.775,79.000 us,2 B,,SP,55,Write Transaction,00 00,..,,,,,,,,,,
0,2337,2:31.621.121,82.300 us,2 B,,SP,55,Read Transaction,00 08*,..,,,,,,,,,,
0,2338,2:31.621.481,79.000 us,2 B,,SP,55,Write Transaction,12 01,..,,,,,,,,,,
0,2339,2:31.629.824,2.322.700 ms,92 B,,SP,55,Read Transaction,00 4E FD 51 02 5A 01 B0 02 58 C0 02 58 5E 10 00 06 10 00 08 2F FF FA 2F FF F9 02 03 02 64 00 00 00 00 00 00 00 00 00 00 00 00 00 00 00 03 00 00 00 00 00 00 00 00 00 00 00 00 00 00 00 00 00 00 00 00 00 00 00 00 00 00 00 00 00 00 00 00 00 00 00 00 02 00 01 57 00 00 00 00 06 06*,.N.Q.Z...X..X^....../../…,,,,,,,,,,
0,2340,2:31.635.797,79.000 us,2 B,,SP,55,Write Transaction,00 00,..,,,,,,,,,,
0,2341,2:31.641.143,81.900 us,2 B,,SP,55,Read Transaction,00 00*,..,,,,,,,,,,
0,2342,2:31.655.810,78.900 us,2 B,,SP,55,Write Transaction,00 00,..,,,,,,,,,,
0,2343,2:31.661.159,82.200 us,2 B,,SP,55,Read Transaction,00 08*,..,,,,,,,,,,
0,2344,2:31.661.520,79.100 us,2 B,,SP,55,Write Transaction,12 01,..,,,,,,,,,,
0,2345,2:31.669.861,2.322.600 ms,92 B,,SP,55,Read Transaction,00 53 FD 4D 02 56 01 B4 02 59 75 02 59 0F 1F FF F7 1F FF F7 2F FF F2 2F FF F3 02 03 02 64 00 00 00 00 00 00 00 00 00 00 00 00 00 00 00 03 00 00 00 00 00 00 00 00 00 00 00 00 00 00 00 00 00 00 00 00 00 00 00 00 00 00 00 00 00 00 00 00 00 00 00 00 02 00 01 57 00 00 00 00 06 06*,.S.M.V...Yu.Y......./../…,,,,,,,,,,
0,2346,2:31.675.838,79.000 us,2 B,,SP,55,Write Transaction,00 00,..,,,,,,,,,,
0,2347,2:31.681.186,81.900 us,2 B,,SP,55,Read Transaction,00 00*,..,,,,,,,,,,
0,2348,2:31.695.848,79.100 us,2 B,,SP,55,Write Transaction,00 00,..,,,,,,,,,,
0,2349,2:31.701.195,82.300 us,2 B,,SP,55,Read Transaction,00 00*,..,,,,,,,,,,
0,2350,2:31.715.871,79.000 us,2 B,,SP,55,Write Transaction,00 00,..,,,,,,,,,,
0,2351,2:31.721.223,81.900 us,2 B,,SP,55,Read Transaction,00 00*,..,,,,,,,,,,
0,2352,2:31.735.893,79.000 us,2 B,,SP,55,Write Transaction,00 00,..,,,,,,,,,,
0,2353,2:31.741.239,82.200 us,2 B,,SP,55,Read Transaction,00 08*,..,,,,,,,,,,
0,2354,2:31.741.597,79.000 us,2 B,,SP,55,Write Transaction,12 01,..,,,,,,,,,,
0,2355,2:31.749.940,2.322.600 ms,92 B,,SP,55,Read Transaction,00 58 FD 4D 02 56 01 B1 02 5A 63 02 59 FF 10 00 09 10 00 08 2F FF FA 2F FF FA 02 03 02 64 00 00 00 00 00 00 00 00 00 00 00 00 00 00 00 03 00 00 00 00 00 00 00 00 00 00 00 00 00 00 00 00 00 00 00 00 00 00 00 00 00 00 00 00 00 00 00 00 00 00 00 00 02 00 01 57 00 00 00 00 06 06*,.X.M.V...Zc.Y......./../…,,,,,,,,,,
0,2356,2:31.755.900,79.100 us,2 B,,SP,55,Write Transaction,00 00,..,,,,,,,,,,
0,2357,2:31.761.246,81.900 us,2 B,,SP,55,Read Transaction,00 00*,..,,,,,,,,,,
0,2358,2:31.775.926,79.000 us,2 B,,SP,55,Write Transaction,00 00,..,,,,,,,,,,
0,2359,2:31.781.271,82.400 us,2 B,,SP,55,Read Transaction,00 08*,..,,,,,,,,,,
0,2360,2:31.781.630,79.000 us,2 B,,SP,55,Write Transaction,12 01,..,,,,,,,,,,
0,2361,2:31.789.969,2.322.200 ms,92 B,,SP,55,Read Transaction,00 5D FD 4B 02 52 01 AA 02 5B 55 02 5A EF 10 00 08 10 00 05 2F FF FC 2F FF FB 02 03 02 64 00 00 00 00 00 00 00 00 00 00 00 00 00 00 00 03 00 00 00 00 00 00 00 00 00 00 00 00 00 00 00 00 00 00 00 00 00 00 00 00 00 00 00 00 00 00 00 00 00 00 00 00 02 00 01 57 00 00 00 00 06 06*,.].K.R...[U.Z......./../…,,,,,,,,,,
0,2362,2:31.795.957,79.000 us,2 B,,SP,55,Write Transaction,00 00,..,,,,,,,,,,
0,2363,2:31.801.303,82.000 us,2 B,,SP,55,Read Transaction,00 00*,..,,,,,,,,,,
0,2364,2:31.815.958,79.200 us,2 B,,SP,55,Write Transaction,00 00,..,,,,,,,,,,
0,2365,2:31.821.309,82.300 us,2 B,,SP,55,Read Transaction,00 08*,..,,,,,,,,,,
0,2366,2:31.821.668,79.000 us,2 B,,SP,55,Write Transaction,12 01,..,,,,,,,,,,
0,2367,2:31.830.008,2.322.400 ms,92 B,,SP,55,Read Transaction,00 62 FD 4A 02 59 01 B1 02 5C 66 02 5C 00 10 00 02 10 00 04 2F FF EF 2F FF EE 02 03 02 64 00 00 00 00 00 00 00 00 00 00 00 00 00 00 00 03 00 00 00 00 00 00 00 00 00 00 00 00 00 00 00 00 00 00 00 00 00 00 00 00 00 00 00 00 00 00 00 00 00 00 00 00 02 00 01 57 00 00 00 00 06 06*,.b.J.Y...\f.\......./../…,,,,,,,,,,
0,2368,2:31.835.976,79.000 us,2 B,,SP,55,Write Transaction,00 00,..,,,,,,,,,,
0,2369,2:31.841.325,82.000 us,2 B,,SP,55,Read Transaction,00 00*,..,,,,,,,,,,
0,2370,2:31.855.757,79.100 us,2 B,,SP,55,Write Transaction,00 00,..,,,,,,,,,,
0,2371,2:31.861.105,82.400 us,2 B,,SP,55,Read Transaction,00 08*,..,,,,,,,,,,
0,2372,2:31.861.464,79.200 us,2 B,,SP,55,Write Transaction,12 01,..,,,,,,,,,,
0,2373,2:31.869.804,2.322.300 ms,92 B,,SP,55,Read Transaction,00 67 FD 4B 02 58 01 AE 02 5D 48 02 5C E3 1F FF FE 1F FF FE 2F FF F5 2F FF F4 02 03 02 64 00 00 00 00 00 00 00 00 00 00 00 00 00 00 00 03 00 00 00 00 00 00 00 00 00 00 00 00 00 00 00 00 00 00 00 00 00 00 00 00 00 00 00 00 00 00 00 00 00 00 00 00 02 00 01 57 00 00 00 00 06 06*,.g.K.X...]H.\......./../…,,,,,,,,,,
0,2374,2:31.875.782,79.000 us,2 B,,SP,55,Write Transaction,00 00,..,,,,,,,,,,
0,2375,2:31.881.128,81.900 us,2 B,,SP,55,Read Transaction,00 00*,..,,,,,,,,,,
0,2376,2:31.895.796,79.100 us,2 B,,SP,55,Write Transaction,00 00,..,,,,,,,,,,
0,2377,2:31.901.143,82.300 us,2 B,,SP,55,Read Transaction,00 00*,..,,,,,,,,,,
0,2378,2:31.915.809,79.000 us,2 B,,SP,55,Write Transaction,00 00,..,,,,,,,,,,
0,2379,2:31.921.152,81.900 us,2 B,,SP,55,Read Transaction,00 00*,..,,,,,,,,,,
0,2380,2:31.935.837,79.000 us,2 B,,SP,55,Write Transaction,00 00,..,,,,,,,,,,
0,2381,2:31.941.184,82.200 us,2 B,,SP,55,Read Transaction,00 08*,..,,,,,,,,,,
0,2382,2:31.941.543,79.100 us,2 B,,SP,55,Write Transaction,12 01,..,,,,,,,,,,
0,2383,2:31.949.881,2.322.300 ms,92 B,,SP,55,Read Transaction,00 6C FD 51 02 55 01 B0 02 5E 79 02 5E 12 1F FF F7 1F FF F7 20 00 06 20 00 06 02 03 02 64 20 1E 64 00 00 00 00 00 00 00 00 00 00 00 00 03 00 00 00 00 00 00 00 00 00 00 00 00 00 00 00 00 00 00 00 00 00 00 00 00 00 00 00 00 00 00 00 00 00 00 00 00 02 00 01 57 00 00 00 00 06 06*,.l.Q.U...^y.^....... .. …,,,,,,,,,,
0,2384,2:31.955.854,79.000 us,2 B,,SP,55,Write Transaction,00 00,..,,,,,,,,,,
0,2385,2:31.961.200,81.900 us,2 B,,SP,55,Read Transaction,00 00*,..,,,,,,,,,,
0,2386,2:31.975.875,79.000 us,2 B,,SP,55,Write Transaction,00 00,..,,,,,,,,,,
0,2387,2:31.981.218,82.200 us,2 B,,SP,55,Read Transaction,00 08*,..,,,,,,,,,,
0,2388,2:31.981.577,79.000 us,2 B,,SP,55,Write Transaction,12 01,..,,,,,,,,,,
0,2389,2:31.989.918,2.322.500 ms,92 B,,SP,55,Read Transaction,00 71 FD 48 02 57 01 AE 02 5F 88 02 5F 1F 10 00 05 10 00 05 20 00 01 20 00 01 02 03 02 64 00 00 00 00 00 00 00 00 00 00 00 00 00 00 00 03 00 00 00 00 00 00 00 00 00 00 00 00 00 00 00 00 00 00 00 00 00 00 00 00 00 00 00 00 00 00 00 00 00 00 00 00 02 00 01 57 00 00 00 00 06 06*,.q.H.W..._.._....... .. …,,,,,,,,,,
0,2390,2:31.995.891,79.100 us,2 B,,SP,55,Write Transaction,00 00,..,,,,,,,,,,
0,2391,2:32.001.238,82.000 us,2 B,,SP,55,Read Transaction,00 00*,..,,,,,,,,,,
0,2392,2:32.015.902,78.900 us,2 B,,SP,55,Write Transaction,00 00,..,,,,,,,,,,
0,2393,2:32.021.249,82.400 us,2 B,,SP,55,Read Transaction,00 08*,..,,,,,,,,,,
0,2394,2:32.021.609,79.100 us,2 B,,SP,55,Write Transaction,12 01,..,,,,,,,,,,
0,2395,2:32.029.956,2.325.700 ms,92 B,,SP,55,Read Transaction,00 76 FD 51 02 5B 01 B3 02 60 57 02 5F EC 10 00 09 10 00 08 20 00 0B 20 00 0A 02 03 02 64 00 00 00 00 00 00 00 00 00 00 00 00 00 00 00 03 00 00 00 00 00 00 00 00 00 00 00 00 00 00 00 00 00 00 00 00 00 00 00 00 00 00 00 00 00 00 00 00 00 00 00 00 02 00 01 57 00 00 00 00 06 06*,.v.Q.[...`W._....... .. …,,,,,,,,,,
0,2396,2:32.035.920,79.000 us,2 B,,SP,55,Write Transaction,00 00,..,,,,,,,,,,
0,2397,2:32.041.266,81.900 us,2 B,,SP,55,Read Transaction,00 00*,..,,,,,,,,,,
0,2398,2:32.055.947,79.000 us,2 B,,SP,55,Write Transaction,00 00,..,,,,,,,,,,
0,2399,2:32.061.293,82.400 us,2 B,,SP,55,Read Transaction,00 08*,..,,,,,,,,,,
0,2400,2:32.061.651,79.000 us,2 B,,SP,55,Write Transaction,12 01,..,,,,,,,,,,
0,2401,2:32.069.995,2.324.300 ms,92 B,,SP,55,Read Transaction,00 7B FD 4C 02 56 01 B0 02 5F 23 02 5E BD 1F FF FB 1F FF FA 2F FF F2 2F FF F2 02 03 02 64 00 00 00 00 00 00 00 00 00 00 00 00 00 00 00 03 00 00 00 00 00 00 00 00 00 00 00 00 00 00 00 00 00 00 00 00 00 00 00 00 00 00 00 00 00 00 00 00 00 00 00 00 02 00 01 57 00 00 00 00 06 06*,.{.L.V..._#.^......./../…,,,,,,,,,,
0,2402,2:32.075.957,79.000 us,2 B,,SP,55,Write Transaction,00 00,..,,,,,,,,,,
0,2403,2:32.081.303,82.000 us,2 B,,SP,55,Read Transaction,00 00*,..,,,,,,,,,,
0,2404,2:32.095.979,79.000 us,2 B,,SP,55,Write Transaction,00 00,..,,,,,,,,,,
0,2405,2:32.101.324,82.200 us,2 B,,SP,55,Read Transaction,00 00*,..,,,,,,,,,,
0,2406,2:32.115.758,79.100 us,2 B,,SP,55,Write Transaction,00 00,..,,,,,,,,,,
0,2407,2:32.121.102,81.900 us,2 B,,SP,55,Read Transaction,00 00*,..,,,,,,,,,,
0,2408,2:32.135.767,79.000 us,2 B,,SP,55,Write Transaction,00 00,..,,,,,,,,,,
0,2409,2:32.141.113,82.300 us,2 B,,SP,55,Read Transaction,00 08*,..,,,,,,,,,,
0,2410,2:32.141.472,79.000 us,2 B,,SP,55,Write Transaction,12 01,..,,,,,,,,,,
0,2411,2:32.149.812,2.322.700 ms,92 B,,SP,55,Read Transaction,00 80 FD 4E 02 54 01 AF 02 5C C0 02 5C 58 1F FF F6 1F FF F6 20 00 07 20 00 04 02 03 02 64 00 00 00 00 00 00 00 00 00 00 00 00 00 00 00 03 00 00 00 00 00 00 00 00 00 00 00 00 00 00 00 00 00 00 00 00 00 00 00 00 00 00 00 00 00 00 00 00 00 00 00 00 02 00 01 57 00 00 00 00 06 06*,...N.T...\..\X...... .. …,,,,,,,,,,
0,2412,2:32.155.789,79.000 us,2 B,,SP,55,Write Transaction,00 00,..,,,,,,,,,,
0,2413,2:32.161.137,81.900 us,2 B,,SP,55,Read Transaction,00 00*,..,,,,,,,,,,
0,2414,2:32.175.816,79.100 us,2 B,,SP,55,Write Transaction,00 00,..,,,,,,,,,,
0,2415,2:32.181.163,82.200 us,2 B,,SP,55,Read Transaction,00 08*,..,,,,,,,,,,
0,2416,2:32.181.522,79.000 us,2 B,,SP,55,Write Transaction,12 01,..,,,,,,,,,,
0,2417,2:32.189.863,2.322.400 ms,92 B,,SP,55,Read Transaction,00 85 FD 4C 02 55 01 AC 02 5B 00 02 5A 95 10 00 0B 10 00 0C 2F FF F5 2F FF F4 02 03 02 64 00 00 00 00 00 00 00 00 00 00 00 00 00 00 00 03 00 00 00 00 00 00 00 00 00 00 00 00 00 00 00 00 00 00 00 00 00 00 00 00 00 00 00 00 00 00 00 00 00 00 00 00 02 00 01 57 00 00 00 00 06 06*,...L.U...[..Z......./../…,,,,,,,,,,
0,2418,2:32.195.830,79.000 us,2 B,,SP,55,Write Transaction,00 00,..,,,,,,,,,,
0,2419,2:32.201.179,81.900 us,2 B,,SP,55,Read Transaction,00 00*,..,,,,,,,,,,
0,2420,2:32.215.852,79.000 us,2 B,,SP,55,Write Transaction,00 00,..,,,,,,,,,,
0,2421,2:32.221.198,82.300 us,2 B,,SP,55,Read Transaction,00 08*,..,,,,,,,,,,
0,2422,2:32.221.557,79.000 us,2 B,,SP,55,Write Transaction,12 01,..,,,,,,,,,,
0,2423,2:32.229.896,2.322.600 ms,92 B,,SP,55,Read Transaction,00 8A FD 4E 02 55 01 B1 02 59 E4 02 59 83 10 00 08 10 00 09 20 00 0C 20 00 0E 02 03 02 64 00 00 00 00 00 00 00 00 00 00 00 00 00 00 00 03 00 00 00 00 00 00 00 00 00 00 00 00 00 00 00 00 00 00 00 00 00 00 00 00 00 00 00 00 00 00 00 00 00 00 00 00 02 00 01 5B 00 00 00 00 06 06*,...N.U...Y..Y....... .. …,,,,,,,,,,
0,2424,2:32.235.868,79.000 us,2 B,,SP,55,Write Transaction,00 00,..,,,,,,,,,,
0,2425,2:32.241.215,81.900 us,2 B,,SP,55,Read Transaction,00 00*,..,,,,,,,,,,
0,2426,2:32.255.892,79.000 us,2 B,,SP,55,Write Transaction,00 00,..,,,,,,,,,,
0,2427,2:32.261.238,82.300 us,2 B,,SP,55,Read Transaction,00 08*,..,,,,,,,,,,
0,2428,2:32.261.597,79.100 us,2 B,,SP,55,Write Transaction,12 01,..,,,,,,,,,,
0,2429,2:32.269.937,2.322.700 ms,92 B,,SP,55,Read Transaction,00 8F FD 4A 02 56 01 B0 02 59 70 02 59 0C 1F FF F5 1F FF F4 2F FF FA 2F FF FC 02 03 02 64 00 00 00 00 00 00 00 00 00 00 00 00 00 00 00 03 00 00 00 00 00 00 00 00 00 00 00 00 00 00 00 00 00 00 00 00 00 00 00 00 00 00 00 00 00 00 00 00 00 00 00 00 02 00 01 5B 00 00 00 00 06 06*,...J.V...Yp.Y......./../…,,,,,,,,,,
0,2430,2:32.275.910,79.000 us,2 B,,SP,55,Write Transaction,00 00,..,,,,,,,,,,
0,2431,2:32.281.263,82.100 us,2 B,,SP,55,Read Transaction,00 00*,..,,,,,,,,,,
0,2432,2:32.295.924,79.100 us,2 B,,SP,55,Write Transaction,00 00,..,,,,,,,,,,
0,2433,2:32.301.270,82.300 us,2 B,,SP,55,Read Transaction,00 00*,..,,,,,,,,,,
0,2434,2:32.315.945,79.000 us,2 B,,SP,55,Write Transaction,00 00,..,,,,,,,,,,
0,2435,2:32.321.288,81.900 us,2 B,,SP,55,Read Transaction,00 00*,..,,,,,,,,,,
0,2436,2:32.335.958,79.000 us,2 B,,SP,55,Write Transaction,00 00,..,,,,,,,,,,
0,2437,2:32.341.306,82.200 us,2 B,,SP,55,Read Transaction,00 08*,..,,,,,,,,,,
0,2438,2:32.341.665,79.000 us,2 B,,SP,55,Write Transaction,12 01,..,,,,,,,,,,
0,2439,2:32.350.010,2.322.100 ms,92 B,,SP,55,Read Transaction,00 94 FD 50 02 56 01 B1 02 59 76 02 59 0E 1F FF F9 1F FF F9 20 00 10 20 00 0F 02 03 02 64 00 00 00 00 00 00 00 00 00 00 00 00 00 00 00 03 00 00 00 00 00 00 00 00 00 00 00 00 00 00 00 00 00 00 00 00 00 00 00 00 00 00 00 00 00 00 00 00 00 00 00 00 02 00 01 5B 00 00 00 00 06 06*,...P.V...Yv.Y....... .. …,,,,,,,,,,
0,2440,2:32.355.741,79.000 us,2 B,,SP,55,Write Transaction,00 00,..,,,,,,,,,,
0,2441,2:32.361.087,82.000 us,2 B,,SP,55,Read Transaction,00 00*,..,,,,,,,,,,
0,2442,2:32.375.759,79.000 us,2 B,,SP,55,Write Transaction,00 00,..,,,,,,,,,,
0,2443,2:32.381.106,82.300 us,2 B,,SP,55,Read Transaction,00 08*,..,,,,,,,,,,
0,2444,2:32.381.466,79.000 us,2 B,,SP,55,Write Transaction,12 01,..,,,,,,,,,,
0,2445,2:32.389.803,2.322.200 ms,92 B,,SP,55,Read Transaction,00 99 FD 4D 02 59 01 AE 02 59 83 02 59 21 10 00 07 10 00 08 2F FF FD 2F FF FC 02 03 02 64 00 00 00 00 00 00 00 00 00 00 00 00 00 00 00 03 00 00 00 00 00 00 00 00 00 00 00 00 00 00 00 00 00 00 00 00 00 00 00 00 00 00 00 00 00 00 00 00 00 00 00 00 02 00 01 5B 00 00 00 00 06 06*,...M.Y...Y..Y!....../../…,,,,,,,,,,
0,2446,2:32.395.774,79.000 us,2 B,,SP,55,Write Transaction,00 00,..,,,,,,,,,,
0,2447,2:32.401.120,81.900 us,2 B,,SP,55,Read Transaction,00 00*,..,,,,,,,,,,
0,2448,2:32.415.785,79.000 us,2 B,,SP,55,Write Transaction,00 00,..,,,,,,,,,,
0,2449,2:32.421.130,82.300 us,2 B,,SP,55,Read Transaction,00 08*,..,,,,,,,,,,
0,2450,2:32.421.488,79.100 us,2 B,,SP,55,Write Transaction,12 01,..,,,,,,,,,,
0,2451,2:32.429.832,2.322.500 ms,92 B,,SP,55,Read Transaction,00 9E FD 4A 02 59 01 A9 02 59 F4 02 59 8E 10 00 09 10 00 08 20 00 12 20 00 11 02 03 02 64 00 00 00 00 00 00 00 00 00 00 00 00 00 00 00 03 00 00 00 00 00 00 00 00 00 00 00 00 00 00 00 00 00 00 00 00 00 00 00 00 00 00 00 00 00 00 00 00 00 00 00 00 02 00 01 5B 00 00 00 00 06 06*,...J.Y...Y..Y....... .. …,,,,,,,,,,
0,2452,2:32.435.811,79.100 us,2 B,,SP,55,Write Transaction,00 00,..,,,,,,,,,,
0,2453,2:32.441.160,82.000 us,2 B,,SP,55,Read Transaction,00 00*,..,,,,,,,,,,
0,2454,2:32.455.834,79.000 us,2 B,,SP,55,Write Transaction,00 00,..,,,,,,,,,,
0,2455,2:32.461.180,82.300 us,2 B,,SP,55,Read Transaction,00 08*,..,,,,,,,,,,
0,2456,2:32.461.538,79.100 us,2 B,,SP,55,Write Transaction,12 01,..,,,,,,,,,,
0,2457,2:32.469.883,2.325.700 ms,92 B,,SP,55,Read Transaction,00 A3 FD 4E 02 54 01 AA 02 5A 5F 02 5A 01 10 00 03 10 00 03 20 00 00 20 00 00 02 02 F8 64 00 00 00 00 00 00 00 00 00 00 00 00 00 00 00 03 00 00 00 00 00 00 00 00 00 00 00 00 00 00 00 00 00 00 00 00 00 00 00 00 00 00 00 00 00 00 00 00 00 00 00 00 02 00 01 5B 00 00 00 00 06 06*,...N.T...Z_.Z....... .. …,,,,,,,,,,
0,2458,2:32.475.846,79.100 us,2 B,,SP,55,Write Transaction,00 00,..,,,,,,,,,,
0,2459,2:32.481.195,81.900 us,2 B,,SP,55,Read Transaction,00 00*,..,,,,,,,,,,
0,2460,2:32.495.872,79.100 us,2 B,,SP,55,Write Transaction,00 00,..,,,,,,,,,,
0,2461,2:32.501.217,82.300 us,2 B,,SP,55,Read Transaction,00 00*,..,,,,,,,,,,
0,2462,2:32.515.893,79.000 us,2 B,,SP,55,Write Transaction,00 00,..,,,,,,,,,,
0,2463,2:32.521.241,82.000 us,2 B,,SP,55,Read Transaction,00 00*,..,,,,,,,,,,
0,2464,2:32.535.910,79.000 us,2 B,,SP,55,Write Transaction,00 00,..,,,,,,,,,,
0,2465,2:32.541.254,82.300 us,2 B,,SP,55,Read Transaction,00 08*,..,,,,,,,,,,
0,2466,2:32.541.613,79.000 us,2 B,,SP,55,Write Transaction,12 01,..,,,,,,,,,,
0,2467,2:32.549.952,2.322.200 ms,92 B,,SP,55,Read Transaction,00 A8 FD 4C 02 54 01 AB 02 5B 23 02 5A B9 1F FF FC 1F FF FB 2F FF FB 2F FF FB 02 02 F8 64 00 00 00 00 00 00 00 00 00 00 00 00 00 00 00 03 00 00 00 00 00 00 00 00 00 00 00 00 00 00 00 00 00 00 00 00 00 00 00 00 00 00 00 00 00 00 00 00 00 00 00 00 02 00 01 5B 00 00 00 00 06 06*,...L.T...[#.Z......./../…,,,,,,,,,,
0,2468,2:32.555.926,79.000 us,2 B,,SP,55,Write Transaction,00 00,..,,,,,,,,,,
0,2469,2:32.561.273,81.900 us,2 B,,SP,55,Read Transaction,00 00*,..,,,,,,,,,,
0,2470,2:32.575.940,79.000 us,2 B,,SP,55,Write Transaction,00 00,..,,,,,,,,,,
0,2471,2:32.581.286,82.300 us,2 B,,SP,55,Read Transaction,00 08*,..,,,,,,,,,,
0,2472,2:32.581.644,79.000 us,2 B,,SP,55,Write Transaction,12 01,..,,,,,,,,,,
0,2473,2:32.589.996,2.325.600 ms,92 B,,SP,55,Read Transaction,00 AD FD 4E 02 5D 01 B1 02 5C 2C 02 5B C3 10 00 04 10 00 02 20 00 06 20 00 04 02 02 F8 64 00 00 00 00 00 00 00 00 00 00 00 00 00 00 00 03 00 00 00 00 00 00 00 00 00 00 00 00 00 00 00 00 00 00 00 00 00 00 00 00 00 00 00 00 00 00 00 00 00 00 00 00 02 00 01 5B 00 00 00 00 06 06*,...N.]...\,.[....... .. …,,,,,,,,,
0,2474,2:32.595.957,79.100 us,2 B,,SP,55,Write Transaction,00 00,..,,,,,,,,,,
0,2475,2:32.601.303,81.900 us,2 B,,SP,55,Read Transaction,00 00*,..,,,,,,,,,,
0,2476,2:32.615.731,79.100 us,2 B,,SP,55,Write Transaction,00 00,..,,,,,,,,,,
0,2477,2:32.621.075,82.200 us,2 B,,SP,55,Read Transaction,00 08*,..,,,,,,,,,,
0,2478,2:32.621.434,79.000 us,2 B,,SP,55,Write Transaction,12 01,..,,,,,,,,,,
0,2479,2:32.629.772,2.322.000 ms,92 B,,SP,55,Read Transaction,00 B2 FD 48 02 57 01 B0 02 5D 0A 02 5C A2 1F FF F0 1F FF F0 2F FF ED 2F FF EC 02 02 F8 64 00 00 00 00 00 00 00 00 00 00 00 00 00 00 00 03 00 00 00 00 00 00 00 00 00 00 00 00 00 00 00 00 00 00 00 00 00 00 00 00 00 00 00 00 00 00 00 00 00 00 00 00 02 00 01 5B 00 00 00 00 06 06*,...H.W...]..\......./../…,,,,,,,,,,
0,2480,2:32.635.761,79.000 us,2 B,,SP,55,Write Transaction,00 00,..,,,,,,,,,,
0,2481,2:32.641.107,81.900 us,2 B,,SP,55,Read Transaction,00 00*,..,,,,,,,,,,
0,2482,2:32.655.771,79.000 us,2 B,,SP,55,Write Transaction,00 00,..,,,,,,,,,,
0,2483,2:32.661.116,82.300 us,2 B,,SP,55,Read Transaction,00 08*,..,,,,,,,,,,
0,2484,2:32.661.477,79.000 us,2 B,,SP,55,Write Transaction,12 01,..,,,,,,,,,,
0,2485,2:32.669.818,2.322.300 ms,92 B,,SP,55,Read Transaction,00 B7 FD 4A 02 57 01 AA 02 5D F3 02 5D 89 10 00 05 10 00 05 2F FF EA 2F FF EB 02 02 F8 64 00 00 00 00 00 00 00 00 00 00 00 00 00 00 00 03 00 00 00 00 00 00 00 00 00 00 00 00 00 00 00 00 00 00 00 00 00 00 00 00 00 00 00 00 00 00 00 00 00 00 00 00 02 00 01 5B 00 00 00 00 06 06*,...J.W...]..]......./../…,,,,,,,,,,
0,2486,2:32.675.791,79.100 us,2 B,,SP,55,Write Transaction,00 00,..,,,,,,,,,,
0,2487,2:32.681.138,81.900 us,2 B,,SP,55,Read Transaction,00 00*,..,,,,,,,,,,
0,2488,2:32.695.805,79.000 us,2 B,,SP,55,Write Transaction,00 00,..,,,,,,,,,,
0,2489,2:32.701.154,82.400 us,2 B,,SP,55,Read Transaction,00 00*,..,,,,,,,,,,
0,2490,2:32.715.831,79.100 us,2 B,,SP,55,Write Transaction,00 00,..,,,,,,,,,,
0,2491,2:32.721.177,82.000 us,2 B,,SP,55,Read Transaction,00 00*,..,,,,,,,,,,
0,2492,2:32.735.846,79.000 us,2 B,,SP,55,Write Transaction,00 00,..,,,,,,,,,,
0,2493,2:32.741.193,82.300 us,2 B,,SP,55,Read Transaction,00 08*,..,,,,,,,,,,
0,2494,2:32.741.554,79.100 us,2 B,,SP,55,Write Transaction,12 01,..,,,,,,,,,,
0,2495,2:32.749.895,2.322.300 ms,92 B,,SP,55,Read Transaction,00 BC FD 4B 02 54 01 AA 02 5E FE 02 5E 9A 1F FF FE 1F FF FD 20 00 08 20 00 07 02 02 F8 64 00 00 00 00 00 00 00 00 00 00 00 00 00 00 00 03 00 00 00 00 00 00 00 00 00 00 00 00 00 00 00 00 00 00 00 00 00 00 00 00 00 00 00 00 00 00 00 00 00 00 00 00 02 00 01 5B 00 00 00 00 06 06*,...K.T...^..^....... .. …,,,,,,,,,,
0,2496,2:32.755.871,79.000 us,2 B,,SP,55,Write Transaction,00 00,..,,,,,,,,,,
0,2497,2:32.761.217,81.900 us,2 B,,SP,55,Read Transaction,00 00*,..,,,,,,,,,,
0,2498,2:32.775.880,79.000 us,2 B,,SP,55,Write Transaction,00 00,..,,,,,,,,,,
0,2499,2:32.781.223,82.200 us,2 B,,SP,55,Read Transaction,00 08*,..,,,,,,,,,,
0,2500,2:32.781.581,79.000 us,2 B,,SP,55,Write Transaction,12 01,..,,,,,,,,,,
0,2501,2:32.789.924,2.322.600 ms,92 B,,SP,55,Read Transaction,00 C1 FD 4A 02 57 01 AB 02 60 10 02 5F AD 10 00 06 10 00 06 2F FF FC 2F FF FA 02 02 F8 64 20 1F 64 00 00 00 00 00 00 00 00 00 00 00 00 03 00 00 00 00 00 00 00 00 00 00 00 00 00 00 00 00 00 00 00 00 00 00 00 00 00 00 00 00 00 00 00 00 00 00 00 00 02 00 01 5B 00 00 00 00 06 06*,...J.W...`.._......./../…,,,,,,,,,,
0,2502,2:32.795.901,79.000 us,2 B,,SP,55,Write Transaction,00 00,..,,,,,,,,,,
0,2503,2:32.801.247,82.000 us,2 B,,SP,55,Read Transaction,00 00*,..,,,,,,,,,,
0,2504,2:32.815.919,79.000 us,2 B,,SP,55,Write Transaction,00 00,..,,,,,,,,,,
0,2505,2:32.821.265,82.300 us,2 B,,SP,55,Read Transaction,00 08*,..,,,,,,,,,,
0,2506,2:32.821.623,79.000 us,2 B,,SP,55,Write Transaction,12 01,..,,,,,,,,,,
0,2507,2:32.829.979,2.322.700 ms,92 B,,SP,55,Read Transaction,00 C6 FD 4D 02 55 01 B4 02 61 0D 02 60 AA 1F FF FA 1F FF F9 20 00 11 20 00 0F 02 02 F8 64 00 00 00 00 00 00 00 00 00 00 00 00 00 00 00 03 00 00 00 00 00 00 00 00 00 00 00 00 00 00 00 00 00 00 00 00 00 00 00 00 00 00 00 00 00 00 00 00 00 00 00 00 02 00 01 5B 00 00 00 00 06 06*,...M.U...a..`....... .. …,,,,,,,,,,
0,2508,2:32.835.942,79.000 us,2 B,,SP,55,Write Transaction,00 00,..,,,,,,,,,,
0,2509,2:32.841.289,81.900 us,2 B,,SP,55,Read Transaction,00 00*,..,,,,,,,,,,
0,2510,2:32.855.716,79.000 us,2 B,,SP,55,Write Transaction,00 00,..,,,,,,,,,,
0,2511,2:32.861.062,82.300 us,2 B,,SP,55,Read Transaction,00 08*,..,,,,,,,,,,
0,2512,2:32.861.421,79.200 us,2 B,,SP,55,Write Transaction,12 01,..,,,,,,,,,,
0,2513,2:32.869.773,2.322.500 ms,92 B,,SP,55,Read Transaction,00 CB FD 4D 02 53 01 AB 02 60 E6 02 60 81 10 00 10 10 00 0E 2F FF F6 2F FF F6 02 02 F8 64 00 00 00 00 00 00 00 00 00 00 00 00 00 00 00 03 00 00 00 00 00 00 00 00 00 00 00 00 00 00 00 00 00 00 00 00 00 00 00 00 00 00 00 00 00 00 00 00 00 00 00 00 02 00 01 5B 00 00 00 00 06 06*,...M.S...`..`......./../…,,,,,,,,,,
0,2514,2:32.875.737,79.000 us,2 B,,SP,55,Write Transaction,00 00,..,,,,,,,,,,
0,2515,2:32.881.083,81.900 us,2 B,,SP,55,Read Transaction,00 00*,..,,,,,,,,,,
0,2516,2:32.895.743,79.000 us,2 B,,SP,55,Write Transaction,00 00,..,,,,,,,,,,
0,2517,2:32.901.092,82.400 us,2 B,,SP,55,Read Transaction,00 00*,..,,,,,,,,,,
0,2518,2:32.915.775,79.100 us,2 B,,SP,55,Write Transaction,00 00,..,,,,,,,,,,
0,2519,2:32.921.123,82.100 us,2 B,,SP,55,Read Transaction,00 00*,..,,,,,,,,,,
0,2520,2:32.935.796,79.000 us,2 B,,SP,55,Write Transaction,00 00,..,,,,,,,,,,
0,2521,2:32.941.143,82.200 us,2 B,,SP,55,Read Transaction,00 08*,..,,,,,,,,,,
0,2522,2:32.941.501,78.900 us,2 B,,SP,55,Write Transaction,12 01,..,,,,,,,,,,
0,2523,2:32.949.841,2.322.500 ms,92 B,,SP,55,Read Transaction,00 D0 FD 49 02 52 01 AF 02 5E 7A 02 5E 14 1F FF FD 1F FF FC 2F FF F5 2F FF F3 02 02 F8 64 00 00 00 00 00 00 00 00 00 00 00 00 00 00 00 03 00 00 00 00 00 00 00 00 00 00 00 00 00 00 00 00 00 00 00 00 00 00 00 00 00 00 00 00 00 00 00 00 00 00 00 00 02 00 01 5B 00 00 00 00 06 06*,...I.R...^z.^......./../…,,,,,,,,,,
0,2524,2:32.955.814,79.100 us,2 B,,SP,55,Write Transaction,00 00,..,,,,,,,,,,
0,2525,2:32.961.166,81.900 us,2 B,,SP,55,Read Transaction,00 00*,..,,,,,,,,,,
0,2526,2:32.975.834,78.900 us,2 B,,SP,55,Write Transaction,00 00,..,,,,,,,,,,
0,2527,2:32.981.185,82.400 us,2 B,,SP,55,Read Transaction,00 08*,..,,,,,,,,,,
0,2528,2:32.981.544,79.100 us,2 B,,SP,55,Write Transaction,12 01,..,,,,,,,,,,
0,2529,2:32.989.897,2.324.400 ms,92 B,,SP,55,Read Transaction,00 D5 FD 4C 02 55 01 AE 02 5C 46 02 5B E1 10 00 0B 10 00 0A 2F FF F1 2F FF F2 02 02 F8 64 00 00 00 00 00 00 00 00 00 00 00 00 00 00 00 03 00 00 00 00 00 00 00 00 00 00 00 00 00 00 00 00 00 00 00 00 00 00 00 00 00 00 00 00 00 00 00 00 00 00 00 00 02 00 01 5B 00 00 00 00 06 06*,...L.U...\F.[......./../…,,,,,,,,,,
0,2530,2:32.995.855,79.000 us,2 B,,SP,55,Write Transaction,00 00,..,,,,,,,,,,
0,2531,2:33.001.201,82.000 us,2 B,,SP,55,Read Transaction,00 00*,..,,,,,,,,,,
0,2532,2:33.015.864,79.000 us,2 B,,SP,55,Write Transaction,00 00,..,,,,,,,,,,
0,2533,2:33.021.211,82.300 us,2 B,,SP,55,Read Transaction,00 08*,..,,,,,,,,,,
0,2534,2:33.021.570,79.000 us,2 B,,SP,55,Write Transaction,12 01,..,,,,,,,,,,
0,2535,2:33.029.907,2.322.200 ms,92 B,,SP,55,Read Transaction,00 DA FD 4D 02 57 01 AF 02 5A C9 02 5A 5E 1F FF FD 1F FF FD 20 00 05 20 00 07 02 02 F8 64 00 00 00 00 00 00 00 00 00 00 00 00 00 00 00 03 00 00 00 00 00 00 00 00 00 00 00 00 00 00 00 00 00 00 00 00 00 00 00 00 00 00 00 00 00 00 00 00 00 00 00 00 02 00 01 5B 00 00 00 00 06 06*,...M.W...Z..Z^...... .. …,,,,,,,,,,
0,2536,2:33.035.892,79.000 us,2 B,,SP,55,Write Transaction,00 00,..,,,,,,,,,,
0,2537,2:33.041.239,82.000 us,2 B,,SP,55,Read Transaction,00 00*,..,,,,,,,,,,
0,2538,2:33.055.907,79.000 us,2 B,,SP,55,Write Transaction,00 00,..,,,,,,,,,,
0,2539,2:33.061.256,82.300 us,2 B,,SP,55,Read Transaction,00 08*,..,,,,,,,,,,
0,2540,2:33.061.616,79.100 us,2 B,,SP,55,Write Transaction,12 01,..,,,,,,,,,,
0,2541,2:33.069.957,2.322.500 ms,92 B,,SP,55,Read Transaction,00 DF FD 47 02 58 01 A7 02 59 DD 02 59 7C 1F FF ED 1F FF EE 2F FF F1 2F FF F1 02 02 F8 64 00 00 00 00 00 00 00 00 00 00 00 00 00 00 00 03 00 00 00 00 00 00 00 00 00 00 00 00 00 00 00 00 00 00 00 00 00 00 00 00 00 00 00 00 00 00 00 00 00 00 00 00 02 00 01 5F 00 00 00 00 06 06*,...G.X...Y..Y|....../../…,,,,,,,,,,
0,2542,2:33.075.918,79.000 us,2 B,,SP,55,Write Transaction,00 00,..,,,,,,,,,,
0,2543,2:33.081.264,82.100 us,2 B,,SP,55,Read Transaction,00 00*,..,,,,,,,,,,
0,2544,2:33.095.946,79.000 us,2 B,,SP,55,Write Transaction,00 00,..,,,,,,,,,,
0,2545,2:33.101.293,82.200 us,2 B,,SP,55,Read Transaction,00 00*,..,,,,,,,,,,
0,2546,2:33.115.720,79.000 us,2 B,,SP,55,Write Transaction,00 00,..,,,,,,,,,,
0,2547,2:33.121.067,81.900 us,2 B,,SP,55,Read Transaction,00 00*,..,,,,,,,,,,
0,2548,2:33.135.734,79.000 us,2 B,,SP,55,Write Transaction,00 00,..,,,,,,,,,,
0,2549,2:33.141.079,82.200 us,2 B,,SP,55,Read Transaction,00 08*,..,,,,,,,,,,
0,2550,2:33.141.438,79.000 us,2 B,,SP,55,Write Transaction,12 01,..,,,,,,,,,,
0,2551,2:33.149.780,2.322.400 ms,92 B,,SP,55,Read Transaction,00 E4 FD 4D 02 51 01 AB 02 59 88 02 59 26 10 00 07 10 00 06 2F FF F5 2F FF F5 02 02 F8 64 00 00 00 00 00 00 00 00 00 00 00 00 00 00 00 03 00 00 00 00 00 00 00 00 00 00 00 00 00 00 00 00 00 00 00 00 00 00 00 00 00 00 00 00 00 00 00 00 00 00 00 00 02 00 01 5F 00 00 00 00 06 06*,...M.Q...Y..Y&....../../…,,,,,,,,,,
0,2552,2:33.155.759,79.000 us,2 B,,SP,55,Write Transaction,00 00,..,,,,,,,,,,
0,2553,2:33.161.105,82.100 us,2 B,,SP,55,Read Transaction,00 00*,..,,,,,,,,,,
0,2554,2:33.175.762,78.900 us,2 B,,SP,55,Write Transaction,00 00,..,,,,,,,,,,
0,2555,2:33.181.108,82.300 us,2 B,,SP,55,Read Transaction,00 08*,..,,,,,,,,,,
0,2556,2:33.181.466,79.000 us,2 B,,SP,55,Write Transaction,12 01,..,,,,,,,,,,
0,2557,2:33.189.807,2.325.200 ms,92 B,,SP,55,Read Transaction,00 E9 FD 48 02 5B 01 B0 02 59 5D 02 58 F6 1F FF FE 1F FF FE 20 00 0D 20 00 0C 02 02 F8 64 00 00 00 00 00 00 00 00 00 00 00 00 00 00 00 03 00 00 00 00 00 00 00 00 00 00 00 00 00 00 00 00 00 00 00 00 00 00 00 00 00 00 00 00 00 00 00 00 00 00 00 00 02 00 01 5F 00 00 00 00 06 06*,...H.[...Y].X....... .. …,,,,,,,,,,
0,2558,2:33.195.786,79.100 us,2 B,,SP,55,Write Transaction,00 00,..,,,,,,,,,,
0,2559,2:33.201.136,82.000 us,2 B,,SP,55,Read Transaction,00 00*,..,,,,,,,,,,
0,2560,2:33.215.805,79.200 us,2 B,,SP,55,Write Transaction,00 00,..,,,,,,,,,,
0,2561,2:33.221.160,82.300 us,2 B,,SP,55,Read Transaction,00 08*,..,,,,,,,,,,
0,2562,2:33.221.519,79.000 us,2 B,,SP,55,Write Transaction,12 01,..,,,,,,,,,,
0,2563,2:33.229.858,2.321.800 ms,92 B,,SP,55,Read Transaction,00 EE FD 4B 02 5A 01 AE 02 59 69 02 59 07 1F FF FE 1F FF FD 2F FF F0 2F FF EF 02 02 F8 64 00 00 00 00 00 00 00 00 00 00 00 00 00 00 00 03 00 00 00 00 00 00 00 00 00 00 00 00 00 00 00 00 00 00 00 00 00 00 00 00 00 00 00 00 00 00 00 00 00 00 00 00 02 00 01 5F 00 00 00 00 06 06*,...K.Z...Yi.Y......./../…,,,,,,,,,,
0,2564,2:33.235.910,79.000 us,2 B,,SP,55,Write Transaction,00 00,..,,,,,,,,,,
0,2565,2:33.241.258,82.000 us,2 B,,SP,55,Read Transaction,00 00*,..,,,,,,,,,,
0,2566,2:33.255.850,79.100 us,2 B,,SP,55,Write Transaction,00 00,..,,,,,,,,,,
0,2567,2:33.261.197,82.300 us,2 B,,SP,55,Read Transaction,00 08*,..,,,,,,,,,,
0,2568,2:33.261.556,79.000 us,2 B,,SP,55,Write Transaction,12 01,..,,,,,,,,,,
0,2569,2:33.269.895,2.321.700 ms,92 B,,SP,55,Read Transaction,00 F3 FD 4C 02 56 01 AD 02 59 C2 02 59 58 1F FF F2 1F FF F4 20 00 08 20 00 06 02 02 F8 64 00 00 00 00 00 00 00 00 00 00 00 00 00 00 00 03 00 00 00 00 00 00 00 00 00 00 00 00 00 00 00 00 00 00 00 00 00 00 00 00 00 00 00 00 00 00 00 00 00 00 00 00 02 00 01 5F 00 00 00 00 06 06*,...L.V...Y..YX...... .. …,,,,,,,,,,
0,2570,2:33.275.868,79.000 us,2 B,,SP,55,Write Transaction,00 00,..,,,,,,,,,,
0,2571,2:33.281.219,81.900 us,2 B,,SP,55,Read Transaction,00 00*,..,,,,,,,,,,
0,2572,2:33.295.889,79.100 us,2 B,,SP,55,Write Transaction,00 00,..,,,,,,,,,,
0,2573,2:33.301.243,82.300 us,2 B,,SP,55,Read Transaction,00 00*,..,,,,,,,,,,
0,2574,2:33.315.898,79.000 us,2 B,,SP,55,Write Transaction,00 00,..,,,,,,,,,,
0,2575,2:33.321.247,82.000 us,2 B,,SP,55,Read Transaction,00 00*,..,,,,,,,,,,
0,2576,2:33.335.920,79.100 us,2 B,,SP,55,Write Transaction,00 00,..,,,,,,,,,,
0,2577,2:33.341.270,82.300 us,2 B,,SP,55,Read Transaction,00 08*,..,,,,,,,,,,
0,2578,2:33.341.630,79.200 us,2 B,,SP,55,Write Transaction,12 01,..,,,,,,,,,,
0,2579,2:33.349.971,2.322.500 ms,92 B,,SP,55,Read Transaction,00 F8 FD 49 02 57 01 AB 02 5A 44 02 59 DC 10 00 08 10 00 07 20 00 09 20 00 09 02 02 F8 64 00 00 00 00 00 00 00 00 00 00 00 00 00 00 00 03 00 00 00 00 00 00 00 00 00 00 00 00 00 00 00 00 00 00 00 00 00 00 00 00 00 00 00 00 00 00 00 00 00 00 00 00 02 00 01 5F 00 00 00 00 06 06*,...I.W...ZD.Y....... .. …,,,,,,,,,,
0,2580,2:33.355.704,79.000 us,2 B,,SP,55,Write Transaction,00 00,..,,,,,,,,,,
0,2581,2:33.361.052,82.000 us,2 B,,SP,55,Read Transaction,00 00*,..,,,,,,,,,,
0,2582,2:33.375.711,79.000 us,2 B,,SP,55,Write Transaction,00 00,..,,,,,,,,,,
0,2583,2:33.381.058,82.200 us,2 B,,SP,55,Read Transaction,00 08*,..,,,,,,,,,,
0,2584,2:33.381.417,79.000 us,2 B,,SP,55,Write Transaction,12 01,..,,,,,,,,,,
0,2585,2:33.389.757,2.322.600 ms,92 B,,SP,55,Read Transaction,00 FD FD 4F 02 50 01 AE 02 5B 22 02 5A BE 1F FF FE 1F FF FE 20 00 08 20 00 09 02 02 F8 64 00 00 00 00 00 00 00 00 00 00 00 00 00 00 00 03 00 00 00 00 00 00 00 00 00 00 00 00 00 00 00 00 00 00 00 00 00 00 00 00 00 00 00 00 00 00 00 00 00 00 00 00 02 00 01 5F 00 00 00 00 06 06*,"...O.P...["".Z....... .. …",,,,,,,,,,
0,2586,2:33.395.736,79.000 us,2 B,,SP,55,Write Transaction,00 00,..,,,,,,,,,,
0,2587,2:33.401.083,81.900 us,2 B,,SP,55,Read Transaction,00 00*,..,,,,,,,,,,
0,2588,2:33.415.750,79.000 us,2 B,,SP,55,Write Transaction,00 00,..,,,,,,,,,,
0,2589,2:33.421.101,82.200 us,2 B,,SP,55,Read Transaction,00 08*,..,,,,,,,,,,
0,2590,2:33.421.459,79.000 us,2 B,,SP,55,Write Transaction,12 01,..,,,,,,,,,,
0,2591,2:33.429.804,2.324.400 ms,92 B,,SP,55,Read Transaction,00 02 FD 48 02 53 01 AD 02 5B E6 02 5B 82 1F FF F8 1F FF F9 2F FF FC 2F FF FC 02 02 F8 64 00 00 00 00 00 00 00 00 00 00 00 00 00 00 00 03 00 00 00 00 00 00 00 00 00 00 00 00 00 00 00 00 00 00 00 00 00 00 00 00 00 00 00 00 00 00 00 00 00 00 00 00 02 00 01 5F 00 00 00 00 07 07*,...H.S...[..[......./../…,,,,,,,,,,
0,2592,2:33.435.774,79.000 us,2 B,,SP,55,Write Transaction,00 00,..,,,,,,,,,,
0,2593,2:33.441.120,81.900 us,2 B,,SP,55,Read Transaction,00 00*,..,,,,,,,,,,
0,2594,2:33.455.780,79.000 us,2 B,,SP,55,Write Transaction,00 00,..,,,,,,,,,,
0,2595,2:33.461.127,82.200 us,2 B,,SP,55,Read Transaction,00 08*,..,,,,,,,,,,
0,2596,2:33.461.489,79.000 us,2 B,,SP,55,Write Transaction,12 01,..,,,,,,,,,,
0,2597,2:33.469.832,2.322.500 ms,92 B,,SP,55,Read Transaction,00 07 FD 46 02 51 01 AD 02 5C E3 02 5C 7D 10 00 0C 10 00 0C 2F FF F9 2F FF F8 02 02 EE 64 00 00 00 00 00 00 00 00 00 00 00 00 00 00 00 03 00 00 00 00 00 00 00 00 00 00 00 00 00 00 00 00 00 00 00 00 00 00 00 00 00 00 00 00 00 00 00 00 00 00 00 00 02 00 01 5F 00 00 00 00 07 07*,...F.Q...\..\}....../../…,,,,,,,,,,
0,2598,2:33.475.811,79.100 us,2 B,,SP,55,Write Transaction,00 00,..,,,,,,,,,,
0,2599,2:33.481.159,81.900 us,2 B,,SP,55,Read Transaction,00 00*,..,,,,,,,,,,
0,2600,2:33.495.822,78.900 us,2 B,,SP,55,Write Transaction,00 00,..,,,,,,,,,,
0,2601,2:33.501.167,82.200 us,2 B,,SP,55,Read Transaction,00 00*,..,,,,,,,,,,
0,2602,2:33.515.847,79.100 us,2 B,,SP,55,Write Transaction,00 00,..,,,,,,,,,,
0,2603,2:33.521.194,81.900 us,2 B,,SP,55,Read Transaction,00 00*,..,,,,,,,,,,
0,2604,2:33.535.864,79.100 us,2 B,,SP,55,Write Transaction,00 00,..,,,,,,,,,,
0,2605,2:33.541.214,82.300 us,2 B,,SP,55,Read Transaction,00 08*,..,,,,,,,,,,
0,2606,2:33.541.572,79.000 us,2 B,,SP,55,Write Transaction,12 01,..,,,,,,,,,,
0,2607,2:33.549.914,2.322.500 ms,92 B,,SP,55,Read Transaction,00 0C FD 4E 02 53 01 AE 02 5D B1 02 5D 4C 10 00 0D 10 00 0C 2F FF F4 2F FF F5 02 02 EE 64 00 00 00 00 00 00 00 00 00 00 00 00 00 00 00 03 00 00 00 00 00 00 00 00 00 00 00 00 00 00 00 00 00 00 00 00 00 00 00 00 00 00 00 00 00 00 00 00 00 00 00 00 02 00 01 5F 00 00 00 00 07 07*,...N.S...]..]L....../../…,,,,,,,,,,
0,2608,2:33.555.891,79.000 us,2 B,,SP,55,Write Transaction,00 00,..,,,,,,,,,,
0,2609,2:33.561.236,81.900 us,2 B,,SP,55,Read Transaction,00 00*,..,,,,,,,,,,
0,2610,2:33.575.905,79.100 us,2 B,,SP,55,Write Transaction,00 00,..,,,,,,,,,,
0,2611,2:33.581.250,82.100 us,2 B,,SP,55,Read Transaction,00 08*,..,,,,,,,,,,
0,2612,2:33.581.607,78.900 us,2 B,,SP,55,Write Transaction,12 01,..,,,,,,,,,,
0,2613,2:33.589.956,2.325.900 ms,92 B,,SP,55,Read Transaction,00 11 FD 4C 02 56 01 B1 02 5E B8 02 5E 53 10 00 02 10 00 01 2F FF FA 2F FF F9 02 02 EE 64 00 00 00 00 00 00 00 00 00 00 00 00 00 00 00 03 00 00 00 00 00 00 00 00 00 00 00 00 00 00 00 00 00 00 00 00 00 00 00 00 00 00 00 00 00 00 00 00 00 00 00 00 02 00 01 5F 00 00 00 00 07 07*,...L.V...^..^S....../../…,,,,,,,,,,
0,2614,2:33.595.960,79.200 us,2 B,,SP,55,Write Transaction,00 00,..,,,,,,,,,,
0,2615,2:33.601.309,81.900 us,2 B,,SP,55,Read Transaction,00 00*,..,,,,,,,,,,
0,2616,2:33.615.689,79.000 us,2 B,,SP,55,Write Transaction,00 00,..,,,,,,,,,,
0,2617,2:33.621.035,82.200 us,2 B,,SP,55,Read Transaction,00 08*,..,,,,,,,,,,
0,2618,2:33.621.394,79.000 us,2 B,,SP,55,Write Transaction,12 01,..,,,,,,,,,,
0,2619,2:33.629.733,2.322.400 ms,92 B,,SP,55,Read Transaction,00 16 FD 4C 02 57 01 B1 02 5F BA 02 5F 50 10 00 05 10 00 05 20 00 05 20 00 08 02 02 EE 64 20 28 64 00 00 00 00 00 00 00 00 00 00 00 00 03 00 00 00 00 00 00 00 00 00 00 00 00 00 00 00 00 00 00 00 00 00 00 00 00 00 00 00 00 00 00 00 00 00 00 00 00 02 00 01 5F 00 00 00 00 07 07*,...L.W..._.._P...... .. …,,,,,,,,,,
0,2620,2:33.635.720,79.100 us,2 B,,SP,55,Write Transaction,00 00,..,,,,,,,,,,
0,2621,2:33.641.068,82.000 us,2 B,,SP,55,Read Transaction,00 00*,..,,,,,,,,,,
0,2622,2:33.655.738,79.000 us,2 B,,SP,55,Write Transaction,00 00,..,,,,,,,,,,
0,2623,2:33.661.079,82.300 us,2 B,,SP,55,Read Transaction,00 08*,..,,,,,,,,,,
0,2624,2:33.661.438,79.000 us,2 B,,SP,55,Write Transaction,12 01,..,,,,,,,,,,
0,2625,2:33.669.777,2.322.100 ms,92 B,,SP,55,Read Transaction,00 1B FD 4B 02 4F 01 AF 02 60 01 02 5F 9D 10 00 09 10 00 09 2F FF F7 2F FF F6 02 02 EE 64 00 00 00 00 00 00 00 00 00 00 00 00 00 00 00 03 00 00 00 00 00 00 00 00 00 00 00 00 00 00 00 00 00 00 00 00 00 00 00 00 00 00 00 00 00 00 00 00 00 00 00 00 02 00 01 5F 00 00 00 00 07 07*,...K.O...`.._......./../…,,,,,,,,,,
0,2626,2:33.675.750,79.000 us,2 B,,SP,55,Write Transaction,00 00,..,,,,,,,,,,
0,2627,2:33.681.096,81.900 us,2 B,,SP,55,Read Transaction,00 00*,..,,,,,,,,,,
0,2628,2:33.695.779,79.000 us,2 B,,SP,55,Write Transaction,00 00,..,,,,,,,,,,
0,2629,2:33.701.126,82.200 us,2 B,,SP,55,Read Transaction,00 00*,..,,,,,,,,,,
0,2630,2:33.715.784,79.000 us,2 B,,SP,55,Write Transaction,00 00,..,,,,,,,,,,
0,2631,2:33.721.130,81.900 us,2 B,,SP,55,Read Transaction,00 00*,..,,,,,,,,,,
0,2632,2:33.735.809,79.000 us,2 B,,SP,55,Write Transaction,00 00,..,,,,,,,,,,
0,2633,2:33.741.166,82.300 us,2 B,,SP,55,Read Transaction,00 08*,..,,,,,,,,,,
0,2634,2:33.741.525,79.000 us,2 B,,SP,55,Write Transaction,12 01,..,,,,,,,,,,
0,2635,2:33.749.865,2.323.600 ms,92 B,,SP,55,Read Transaction,00 20 FD 50 02 54 01 B0 02 5E 09 02 5D A8 1F FF F9 1F FF F9 20 00 0E 20 00 10 02 02 EE 64 00 00 00 00 00 00 00 00 00 00 00 00 00 00 00 03 00 00 00 00 00 00 00 00 00 00 00 00 00 00 00 00 00 00 00 00 00 00 00 00 00 00 00 00 00 00 00 00 00 00 00 00 02 00 01 5F 00 00 00 00 07 07*,. .P.T...^..]....... .. …,,,,,,,,,,
0,2636,2:33.755.832,79.100 us,2 B,,SP,55,Write Transaction,00 00,..,,,,,,,,,,
0,2637,2:33.761.186,82.000 us,2 B,,SP,55,Read Transaction,00 00*,..,,,,,,,,,,
0,2638,2:33.775.852,79.000 us,2 B,,SP,55,Write Transaction,00 00,..,,,,,,,,,,
0,2639,2:33.781.198,82.200 us,2 B,,SP,55,Read Transaction,00 08*,..,,,,,,,,,,
0,2640,2:33.781.557,79.000 us,2 B,,SP,55,Write Transaction,12 01,..,,,,,,,,,,
0,2641,2:33.789.896,2.322.200 ms,92 B,,SP,55,Read Transaction,00 25 FD 48 02 5A 01 B3 02 5B 5A 02 5A F3 1F FF F4 1F FF F3 2F FF F3 2F FF F6 02 02 EE 64 00 00 00 00 00 00 00 00 00 00 00 00 00 00 00 03 00 00 00 00 00 00 00 00 00 00 00 00 00 00 00 00 00 00 00 00 00 00 00 00 00 00 00 00 00 00 00 00 00 00 00 00 02 00 01 5F 00 00 00 00 07 07*,.%.H.Z...[Z.Z......./../…,,,,,,,,,,
0,2642,2:33.795.858,79.100 us,2 B,,SP,55,Write Transaction,00 00,..,,,,,,,,,,
0,2643,2:33.801.204,81.900 us,2 B,,SP,55,Read Transaction,00 00*,..,,,,,,,,,,
0,2644,2:33.815.887,79.100 us,2 B,,SP,55,Write Transaction,00 00,..,,,,,,,,,,
0,2645,2:33.821.235,82.200 us,2 B,,SP,55,Read Transaction,00 08*,..,,,,,,,,,,
0,2646,2:33.821.595,79.000 us,2 B,,SP,55,Write Transaction,12 01,..,,,,,,,,,,
0,2647,2:33.829.930,2.322.400 ms,92 B,,SP,55,Read Transaction,00 2A FD 4D 02 55 01 AF 02 59 8B 02 59 28 10 00 0B 10 00 09 20 00 05 20 00 06 02 02 EE 64 00 00 00 00 00 00 00 00 00 00 00 00 00 00 00 03 00 00 00 00 00 00 00 00 00 00 00 00 00 00 00 00 00 00 00 00 00 00 00 00 00 00 00 00 00 00 00 00 00 00 00 00 02 00 01 5F 00 00 00 00 07 07*,.*.M.U...Y..Y(...... .. …,,,,,,,,,,
0,2648,2:33.835.902,79.100 us,2 B,,SP,55,Write Transaction,00 00,..,,,,,,,,,,
0,2649,2:33.841.249,81.900 us,2 B,,SP,55,Read Transaction,00 00*,..,,,,,,,,,,
0,2650,2:33.855.676,79.100 us,2 B,,SP,55,Write Transaction,00 00,..,,,,,,,,,,
0,2651,2:33.861.022,82.300 us,2 B,,SP,55,Read Transaction,00 08*,..,,,,,,,,,,
0,2652,2:33.861.380,78.900 us,2 B,,SP,55,Write Transaction,12 01,..,,,,,,,,,,
0,2653,2:33.869.723,2.322.500 ms,92 B,,SP,55,Read Transaction,00 2F FD 4D 02 4F 01 AF 02 58 84 02 58 1E 1F FF FB 1F FF FC 20 00 06 20 00 06 02 02 EE 64 00 00 00 00 00 00 00 00 00 00 00 00 00 00 00 03 00 00 00 00 00 00 00 00 00 00 00 00 00 00 00 00 00 00 00 00 00 00 00 00 00 00 00 00 00 00 00 00 00 00 00 00 02 00 02 64 00 00 00 00 07 07*,./.M.O...X..X....... .. …,,,,,,,,,,
0,2654,2:33.875.703,79.000 us,2 B,,SP,55,Write Transaction,00 00,..,,,,,,,,,,
0,2655,2:33.881.050,82.000 us,2 B,,SP,55,Read Transaction,00 00*,..,,,,,,,,,,
0,2656,2:33.895.708,78.900 us,2 B,,SP,55,Write Transaction,00 00,..,,,,,,,,,,
0,2657,2:33.901.054,82.200 us,2 B,,SP,55,Read Transaction,00 00*,..,,,,,,,,,,
0,2658,2:33.915.732,79.100 us,2 B,,SP,55,Write Transaction,00 00,..,,,,,,,,,,
0,2659,2:33.921.083,82.000 us,2 B,,SP,55,Read Transaction,00 00*,..,,,,,,,,,,
0,2660,2:33.935.750,79.100 us,2 B,,SP,55,Write Transaction,00 00,..,,,,,,,,,,
0,2661,2:33.941.095,82.300 us,2 B,,SP,55,Read Transaction,00 08*,..,,,,,,,,,,
0,2662,2:33.941.453,79.000 us,2 B,,SP,55,Write Transaction,12 01,..,,,,,,,,,,
0,2663,2:33.949.790,2.322.200 ms,92 B,,SP,55,Read Transaction,00 34 FD 4D 02 54 01 B2 02 57 DC 02 57 79 10 00 0D 10 00 0C 20 00 08 20 00 08 02 02 EE 64 00 00 00 00 00 00 00 00 00 00 00 00 00 00 00 03 00 00 00 00 00 00 00 00 00 00 00 00 00 00 00 00 00 00 00 00 00 00 00 00 00 00 00 00 00 00 00 00 00 00 00 00 02 00 02 64 00 00 00 00 07 07*,.4.M.T...W..Wy...... .. …,,,,,,,,,,
0,2664,2:33.955.130,103.900 us,3 B,,SP,55,Write Transaction,44 04 00,D..,,,,,,,,,,
0,2665,2:34.454.713,60.300 us,1 B,,SP,55,Read Transaction,00*,.,,,,,,,,,,
0,2666,2:34.455.044,103.900 us,3 B,,SP,55,Write Transaction,44 06 00,D..,,,,,,,,,,
0,2667,2:34.954.670,58.800 us,1 B,,SP,55,Read Transaction,00*,.,,,,,,,,,,
0,2668,2:34.954.999,103.900 us,3 B,,SP,55,Write Transaction,52 08 00,R..,,,,,,,,,,
0,2669,2:35.454.646,58.600 us,1 B,,SP,55,Read Transaction,00*,.,,,,,,,,,,
0,2670,2:35.455.129,103.900 us,3 B,,SP,55,Write Transaction,51 08 60,Q.`,,,,read cal vector,,,,,,
0,2671,2:35.460.500,6.032.600 ms,241 B,,SP,55,Read Transaction,00 4F 3C 34 01 E7 08 02 00 78 00 00 00 51 00 00 00 00 00 00 00 25 47 58 3C 00 00 92 42 67 39 3A 3F 7E 1D 61 BB 76 CE 0F 3D 97 78 DD 3D 26 6F 59 3E 70 A5 A8 3E 1D 5B E4 3E E2 E0 0C 3F 3B 0B 24 3F 44 41 38 3F 30 03 4A 3F 52 25 59 3F A2 A6 65 3F F5 24 70 3F 55 F8 77 3F F3 A0 7C 3F 4A F3 7E 3F F1 51 7F 3F 00 58 7E 3F 21 11 7D 3F 90 62 7B 3F 06 D0 78 3F 2C 8F 75 3F FC 83 71 3F 56 59 6C 3F 54 61 66 3F 9A 9A 5F 3F F2 52 58 3F FC 54 50 3F AD 86 47 3F 79 B3 3E 3F 84 72 35 3F 58 D0 2B 3F BA 29 22 3F 55 6E 18 3F 0A 5F 0E 3F 86 7A 04 3F 9F A7 F5 3E F3 B6 E2 3E F8 3F CF 3E 03 AA BB 3E 87 8B A8 3E FD 2F 96 3E 2C 22 83 3E 80 69 60 3E CE 68 39 3E 12 21 11 3E F6 73 D1 3D 78 85 80 3D 96 F9 E5 3C 01 DB 99 3B 00 00 00 00 4D 4D 4D 4D*,.O<4.....x...Q.......%GX…,,,,,,,,,,
0,2672,2:36.790.337,104.100 us,3 B,,SP,55,Write Transaction,44 04 00,D..,,,,,,,,,,
0,2673,2:37.289.890,57.400 us,1 B,,SP,55,Read Transaction,00*,.,,,,,,,,,,
0,2674,2:37.290.218,104.000 us,3 B,,SP,55,Write Transaction,44 06 00,D..,,,,,,,,,,
0,2675,2:37.789.813,57.500 us,1 B,,SP,55,Read Transaction,00*,.,,,,,,,,,,
0,2676,2:37.790.142,103.900 us,3 B,,SP,55,Write Transaction,52 08 00,R..,,,,stop,,,,,,
0,2677,2:38.289.705,58.400 us,1 B,,SP,55,Read Transaction,00*,.,,,,,,,,,,
0,2678,2:50.921.041,128.800 us,4 B,,SP,55,Write Transaction,50 08 63 0E,P.c.,,,,invalid cal_index,,s/b 0 instead of 0E,,,,
0,2679,2:50.926.436,57.000 us,1 B,,SP,55,Read Transaction,FF*,.,,,,,,,,,,
0,2680,2:56.956.720,6.077.800 ms,243 B,,SP,55,Write Transaction,50 08 60 4F 3C 34 01 E7 08 02 00 78 00 00 00 51 00 00 00 00 00 00 00 25 47 58 3C 00 00 92 42 67 39 3A 3F 7E 1D 61 BB 76 CE 0F 3D 97 78 DD 3D 26 6F 59 3E 70 A5 A8 3E 1D 5B E4 3E E2 E0 0C 3F 3B 0B 24 3F 44 41 38 3F 30 03 4A 3F 52 25 59 3F A2 A6 65 3F F5 24 70 3F 55 F8 77 3F F3 A0 7C 3F 4A F3 7E 3F F1 51 7F 3F 00 58 7E 3F 21 11 7D 3F 90 62 7B 3F 06 D0 78 3F 2C 8F 75 3F FC 83 71 3F 56 59 6C 3F 54 61 66 3F 9A 9A 5F 3F F2 52 58 3F FC 54 50 3F AD 86 47 3F 79 B3 3E 3F 84 72 35 3F 58 D0 2B 3F BA 29 22 3F 55 6E 18 3F 0A 5F 0E 3F 86 7A 04 3F 9F A7 F5 3E F3 B6 E2 3E F8 3F CF 3E 03 AA BB 3E 87 8B A8 3E FD 2F 96 3E 2C 22 83 3E 80 69 60 3E CE 68 39 3E 12 21 11 3E F6 73 D1 3D 78 85 80 3D 96 F9 E5 3C 01 DB 99 3B 00 00 00 00 4D 4D 4D 4D,P.`O<4.....x...Q.......%…,,,,,,,,,,
0,2681,2:56.968.065,57.100 us,1 B,,SP,55,Read Transaction,00*,.,,,,,,,,,,
0,2682,2:57.045.781,128.800 us,4 B,,SP,55,Write Transaction,50 08 0B 01,P...,,,,en AEC,,,,,,
0,2683,2:57.051.178,57.100 us,1 B,,SP,55,Read Transaction,00*,.,,,,,,,,,,
0,2684,2:57.051.507,128.900 us,4 B,,SP,55,Write Transaction,50 08 12 01,P...,,,,enable/disable automatic calculation of target PD current,,,,,,
0,2685,2:57.056.901,57.100 us,1 B,,SP,55,Read Transaction,00*,.,,,,,,,,,,
0,2686,2:57.057.231,153.700 us,5 B,,SP,55,Write Transaction,50 08 1A 00 03,P....,,,,Set PPG measurement 1 AFE integration time to 117.3us,,,,,,
0,2687,2:57.062.649,57.200 us,1 B,,SP,55,Read Transaction,00*,.,,,,,,,,,,
0,2688,2:57.062.979,153.700 us,5 B,,SP,55,Write Transaction,50 08 15 01 03,P....,,,,Set PPG measurement 2 AFE maximum integration time to 117.3us,,,,,,
0,2689,2:57.068.399,57.000 us,1 B,,SP,55,Read Transaction,00*,.,,,,,,,,,,
0,2690,2:57.068.728,153.700 us,5 B,,SP,55,Write Transaction,50 08 15 02 03,P....,,,,Set PPG measurement 3 AFE maximum integration time to 117.3us,,,,,,
0,2691,2:57.074.148,57.100 us,1 B,,SP,55,Read Transaction,00*,.,,,,,,,,,,
0,2692,2:57.074.479,153.700 us,5 B,,SP,55,Write Transaction,50 08 1B 00 01,P....,,,,"Write initial sampling rate and averaging PPG measurement 1 to 25sps, avg = 1",,,,,,
0,2693,2:57.079.903,57.400 us,1 B,,SP,55,Read Transaction,00*,.,,,,,,,,,,
0,2694,2:57.080.233,153.900 us,5 B,,SP,55,Write Transaction,50 08 1B 01 04,P....,,,,"Write initial sampling rate and averaging PPG measurement 2 to 400sps, avg = 4",,,,,,
0,2695,2:57.085.657,57.300 us,1 B,,SP,55,Read Transaction,00*,.,,,,,,,,,,
0,2696,2:57.085.986,153.800 us,5 B,,SP,55,Write Transaction,50 08 14 01 04,P....,,,,"Write minimum sampling rate and averaging PPG measurement 2 to 400sps, avg = 4",,,,,,
0,2697,2:57.091.414,57.100 us,1 B,,SP,55,Read Transaction,00*,.,,,,,,,,,,
0,2698,2:57.091.746,153.800 us,5 B,,SP,55,Write Transaction,50 08 16 01 10,P....,,,,,,,,,,
0,2699,2:57.097.173,57.200 us,1 B,,SP,55,Read Transaction,00*,.,,,,,,,,,,
0,2700,2:57.097.503,153.700 us,5 B,,SP,55,Write Transaction,50 08 1B 02 04,P....,,,,,,,,,,
0,2701,2:57.102.923,57.300 us,1 B,,SP,55,Read Transaction,00*,.,,,,,,,,,,
0,2702,2:57.103.253,153.700 us,5 B,,SP,55,Write Transaction,50 08 14 02 04,P....,,,,,,,,,,
0,2703,2:57.108.673,57.000 us,1 B,,SP,55,Read Transaction,00*,.,,,,,,,,,,
0,2704,2:57.109.002,153.600 us,5 B,,SP,55,Write Transaction,50 08 16 02 10,P....,,,,,,,,,,
0,2705,2:57.114.419,57.300 us,1 B,,SP,55,Read Transaction,00*,.,,,,,,,,,,
0,2706,2:57.114.749,153.700 us,5 B,,SP,55,Write Transaction,50 08 0F 00 7D,P...},,,,,,,,,,
0,2707,2:57.120.170,57.000 us,1 B,,SP,55,Read Transaction,00*,.,,,,,,,,,,
0,2708,2:57.120.499,153.700 us,5 B,,SP,55,Write Transaction,50 08 10 01 38,P...8,,,,,,,,,,
0,2709,2:57.125.919,57.000 us,1 B,,SP,55,Read Transaction,00*,.,,,,,,,,,,
0,2710,2:57.126.249,153.700 us,5 B,,SP,55,Write Transaction,50 08 0D 07 08,P....,,,,,,,,,,
0,2711,2:57.131.669,57.000 us,1 B,,SP,55,Read Transaction,00*,.,,,,,,,,,,
0,2712,2:57.132.000,153.700 us,5 B,,SP,55,Write Transaction,50 08 0E 00 32,P...2,,,,,,,,,,
0,2713,2:57.137.426,57.100 us,1 B,,SP,55,Read Transaction,00*,.,,,,,,,,,,
0,2714,2:57.137.756,153.900 us,5 B,,SP,55,Write Transaction,50 08 23 00 00,P.#..,,,,,,,,,,
0,2715,2:57.143.184,57.700 us,1 B,,SP,55,Read Transaction,00*,.,,,,,,,,,,
0,2716,2:57.143.515,154.000 us,5 B,,SP,55,Write Transaction,50 08 24 00 00,P.$..,,,,,,,,,,
0,2717,2:57.148.939,57.400 us,1 B,,SP,55,Read Transaction,00*,.,,,,,,,,,,
0,2718,2:57.149.269,153.700 us,5 B,,SP,55,Write Transaction,50 08 1C 00 00,P....,,,,,,,,,,
0,2719,2:57.154.687,57.100 us,1 B,,SP,55,Read Transaction,00*,.,,,,,,,,,,
0,2720,2:57.155.016,153.600 us,5 B,,SP,55,Write Transaction,50 08 23 01 00,P.#..,,,,,,,,,,
0,2721,2:57.160.434,57.500 us,1 B,,SP,55,Read Transaction,00*,.,,,,,,,,,,
0,2722,2:57.160.763,153.600 us,5 B,,SP,55,Write Transaction,50 08 24 01 00,P.$..,,,,,,,,,,
0,2723,2:57.166.179,57.400 us,1 B,,SP,55,Read Transaction,00*,.,,,,,,,,,,
0,2724,2:57.166.508,153.700 us,5 B,,SP,55,Write Transaction,50 08 23 02 00,P.#..,,,,,,,,,,
0,2725,2:57.171.928,57.500 us,1 B,,SP,55,Read Transaction,00*,.,,,,,,,,,,
0,2726,2:57.172.257,153.600 us,5 B,,SP,55,Write Transaction,50 08 24 02 00,P.$..,,,,,,,,,,
0,2727,2:57.177.677,57.300 us,1 B,,SP,55,Read Transaction,00*,.,,,,,,,,,,
0,2728,2:57.178.009,178.700 us,6 B,,SP,55,Write Transaction,50 08 25 00 00 64,P.%..d,,,,,,,,,,
0,2729,2:57.183.455,57.200 us,1 B,,SP,55,Read Transaction,00*,.,,,,,,,,,,
0,2730,2:57.183.785,178.600 us,6 B,,SP,55,Write Transaction,50 08 25 01 00 C8,P.%...,,,,,,,,,,
0,2731,2:57.189.229,57.200 us,1 B,,SP,55,Read Transaction,00*,.,,,,,,,,,,
0,2732,2:57.189.559,178.500 us,6 B,,SP,55,Write Transaction,50 08 25 02 00 C8,P.%...,,,,,,,,,,
0,2733,2:57.195.003,57.400 us,1 B,,SP,55,Read Transaction,00*,.,,,,,,,,,,
0,2734,2:57.195.334,153.800 us,5 B,,SP,55,Write Transaction,50 08 11 01 38,P...8,,,,,,,,,,
0,2735,2:57.200.756,57.100 us,1 B,,SP,55,Read Transaction,00*,.,,,,,,,,,,
0,2736,2:57.201.084,128.800 us,4 B,,SP,55,Write Transaction,50 08 0C 01,P...,,,,,,,,,,
0,2737,2:57.206.479,57.000 us,1 B,,SP,55,Read Transaction,00*,.,,,,,,,,,,
0,2738,2:57.206.810,103.900 us,3 B,,SP,55,Write Transaction,10 00 07,...,,,,,,,,,,
0,2739,2:57.212.180,57.000 us,1 B,,SP,55,Read Transaction,00*,.,,,,,,,,,,
0,2740,2:57.212.508,103.800 us,3 B,,SP,55,Write Transaction,10 02 05,...,,,,,,,,,,
0,2741,2:57.217.878,57.100 us,1 B,,SP,55,Read Transaction,00*,.,,,,,,,,,,
0,2742,2:57.218.207,128.800 us,4 B,,SP,55,Write Transaction,40 06 10 01,@...,,,,,,,,,,
0,2743,2:57.223.605,57.300 us,1 B,,SP,55,Read Transaction,00*,.,,,,,,,,,,
0,2744,2:57.223.935,128.800 us,4 B,,SP,55,Write Transaction,40 06 10 02,@...,,,,,,,,,,
0,2745,2:57.229.329,57.400 us,1 B,,SP,55,Read Transaction,00*,.,,,,,,,,,,
0,2746,2:57.229.658,128.800 us,4 B,,SP,55,Write Transaction,40 06 15 1E,@...,,,,,,,,,,
0,2747,2:57.235.056,57.400 us,1 B,,SP,55,Read Transaction,00*,.,,,,,,,,,,
0,2748,2:57.235.386,128.800 us,4 B,,SP,55,Write Transaction,40 06 18 80,@...,,,,,,,,,,
0,2749,2:57.240.780,57.400 us,1 B,,SP,55,Read Transaction,00*,.,,,,,,,,,,
0,2750,2:57.241.110,128.800 us,4 B,,SP,55,Write Transaction,40 06 19 9F,@...,,,,,,,,,,
0,2751,2:57.246.507,57.300 us,1 B,,SP,55,Read Transaction,00*,.,,,,,,,,,,
0,2752,2:57.246.836,128.700 us,4 B,,SP,55,Write Transaction,40 06 1A 3F,@..?,,,,,,,,,,
0,2753,2:57.252.235,57.400 us,1 B,,SP,55,Read Transaction,00*,.,,,,,,,,,,
0,2754,2:57.252.565,129.000 us,4 B,,SP,55,Write Transaction,40 06 1C 20,@.. ,,,,,,,,,,
0,2755,2:57.257.966,57.300 us,1 B,,SP,55,Read Transaction,00*,.,,,,,,,,,,
0,2756,2:57.258.295,128.900 us,4 B,,SP,55,Write Transaction,40 06 1D 05,@...,,,,,,,,,,
0,2757,2:57.263.690,57.400 us,1 B,,SP,55,Read Transaction,00*,.,,,,,,,,,,
0,2758,2:57.264.020,128.800 us,4 B,,SP,55,Write Transaction,40 06 1E 1F,@...,,,,,,,,,,
0,2759,2:57.269.419,57.300 us,1 B,,SP,55,Read Transaction,00*,.,,,,,,,,,,
0,2760,2:57.269.749,128.800 us,4 B,,SP,55,Write Transaction,40 06 0D E8,@...,,,,,,,,,,
0,2761,2:57.275.144,57.300 us,1 B,,SP,55,Read Transaction,00*,.,,,,,,,,,,
0,2762,2:57.275.473,128.700 us,4 B,,SP,55,Write Transaction,40 06 86 80,@...,,,,,,,,,,
0,2763,2:57.280.867,57.300 us,1 B,,SP,55,Read Transaction,00*,.,,,,,,,,,,
0,2764,2:57.281.195,128.700 us,4 B,,SP,55,Write Transaction,44 04 01 00,D...,,,,,,,,,,
0,2765,2:57.780.856,57.800 us,1 B,,SP,55,Read Transaction,00*,.,,,,,,,,,,
0,2766,2:57.781.185,128.800 us,4 B,,SP,55,Write Transaction,44 06 01 00,D...,,,,,,,,,,
0,2767,2:58.280.710,57.600 us,1 B,,SP,55,Read Transaction,00*,.,,,,,,,,,,
0,2768,2:58.281.041,128.800 us,4 B,,SP,55,Write Transaction,50 08 40 03,P.@.,,,,,,,,,,
0,2769,2:58.286.437,57.000 us,1 B,,SP,55,Read Transaction,00*,.,,,,,,,,,,
0,2770,2:58.286.810,128.800 us,4 B,,SP,55,Write Transaction,50 08 51 01,P.Q.,,,,,,,,,,
0,2771,2:58.292.206,57.000 us,1 B,,SP,55,Read Transaction,00*,.,,,,,,,,,,
0,2772,2:58.292.535,103.900 us,3 B,,SP,55,Write Transaction,52 08 02,R..,,,,,,,,,,
0,2773,2:58.792.161,60.400 us,1 B,,SP,55,Read Transaction,00*,.,,,,,,,,,,
0,2774,2:58.792.578,79.000 us,2 B,,SP,55,Write Transaction,00 00,..,,,,,,,,,,
0,2775,2:58.797.927,82.000 us,2 B,,SP,55,Read Transaction,00 08*,..,,,,,,,,,,
0,2776,2:58.798.287,79.100 us,2 B,,SP,55,Write Transaction,12 01,..,,,,,,,,,,
0,2777,2:58.806.629,2.322.800 ms,92 B,,SP,55,Read Transaction,00 6B FD 3F 02 4B 01 A4 02 D8 F2 02 D8 71 B7 FF FF B7 FF FF B7 FF FF B7 FF FF 00 02 58 00 00 00 00 01 00 00 00 00 00 00 00 00 00 00 00 02 00 00 00 00 00 00 00 00 00 00 00 00 00 00 00 00 00 00 00 00 00 00 00 00 00 00 00 00 00 00 00 00 00 00 00 00 00 00 04 00 00 00 00 00 00 00*,.k.?.K.......q..........…,,,,,,,,,,
0,2778,2:58.811.708,79.100 us,2 B,,SP,55,Write Transaction,00 00,..,,,,,,,,,,
0,2779,2:58.817.055,82.000 us,2 B,,SP,55,Read Transaction,00 08*,..,,,,,,,,,,
0,2780,2:58.817.413,79.000 us,2 B,,SP,55,Write Transaction,12 01,..,,,,,,,,,,
0,2781,2:58.825.753,2.326.000 ms,92 B,,SP,55,Read Transaction,00 70 FD 43 02 52 01 A2 02 D8 3E 02 D7 BE B7 FF FF B7 FF FF B7 FF FF B7 FF FF 00 02 58 00 00 00 00 01 00 00 00 00 00 00 00 00 00 00 00 02 00 00 00 00 00 00 00 00 00 00 00 00 00 00 00 00 81 18 00 00 00 81 18 00 00 00 00 00 00 00 00 00 00 00 00 00 02 01 04 00 00 00 00 00 00 00*,.p.C.R....>.............…,,,,,,,,,,
0,2782,2:58.831.729,79.100 us,2 B,,SP,55,Write Transaction,00 00,..,,,,,,,,,,
0,2783,2:58.837.076,82.000 us,2 B,,SP,55,Read Transaction,00 08*,..,,,,,,,,,,
0,2784,2:58.837.434,79.000 us,2 B,,SP,55,Write Transaction,12 01,..,,,,,,,,,,
0,2785,2:58.845.778,2.322.700 ms,92 B,,SP,55,Read Transaction,00 75 FD 42 02 4E 01 AA 02 D7 F8 02 D7 73 B7 FF FF B7 FF FF B7 FF FF B7 FF FF 00 02 58 00 00 00 00 01 00 00 00 00 00 00 00 00 00 00 00 02 00 00 00 00 00 00 00 00 00 00 00 00 00 00 00 00 81 04 00 00 00 81 04 00 00 00 00 00 00 00 00 00 00 00 00 00 02 01 04 00 00 00 00 00 00 00*,.u.B.N.......s..........…,,,,,,,,,,
0,2786,2:58.851.752,79.000 us,2 B,,SP,55,Write Transaction,00 00,..,,,,,,,,,,
0,2787,2:58.857.100,82.000 us,2 B,,SP,55,Read Transaction,00 08*,..,,,,,,,,,,
0,2788,2:58.857.458,79.000 us,2 B,,SP,55,Write Transaction,12 01,..,,,,,,,,,,
0,2789,2:58.865.799,2.325.900 ms,92 B,,SP,55,Read Transaction,00 7A FD 44 02 50 01 AB 02 81 12 02 80 A0 B7 FF FF B7 FF FF B7 FF FF B7 FF FF 00 02 58 00 00 00 00 01 00 00 00 00 00 00 00 00 00 00 00 02 00 00 00 00 00 00 00 00 00 00 00 00 00 00 00 00 80 FA 00 00 00 80 FA 00 00 00 00 00 00 00 00 00 00 00 00 00 02 01 04 00 00 00 00 00 00 00*,.z.D.P..................…,,,,,,,,,,
0,2790,2:58.871.763,79.000 us,2 B,,SP,55,Write Transaction,00 00,..,,,,,,,,,,
0,2791,2:58.877.110,82.000 us,2 B,,SP,55,Read Transaction,00 08*,..,,,,,,,,,,
0,2792,2:58.877.468,79.200 us,2 B,,SP,55,Write Transaction,12 01,..,,,,,,,,,,
0,2793,2:58.885.811,2.322.800 ms,92 B,,SP,55,Read Transaction,00 7F FD 42 02 4D 01 A3 02 55 15 02 54 AC B7 FF FF B7 FF FF B7 FF FF B7 FF FF 00 02 58 00 00 00 00 01 00 00 00 00 00 00 00 00 00 00 00 02 00 00 00 00 00 00 00 00 00 00 00 00 00 00 00 00 00 00 00 00 00 00 00 00 00 00 00 00 00 00 00 00 00 00 00 00 02 01 04 00 00 00 00 00 00 00*,...B.M...U..T...........…,,,,,,,,,,
0,2794,2:58.891.791,79.000 us,2 B,,SP,55,Write Transaction,00 00,..,,,,,,,,,,
0,2795,2:58.897.138,82.000 us,2 B,,SP,55,Read Transaction,00 08*,..,,,,,,,,,,
0,2796,2:58.897.497,79.100 us,2 B,,SP,55,Write Transaction,12 01,..,,,,,,,,,,
0,2797,2:58.905.838,2.326.000 ms,92 B,,SP,55,Read Transaction,00 84 FD 44 02 50 01 A8 02 55 BB 02 55 4F B7 FF FF B7 FF FF B7 FF FF B7 FF FF 00 02 58 00 00 00 00 01 00 00 00 00 00 00 00 00 00 00 00 02 00 00 00 00 00 00 00 00 00 00 00 00 00 00 00 00 00 00 00 00 00 00 00 00 00 00 00 00 00 00 00 00 00 00 00 00 02 01 04 00 00 00 00 00 00 00*,...D.P...U..UO..........…,,,,,,,,,,
0,2798,2:58.911.804,79.000 us,2 B,,SP,55,Write Transaction,00 00,..,,,,,,,,,,
0,2799,2:58.917.149,82.000 us,2 B,,SP,55,Read Transaction,00 08*,..,,,,,,,,,,
0,2800,2:58.917.508,79.000 us,2 B,,SP,55,Write Transaction,12 01,..,,,,,,,,,,
0,2801,2:58.925.850,2.322.800 ms,92 B,,SP,55,Read Transaction,00 89 FD 3E 02 50 01 9F 02 56 56 02 55 EC B7 FF FF B7 FF FF B7 FF FF B7 FF FF 00 02 58 00 00 00 00 01 00 00 00 00 00 00 00 00 00 00 00 02 00 00 00 00 00 00 00 00 00 00 00 00 00 00 00 00 00 00 00 00 00 00 00 00 00 00 00 00 00 00 00 00 00 00 00 00 02 01 04 00 00 00 00 00 00 00*,...>.P...VV.U...........…,,,,,,,,,,
0,2802,2:58.931.829,79.000 us,2 B,,SP,55,Write Transaction,00 00,..,,,,,,,,,,
0,2803,2:58.937.179,81.900 us,2 B,,SP,55,Read Transaction,00 08*,..,,,,,,,,,,
0,2804,2:58.937.539,79.100 us,2 B,,SP,55,Write Transaction,12 01,..,,,,,,,,,,
0,2805,2:58.945.880,2.325.800 ms,92 B,,SP,55,Read Transaction,00 8E FD 3D 02 4A 01 A5 02 57 51 02 56 E7 B7 FF FF B7 FF FF B7 FF FF B7 FF FF 00 02 58 00 00 00 00 01 00 00 00 00 00 00 00 00 00 00 00 02 00 00 00 00 00 00 00 00 00 00 00 00 00 00 00 00 00 00 00 00 00 00 00 00 00 00 00 00 00 00 00 00 00 00 00 00 02 01 04 00 00 00 00 00 00 00*,...=.J...WQ.V...........…,,,,,,,,,,
0,2806,2:58.951.847,79.100 us,2 B,,SP,55,Write Transaction,00 00,..,,,,,,,,,,
0,2807,2:58.957.194,82.000 us,2 B,,SP,55,Read Transaction,00 08*,..,,,,,,,,,,
0,2808,2:58.957.552,79.000 us,2 B,,SP,55,Write Transaction,12 01,..,,,,,,,,,,
0,2809,2:58.965.893,2.322.800 ms,92 B,,SP,55,Read Transaction,00 93 FD 41 02 50 01 9F 02 58 3E 02 57 D9 B7 FF FF B7 FF FF B7 FF FF B7 FF FF 00 02 58 00 00 00 00 01 00 00 00 00 00 00 00 00 00 00 00 02 00 00 00 00 00 00 00 00 00 00 00 00 00 00 00 00 00 00 00 00 00 00 00 00 00 00 00 00 00 00 00 00 00 00 00 00 02 01 04 00 00 00 00 00 00 00*,...A.P...X>.W...........…,,,,,,,,,,
0,2810,2:58.971.862,79.100 us,2 B,,SP,55,Write Transaction,00 00,..,,,,,,,,,,
0,2811,2:58.977.212,82.000 us,2 B,,SP,55,Read Transaction,00 08*,..,,,,,,,,,,
0,2812,2:58.977.572,79.000 us,2 B,,SP,55,Write Transaction,12 01,..,,,,,,,,,,
0,2813,2:58.985.914,2.326.000 ms,92 B,,SP,55,Read Transaction,00 98 FD 42 02 4C 01 A7 02 59 2E 02 58 BF B7 FF FF B7 FF FF B7 FF FF B7 FF FF 00 02 58 00 00 00 00 01 00 00 00 00 00 00 00 00 00 00 00 02 00 00 00 00 00 00 00 00 00 00 00 00 00 00 00 00 00 00 00 00 00 00 00 00 00 00 80 E6 00 00 00 80 E6 00 00 00 02 01 04 00 00 00 00 00 00 00*,...B.L...Y..X...........…,,,,,,,,,,
0,2814,2:58.991.881,79.100 us,2 B,,SP,55,Write Transaction,00 00,..,,,,,,,,,,
0,2815,2:58.997.227,82.000 us,2 B,,SP,55,Read Transaction,00 08*,..,,,,,,,,,,
0,2816,2:58.997.585,79.000 us,2 B,,SP,55,Write Transaction,12 01,..,,,,,,,,,,
0,2817,2:59.005.926,2.322.700 ms,92 B,,SP,55,Read Transaction,00 9D FD 3F 02 4E 01 A3 02 5A 1E 02 59 B1 B7 FF FF B7 FF FF B7 FF FF B7 FF FF 00 02 58 00 00 00 00 01 00 00 00 00 00 00 00 00 00 00 00 02 00 00 00 00 00 00 00 00 00 00 00 00 00 00 00 00 00 00 00 00 00 00 00 00 00 00 00 00 00 00 00 00 00 00 00 00 02 01 04 00 00 00 00 00 00 00*,...?.N...Z..Y...........…,,,,,,,,,,
0,2818,2:59.011.893,79.000 us,2 B,,SP,55,Write Transaction,00 00,..,,,,,,,,,,
0,2819,2:59.017.239,82.100 us,2 B,,SP,55,Read Transaction,00 08*,..,,,,,,,,,,
0,2820,2:59.017.598,79.100 us,2 B,,SP,55,Write Transaction,12 01,..,,,,,,,,,,
0,2821,2:59.025.954,2.329.500 ms,92 B,,SP,55,Read Transaction,00 A2 FD 42 02 51 01 A5 02 5B 33 02 5A C6 B7 FF FF B7 FF FF B7 FF FF B7 FF FF 00 02 58 00 00 00 00 01 00 00 00 00 00 00 00 00 00 00 00 02 00 00 00 00 00 00 00 00 00 00 00 00 00 00 00 00 00 00 00 00 00 00 00 00 00 00 00 00 00 00 00 00 00 00 00 00 02 01 04 00 00 00 00 00 00 00*,...B.Q...[3.Z...........…,,,,,,,,,,
0,2822,2:59.031.673,79.200 us,2 B,,SP,55,Write Transaction,00 00,..,,,,,,,,,,
0,2823,2:59.037.021,81.900 us,2 B,,SP,55,Read Transaction,00 08*,..,,,,,,,,,,
0,2824,2:59.037.380,79.000 us,2 B,,SP,55,Write Transaction,12 01,..,,,,,,,,,,
0,2825,2:59.045.722,2.322.700 ms,92 B,,SP,55,Read Transaction,00 A7 FD 44 02 52 01 A5 02 5C 62 02 5B FB B7 FF FF B7 FF FF B7 FF FF B7 FF FF 00 02 58 00 00 00 00 01 00 00 00 00 00 00 00 00 00 00 00 02 00 00 00 00 00 00 00 00 00 00 00 00 00 00 00 00 00 00 00 00 00 00 00 00 00 00 00 00 00 00 00 00 00 00 00 00 02 01 04 00 00 00 00 00 00 00*,...D.R...\b.[...........…,,,,,,,,,,
0,2826,2:59.051.684,79.000 us,2 B,,SP,55,Write Transaction,00 00,..,,,,,,,,,,
0,2827,2:59.057.031,81.900 us,2 B,,SP,55,Read Transaction,00 08*,..,,,,,,,,,,
0,2828,2:59.057.390,79.000 us,2 B,,SP,55,Write Transaction,12 01,..,,,,,,,,,,
0,2829,2:59.065.730,2.326.100 ms,92 B,,SP,55,Read Transaction,00 AC FD 43 02 4D 01 A7 02 5D 70 02 5D 01 B7 FF FF B7 FF FF B7 FF FF B7 FF FF 00 02 58 00 00 00 00 01 00 00 00 00 00 00 00 00 00 00 00 02 00 00 00 00 00 00 00 00 00 00 00 00 00 00 00 00 00 00 00 00 00 00 00 00 00 00 00 00 00 00 00 00 00 00 00 00 02 01 04 00 00 00 00 00 00 00*,...C.M...]p.]...........…,,,,,,,,,,
0,2830,2:59.071.709,79.000 us,2 B,,SP,55,Write Transaction,00 00,..,,,,,,,,,,
0,2831,2:59.077.067,82.000 us,2 B,,SP,55,Read Transaction,00 08*,..,,,,,,,,,,
0,2832,2:59.077.427,79.000 us,2 B,,SP,55,Write Transaction,12 01,..,,,,,,,,,,
0,2833,2:59.085.767,2.322.800 ms,92 B,,SP,55,Read Transaction,00 B1 FD 41 02 4F 01 AA 02 5E 1F 02 5D B4 B7 FF FF B7 FF FF B7 FF FF B7 FF FF 00 02 58 00 00 00 00 01 00 00 00 00 00 00 00 00 00 00 00 02 00 00 00 00 00 00 00 00 00 00 00 00 00 00 00 00 00 00 00 00 00 00 00 00 00 00 00 00 00 00 00 00 00 00 00 00 02 01 04 00 00 00 00 00 00 00*,...A.O...^..]...........…,,,,,,,,,,
0,2834,2:59.091.736,79.000 us,2 B,,SP,55,Write Transaction,00 00,..,,,,,,,,,,
0,2835,2:59.097.083,81.900 us,2 B,,SP,55,Read Transaction,00 00*,..,,,,,,,,,,
0,2836,2:59.111.741,79.000 us,2 B,,SP,55,Write Transaction,00 00,..,,,,,,,,,,
0,2837,2:59.117.091,82.300 us,2 B,,SP,55,Read Transaction,00 08*,..,,,,,,,,,,
0,2838,2:59.117.451,79.000 us,2 B,,SP,55,Write Transaction,12 01,..,,,,,,,,,,
0,2839,2:59.125.793,2.322.700 ms,92 B,,SP,55,Read Transaction,00 B6 FD 42 02 55 01 A2 02 5C 60 02 5B F7 B7 FF FF B7 FF FF B7 FF FF B7 FF FF 00 02 58 00 00 00 00 01 00 00 00 00 00 00 00 00 00 00 00 02 00 00 00 00 00 00 00 00 00 00 00 00 00 00 00 00 00 00 00 00 00 00 00 00 00 00 00 00 00 00 00 00 00 00 00 00 02 01 04 00 00 00 00 00 00 00*,...B.U...\`.[...........…,,,,,,,,,,
0,2840,2:59.131.765,79.100 us,2 B,,SP,55,Write Transaction,00 00,..,,,,,,,,,,
0,2841,2:59.137.111,82.000 us,2 B,,SP,55,Read Transaction,00 00*,..,,,,,,,,,,
0,2842,2:59.151.777,79.000 us,2 B,,SP,55,Write Transaction,00 00,..,,,,,,,,,,
0,2843,2:59.157.123,82.200 us,2 B,,SP,55,Read Transaction,00 08*,..,,,,,,,,,,
0,2844,2:59.157.484,78.900 us,2 B,,SP,55,Write Transaction,12 01,..,,,,,,,,,,
0,2845,2:59.165.827,2.322.700 ms,92 B,,SP,55,Read Transaction,00 BB FD 40 02 4B 01 A7 02 5A 80 02 5A 17 B7 FF FF B7 FF FF B7 FF FF B7 FF FF 00 02 58 00 00 00 00 01 00 00 00 00 00 00 00 00 00 00 00 02 00 00 00 00 00 00 00 00 00 00 00 00 00 00 00 00 00 00 00 00 00 00 00 00 00 00 00 00 00 00 00 00 00 00 00 00 02 01 04 00 00 00 00 00 00 00*,...@.K...Z..Z...........…,,,,,,,,,,
0,2846,2:59.171.798,79.100 us,2 B,,SP,55,Write Transaction,00 00,..,,,,,,,,,,
0,2847,2:59.177.152,82.100 us,2 B,,SP,55,Read Transaction,00 00*,..,,,,,,,,,,
0,2848,2:59.191.822,79.000 us,2 B,,SP,55,Write Transaction,00 00,..,,,,,,,,,,
0,2849,2:59.197.170,82.200 us,2 B,,SP,55,Read Transaction,00 08*,..,,,,,,,,,,
0,2850,2:59.197.528,79.000 us,2 B,,SP,55,Write Transaction,12 01,..,,,,,,,,,,
0,2851,2:59.205.871,2.322.400 ms,92 B,,SP,55,Read Transaction,00 C0 FD 3E 02 4C 01 A1 02 58 F5 02 58 90 B7 FF FF B7 FF FF B7 FF FF B7 FF FF 00 02 58 00 00 00 00 01 00 00 00 00 00 00 00 00 00 00 00 02 00 00 00 00 00 00 00 00 00 00 00 00 00 00 00 00 00 00 00 00 00 00 00 00 00 00 00 00 00 00 00 00 00 00 00 00 02 01 04 00 00 00 00 00 00 00*,...>.L...X..X...........…,,,,,,,,,,
0,2852,2:59.211.844,79.000 us,2 B,,SP,55,Write Transaction,00 00,..,,,,,,,,,,
0,2853,2:59.217.189,81.900 us,2 B,,SP,55,Read Transaction,00 00*,..,,,,,,,,,,
0,2854,2:59.231.854,79.100 us,2 B,,SP,55,Write Transaction,00 00,..,,,,,,,,,,
0,2855,2:59.237.201,82.200 us,2 B,,SP,55,Read Transaction,00 08*,..,,,,,,,,,,
0,2856,2:59.237.559,79.000 us,2 B,,SP,55,Write Transaction,12 01,..,,,,,,,,,,
0,2857,2:59.245.899,2.321.900 ms,92 B,,SP,55,Read Transaction,00 C5 FD 43 02 4D 01 A9 02 57 FE 02 57 91 B7 FF FF B7 FF FF B7 FF FF B7 FF FF 00 02 58 00 00 00 00 01 00 00 00 00 00 00 00 00 00 00 00 02 00 00 00 00 00 00 00 00 00 00 00 00 00 00 00 00 00 00 00 00 00 00 00 00 00 00 00 00 00 00 00 00 00 00 00 00 02 01 04 00 00 00 00 00 00 00*,...C.M...W..W...........…,,,,,,,,,,
0,2858,2:59.251.872,79.000 us,2 B,,SP,55,Write Transaction,00 00,..,,,,,,,,,,
0,2859,2:59.257.217,82.000 us,2 B,,SP,55,Read Transaction,00 00*,..,,,,,,,,,,
0,2860,2:59.271.898,79.000 us,2 B,,SP,55,Write Transaction,00 00,..,,,,,,,,,,
0,2861,2:59.277.243,82.200 us,2 B,,SP,55,Read Transaction,00 00*,..,,,,,,,,,,
0,2862,2:59.291.670,79.000 us,2 B,,SP,55,Write Transaction,00 00,..,,,,,,,,,,
0,2863,2:59.297.020,81.900 us,2 B,,SP,55,Read Transaction,00 00*,..,,,,,,,,,,
0,2864,2:59.311.683,79.200 us,2 B,,SP,55,Write Transaction,00 00,..,,,,,,,,,,
0,2865,2:59.317.038,82.400 us,2 B,,SP,55,Read Transaction,00 08*,..,,,,,,,,,,
0,2866,2:59.317.397,79.100 us,2 B,,SP,55,Write Transaction,12 01,..,,,,,,,,,,
0,2867,2:59.325.742,2.322.500 ms,92 B,,SP,55,Read Transaction,00 CA FD 3F 02 4D 01 A0 02 57 A1 02 57 34 B7 FF FF B7 FF FF B7 FF FF B7 FF FF 00 02 58 00 00 00 00 01 00 00 00 00 00 00 00 00 00 00 00 02 00 00 00 00 00 00 00 00 00 00 00 00 00 00 00 00 00 00 00 00 00 00 00 00 00 00 80 AA 00 00 00 80 AA 00 00 00 02 01 04 00 00 00 00 00 00 00*,...?.M...W..W4..........…,,,,,,,,,,
0,2868,2:59.331.702,79.000 us,2 B,,SP,55,Write Transaction,00 00,..,,,,,,,,,,
0,2869,2:59.337.051,81.900 us,2 B,,SP,55,Read Transaction,00 00*,..,,,,,,,,,,
0,2870,2:59.351.733,79.200 us,2 B,,SP,55,Write Transaction,00 00,..,,,,,,,,,,
0,2871,2:59.357.082,82.300 us,2 B,,SP,55,Read Transaction,00 08*,..,,,,,,,,,,
0,2872,2:59.357.441,79.100 us,2 B,,SP,55,Write Transaction,12 01,..,,,,,,,,,,
0,2873,2:59.365.791,2.325.700 ms,92 B,,SP,55,Read Transaction,00 CF FD 3D 02 4E 01 A3 02 57 AF 02 57 46 15 F2 96 15 F1 AD B7 FF FF B7 FF FF 00 02 58 00 00 00 00 01 00 00 00 00 00 00 00 00 00 00 00 02 00 00 00 00 00 00 00 00 00 00 00 00 00 00 00 00 00 00 00 00 00 00 00 00 00 00 00 00 00 00 00 00 00 00 00 00 02 01 00 00 00 00 00 00 00 00*,...=.N...W..WF..........…,,,,,,,,,,
0,2874,2:59.371.749,79.100 us,2 B,,SP,55,Write Transaction,00 00,..,,,,,,,,,,
0,2875,2:59.377.098,81.900 us,2 B,,SP,55,Read Transaction,00 00*,..,,,,,,,,,,
0,2876,2:59.391.767,78.900 us,2 B,,SP,55,Write Transaction,00 00,..,,,,,,,,,,
0,2877,2:59.397.113,82.300 us,2 B,,SP,55,Read Transaction,00 08*,..,,,,,,,,,,
0,2878,2:59.397.472,79.000 us,2 B,,SP,55,Write Transaction,12 01,..,,,,,,,,,,
0,2879,2:59.405.813,2.326.000 ms,92 B,,SP,55,Read Transaction,00 D4 FD 42 02 50 01 A6 02 57 E1 02 57 79 15 F2 F5 15 F2 09 B7 FF FF B7 FF FF 00 02 58 00 00 00 00 01 00 00 00 00 00 00 00 00 00 00 00 02 00 00 00 00 00 00 00 00 00 00 00 00 00 00 00 00 00 00 00 00 00 00 00 00 00 00 00 00 00 00 00 00 00 00 00 00 02 01 00 00 00 00 00 00 00 00*,...B.P...W..Wy..........…,,,,,,,,,,
0,2880,2:59.411.784,79.000 us,2 B,,SP,55,Write Transaction,00 00,..,,,,,,,,,,
0,2881,2:59.417.131,81.900 us,2 B,,SP,55,Read Transaction,00 00*,..,,,,,,,,,,
0,2882,2:59.431.798,79.100 us,2 B,,SP,55,Write Transaction,00 00,..,,,,,,,,,,
0,2883,2:59.437.145,82.200 us,2 B,,SP,55,Read Transaction,00 08*,..,,,,,,,,,,
0,2884,2:59.437.504,79.000 us,2 B,,SP,55,Write Transaction,12 01,..,,,,,,,,,,
0,2885,2:59.445.844,2.322.600 ms,92 B,,SP,55,Read Transaction,00 D9 FD 3F 02 4F 01 A0 02 58 37 02 57 D3 15 F3 47 15 F2 61 B7 FF FF B7 FF FF 00 02 58 00 00 00 00 01 00 00 00 00 00 00 00 00 00 00 00 02 00 00 00 00 00 00 00 00 00 00 00 00 00 00 00 00 00 00 00 00 00 00 00 00 00 00 00 00 00 00 00 00 00 00 00 00 02 01 00 00 00 00 00 00 00 00*,...?.O...X7.W...G..a....…,,,,,,,,,,
0,2886,2:59.451.823,79.100 us,2 B,,SP,55,Write Transaction,00 00,..,,,,,,,,,,
0,2887,2:59.457.169,82.000 us,2 B,,SP,55,Read Transaction,00 00*,..,,,,,,,,,,
0,2888,2:59.471.836,79.000 us,2 B,,SP,55,Write Transaction,00 00,..,,,,,,,,,,
0,2889,2:59.477.187,82.300 us,2 B,,SP,55,Read Transaction,00 00*,..,,,,,,,,,,
0,2890,2:59.491.857,79.100 us,2 B,,SP,55,Write Transaction,00 00,..,,,,,,,,,,
0,2891,2:59.497.211,82.000 us,2 B,,SP,55,Read Transaction,00 00*,..,,,,,,,,,,
0,2892,2:59.511.867,79.100 us,2 B,,SP,55,Write Transaction,00 00,..,,,,,,,,,,
0,2893,2:59.517.219,82.300 us,2 B,,SP,55,Read Transaction,00 08*,..,,,,,,,,,,
0,2894,2:59.517.579,79.000 us,2 B,,SP,55,Write Transaction,12 01,..,,,,,,,,,,
0,2895,2:59.525.920,2.321.600 ms,92 B,,SP,55,Read Transaction,00 DE FD 40 02 4E 01 9F 02 58 CF 02 58 63 15 F3 8F 15 F2 9C B7 FF FF B7 FF FF 00 02 58 00 00 00 00 01 00 00 00 00 00 00 00 00 00 00 00 02 00 00 00 00 00 00 00 00 00 00 00 00 00 00 00 00 00 00 00 00 00 00 00 00 00 00 00 00 00 00 00 00 00 00 00 00 02 01 00 00 00 00 00 00 00 00*,...@.N...X..Xc..........…,,,,,,,,,,
0,2896,2:59.531.648,79.000 us,2 B,,SP,55,Write Transaction,00 00,..,,,,,,,,,,
0,2897,2:59.536.995,81.900 us,2 B,,SP,55,Read Transaction,00 00*,..,,,,,,,,,,
0,2898,2:59.551.662,79.000 us,2 B,,SP,55,Write Transaction,00 00,..,,,,,,,,,,
0,2899,2:59.557.008,82.300 us,2 B,,SP,55,Read Transaction,00 08*,..,,,,,,,,,,
0,2900,2:59.557.366,79.000 us,2 B,,SP,55,Write Transaction,12 01,..,,,,,,,,,,
0,2901,2:59.565.709,2.322.500 ms,92 B,,SP,55,Read Transaction,00 E3 FD 42 02 52 01 A4 02 59 A2 02 59 3A 15 F3 DA 15 F2 F7 B7 FF FF B7 FF FF 00 02 58 00 00 00 00 01 00 00 00 00 00 00 00 00 00 00 00 02 00 00 00 00 00 00 00 00 00 00 00 00 00 00 00 00 00 00 00 00 00 00 00 00 00 00 00 00 00 00 00 00 00 00 00 00 02 01 00 00 00 00 00 00 00 00*,...B.R...Y..Y:..........…,,,,,,,,,,
0,2902,2:59.571.697,79.000 us,2 B,,SP,55,Write Transaction,00 00,..,,,,,,,,,,
0,2903,2:59.577.042,82.000 us,2 B,,SP,55,Read Transaction,00 00*,..,,,,,,,,,,
0,2904,2:59.591.706,79.100 us,2 B,,SP,55,Write Transaction,00 00,..,,,,,,,,,,
0,2905,2:59.597.052,82.200 us,2 B,,SP,55,Read Transaction,00 08*,..,,,,,,,,,,
0,2906,2:59.597.410,79.000 us,2 B,,SP,55,Write Transaction,12 01,..,,,,,,,,,,
0,2907,2:59.605.751,2.322.600 ms,92 B,,SP,55,Read Transaction,00 E8 FD 3E 02 4B 01 A6 02 5A 8D 02 5A 22 15 F4 2B 15 F3 45 B7 FF FF B7 FF FF 00 02 58 00 00 00 00 01 00 00 00 00 00 00 00 00 00 00 00 02 00 00 00 00 00 00 00 00 00 00 00 00 00 00 00 00 00 00 00 00 00 00 00 00 00 00 00 00 00 00 00 00 00 00 00 00 02 01 00 00 00 00 00 00 00 00*,"...>.K...Z..Z""..+..E....…",,,,,,,,,,
0,2908,2:59.611.728,79.000 us,2 B,,SP,55,Write Transaction,00 00,..,,,,,,,,,,
0,2909,2:59.617.075,81.900 us,2 B,,SP,55,Read Transaction,00 00*,..,,,,,,,,,,
0,2910,2:59.631.743,79.100 us,2 B,,SP,55,Write Transaction,00 00,..,,,,,,,,,,
0,2911,2:59.637.089,82.200 us,2 B,,SP,55,Read Transaction,00 08*,..,,,,,,,,,,
0,2912,2:59.637.448,79.100 us,2 B,,SP,55,Write Transaction,12 01,..,,,,,,,,,,
0,2913,2:59.645.785,2.323.000 ms,92 B,,SP,55,Read Transaction,00 ED FD 43 02 4F 01 A0 02 5B 89 02 5B 1F 15 F4 63 15 F3 7D B7 FF FF B7 FF FF 00 02 58 00 00 00 00 01 00 00 00 00 00 00 00 00 00 00 00 02 00 00 00 00 00 00 00 00 00 00 00 00 00 00 00 00 00 00 00 00 00 00 00 00 00 00 00 00 00 00 00 00 00 00 00 00 02 01 00 00 00 00 00 00 00 00*,...C.O...[..[...c..}....…,,,,,,,,,,
0,2914,2:59.651.780,79.100 us,2 B,,SP,55,Write Transaction,00 00,..,,,,,,,,,,
0,2915,2:59.657.138,82.000 us,2 B,,SP,55,Read Transaction,00 00*,..,,,,,,,,,,
0,2916,2:59.671.780,79.000 us,2 B,,SP,55,Write Transaction,00 00,..,,,,,,,,,,
0,2917,2:59.677.127,82.300 us,2 B,,SP,55,Read Transaction,00 00*,..,,,,,,,,,,
0,2918,2:59.691.797,79.000 us,2 B,,SP,55,Write Transaction,00 00,..,,,,,,,,,,
0,2919,2:59.697.144,82.100 us,2 B,,SP,55,Read Transaction,00 00*,..,,,,,,,,,,
0,2920,2:59.711.819,79.000 us,2 B,,SP,55,Write Transaction,00 00,..,,,,,,,,,,
0,2921,2:59.717.166,82.200 us,2 B,,SP,55,Read Transaction,00 08*,..,,,,,,,,,,
0,2922,2:59.717.525,79.000 us,2 B,,SP,55,Write Transaction,12 01,..,,,,,,,,,,
0,2923,2:59.725.866,2.322.100 ms,92 B,,SP,55,Read Transaction,00 F2 FD 3F 02 4E 01 A3 02 5C 8F 02 5C 26 15 F4 C0 15 F3 D2 B7 FF FF B7 FF FF 00 02 58 00 00 00 00 01 00 00 00 00 00 00 00 00 00 00 00 02 00 00 00 00 00 00 00 00 00 00 00 00 00 00 00 00 00 00 00 00 00 00 00 00 00 00 00 00 00 00 00 00 00 00 00 00 02 01 00 00 00 00 00 00 00 00*,...?.N...\..\&..........…,,,,,,,,,,
0,2924,2:59.731.832,79.000 us,2 B,,SP,55,Write Transaction,00 00,..,,,,,,,,,,
0,2925,2:59.737.179,81.900 us,2 B,,SP,55,Read Transaction,00 00*,..,,,,,,,,,,
0,2926,2:59.751.861,79.100 us,2 B,,SP,55,Write Transaction,00 00,..,,,,,,,,,,
0,2927,2:59.757.208,82.200 us,2 B,,SP,55,Read Transaction,00 08*,..,,,,,,,,,,
0,2928,2:59.757.567,79.000 us,2 B,,SP,55,Write Transaction,12 01,..,,,,,,,,,,
0,2929,2:59.765.907,2.322.300 ms,92 B,,SP,55,Read Transaction,00 F7 FD 3F 02 4B 01 A2 02 5D 88 02 5D 22 15 F5 14 15 F4 34 B7 FF FF B7 FF FF 00 02 58 00 00 00 00 01 00 00 00 00 00 00 00 00 00 00 00 02 00 00 00 00 00 00 00 00 00 00 00 00 00 00 00 00 00 00 00 00 00 00 00 00 00 00 00 00 00 00 00 80 82 00 00 00 02 01 00 00 00 00 00 00 00 00*,"...?.K...]..]"".....4....…",,,,,,,,,,
0,2930,2:59.771.874,79.100 us,2 B,,SP,55,Write Transaction,00 00,..,,,,,,,,,,
0,2931,2:59.777.229,82.000 us,2 B,,SP,55,Read Transaction,00 00*,..,,,,,,,,,,
0,2932,2:59.791.654,79.000 us,2 B,,SP,55,Write Transaction,00 00,..,,,,,,,,,,
0,2933,2:59.797.001,82.200 us,2 B,,SP,55,Read Transaction,00 08*,..,,,,,,,,,,
0,2934,2:59.797.360,79.100 us,2 B,,SP,55,Write Transaction,12 01,..,,,,,,,,,,
0,2935,2:59.805.701,2.321.700 ms,92 B,,SP,55,Read Transaction,00 FC FD 42 02 4F 01 A5 02 5E AD 02 5E 44 15 F5 7D 15 F4 9A B7 FF FF B7 FF FF 00 02 58 00 00 00 00 01 00 00 00 00 00 00 00 00 00 00 00 02 00 00 00 00 00 00 00 00 00 00 00 00 00 00 00 00 00 00 00 00 00 00 00 00 00 00 00 00 00 00 00 00 00 00 00 00 02 01 00 00 00 00 00 00 00 00*,...B.O...^..^D..}.......…,,,,,,,,,,
0,2936,2:59.811.675,79.000 us,2 B,,SP,55,Write Transaction,00 00,..,,,,,,,,,,
0,2937,2:59.817.022,81.900 us,2 B,,SP,55,Read Transaction,00 00*,..,,,,,,,,,,
0,2938,2:59.831.688,79.000 us,2 B,,SP,55,Write Transaction,00 00,..,,,,,,,,,,
0,2939,2:59.837.037,82.300 us,2 B,,SP,55,Read Transaction,00 08*,..,,,,,,,,,,
0,2940,2:59.837.397,79.100 us,2 B,,SP,55,Write Transaction,12 01,..,,,,,,,,,,
0,2941,2:59.845.746,2.322.400 ms,92 B,,SP,55,Read Transaction,00 01 FD 42 02 4B 01 A2 02 5F C3 02 5F 5B 15 F5 D7 15 F4 F2 26 00 FA 26 00 0C 00 02 58 00 00 00 00 01 00 00 00 00 00 00 00 00 00 00 00 02 00 00 00 00 00 00 00 00 00 00 00 00 00 00 00 00 00 00 00 00 00 00 00 00 00 00 00 00 00 00 00 00 00 00 00 00 02 01 00 00 00 00 00 00 00 00*,...B.K..._.._[......&..&…,,,,,,,,,,
0,2942,2:59.851.715,79.100 us,2 B,,SP,55,Write Transaction,00 00,..,,,,,,,,,,
0,2943,2:59.857.059,81.900 us,2 B,,SP,55,Read Transaction,00 00*,..,,,,,,,,,,
0,2944,2:59.871.725,79.100 us,2 B,,SP,55,Write Transaction,00 00,..,,,,,,,,,,
0,2945,2:59.877.078,82.200 us,2 B,,SP,55,Read Transaction,00 00*,..,,,,,,,,,,
0,2946,2:59.891.741,78.900 us,2 B,,SP,55,Write Transaction,00 00,..,,,,,,,,,,
0,2947,2:59.897.085,82.000 us,2 B,,SP,55,Read Transaction,00 00*,..,,,,,,,,,,
0,2948,2:59.911.765,79.000 us,2 B,,SP,55,Write Transaction,00 00,..,,,,,,,,,,
0,2949,2:59.917.112,82.400 us,2 B,,SP,55,Read Transaction,00 08*,..,,,,,,,,,,
0,2950,2:59.917.472,79.100 us,2 B,,SP,55,Write Transaction,12 01,..,,,,,,,,,,
0,2951,2:59.925.824,2.322.400 ms,92 B,,SP,55,Read Transaction,00 06 FD 3E 02 4C 01 A0 02 60 D3 02 60 64 15 F6 01 15 F5 21 26 01 33 26 00 4D 00 02 58 00 00 00 00 01 00 00 00 00 00 00 00 00 00 00 00 02 00 00 00 00 00 00 00 00 00 00 00 00 00 00 00 00 00 00 00 00 00 00 00 00 00 00 00 00 00 00 00 00 00 00 00 00 02 01 00 00 00 00 00 00 00 00*,...>.L...`..`d.....!&.3&…,,,,,,,,,,
0,2952,2:59.931.783,79.000 us,2 B,,SP,55,Write Transaction,00 00,..,,,,,,,,,,
0,2953,2:59.937.126,81.900 us,2 B,,SP,55,Read Transaction,00 00*,..,,,,,,,,,,
0,2954,2:59.951.792,79.100 us,2 B,,SP,55,Write Transaction,00 00,..,,,,,,,,,,
0,2955,2:59.957.135,82.200 us,2 B,,SP,55,Read Transaction,00 08*,..,,,,,,,,,,
0,2956,2:59.957.493,79.000 us,2 B,,SP,55,Write Transaction,12 01,..,,,,,,,,,,
0,2957,2:59.965.833,2.324.900 ms,92 B,,SP,55,Read Transaction,00 0B FD 42 02 4A 01 A1 02 60 AB 02 60 40 15 F5 CA 15 F4 E7 26 00 F0 26 00 0C 00 02 58 00 00 00 00 01 00 00 00 00 00 00 00 00 00 00 00 02 00 00 00 00 00 00 00 00 00 00 00 00 00 00 00 00 00 00 00 00 00 00 00 00 00 00 00 00 00 00 00 00 00 00 00 00 02 01 00 00 00 00 00 00 00 00*,...B.J...`..`@......&..&…,,,,,,,,,,
0,2958,2:59.971.818,79.000 us,2 B,,SP,55,Write Transaction,00 00,..,,,,,,,,,,
0,2959,2:59.977.165,82.000 us,2 B,,SP,55,Read Transaction,00 00*,..,,,,,,,,,,
0,2960,2:59.991.832,79.000 us,2 B,,SP,55,Write Transaction,00 00,..,,,,,,,,,,
0,2961,2:59.997.177,82.200 us,2 B,,SP,55,Read Transaction,00 08*,..,,,,,,,,,,
0,2962,2:59.997.536,79.000 us,2 B,,SP,55,Write Transaction,12 01,..,,,,,,,,,,
0,2963,3:00.005.876,2.322.500 ms,92 B,,SP,55,Read Transaction,00 10 FD 3C 02 49 01 A7 02 5E C8 02 5E 5F 15 F5 33 15 F4 53 26 00 BB 25 FF D9 00 02 58 00 00 00 00 01 00 00 00 00 00 00 00 00 00 00 00 02 00 00 00 00 00 00 00 00 00 00 00 00 00 00 00 00 00 00 00 00 00 00 00 00 00 00 00 00 00 00 00 00 00 00 00 00 02 01 00 00 00 00 00 00 00 00*,...<.I...^..^_..3..S&..%…,,,,,,,,,,
0,2964,3:00.011.855,79.000 us,2 B,,SP,55,Write Transaction,00 00,..,,,,,,,,,,
0,2965,3:00.017.204,82.000 us,2 B,,SP,55,Read Transaction,00 00*,..,,,,,,,,,,
0,2966,3:00.031.635,79.000 us,2 B,,SP,55,Write Transaction,00 00,..,,,,,,,,,,
0,2967,3:00.036.981,82.300 us,2 B,,SP,55,Read Transaction,00 08*,..,,,,,,,,,,
0,2968,3:00.037.339,79.000 us,2 B,,SP,55,Write Transaction,12 01,..,,,,,,,,,,
0,2969,3:00.045.680,2.322.400 ms,92 B,,SP,55,Read Transaction,00 15 FD 42 02 4E 01 A4 02 5C A5 02 5C 3D 15 F4 E8 15 F4 00 26 00 AE 25 FF C3 00 02 58 00 00 00 00 01 00 00 00 00 00 00 00 00 00 00 00 02 00 00 00 00 00 00 00 00 00 00 00 00 00 00 00 00 00 00 00 00 00 00 00 00 00 00 00 00 00 00 00 00 00 00 00 00 02 01 00 00 00 00 00 00 00 00*,...B.N...\..\=......&..%…,,,,,,,,,,
0,2970,3:00.051.646,79.000 us,2 B,,SP,55,Write Transaction,00 00,..,,,,,,,,,,
0,2971,3:00.056.994,81.900 us,2 B,,SP,55,Read Transaction,00 00*,..,,,,,,,,,,
0,2972,3:00.071.672,79.000 us,2 B,,SP,55,Write Transaction,00 00,..,,,,,,,,,,
0,2973,3:00.077.019,82.300 us,2 B,,SP,55,Read Transaction,00 00*,..,,,,,,,,,,
0,2974,3:00.091.679,79.000 us,2 B,,SP,55,Write Transaction,00 00,..,,,,,,,,,,
0,2975,3:00.097.025,81.900 us,2 B,,SP,55,Read Transaction,00 00*,..,,,,,,,,,,
0,2976,3:00.111.704,79.000 us,2 B,,SP,55,Write Transaction,00 00,..,,,,,,,,,,
0,2977,3:00.117.051,82.200 us,2 B,,SP,55,Read Transaction,00 08*,..,,,,,,,,,,
0,2978,3:00.117.410,79.000 us,2 B,,SP,55,Write Transaction,12 01,..,,,,,,,,,,
0,2979,3:00.125.750,2.322.600 ms,92 B,,SP,55,Read Transaction,00 1A FD 3F 02 4F 01 A4 02 5B 5B 02 5A EE 15 F4 E0 15 F3 F6 26 00 AF 25 FF C5 00 02 58 00 00 00 00 01 00 00 00 00 00 00 00 00 00 00 00 02 00 00 00 00 00 00 00 00 00 00 00 00 00 00 00 00 00 00 00 00 00 00 00 00 00 00 00 00 00 00 00 00 00 00 00 00 02 01 00 00 00 00 00 00 00 00*,...?.O...[[.Z.......&..%…,,,,,,,,,,
0,2980,3:00.131.718,79.100 us,2 B,,SP,55,Write Transaction,00 00,..,,,,,,,,,,
0,2981,3:00.137.064,82.000 us,2 B,,SP,55,Read Transaction,00 00*,..,,,,,,,,,,
0,2982,3:00.151.743,79.000 us,2 B,,SP,55,Write Transaction,00 00,..,,,,,,,,,,
0,2983,3:00.157.088,82.300 us,2 B,,SP,55,Read Transaction,00 08*,..,,,,,,,,,,
0,2984,3:00.157.447,79.000 us,2 B,,SP,55,Write Transaction,12 01,..,,,,,,,,,,
0,2985,3:00.165.785,2.322.200 ms,92 B,,SP,55,Read Transaction,00 1F FD 40 02 52 01 A1 02 5A A4 02 5A 3F 15 F4 F2 15 F4 0E 26 00 BC 25 FF DD 00 02 58 00 00 00 00 01 00 00 00 00 00 00 00 00 00 00 00 02 00 00 00 00 00 00 00 00 00 00 00 00 00 00 00 00 00 00 00 00 00 00 00 00 00 00 00 00 00 00 00 00 00 00 00 00 02 01 00 00 00 00 00 00 00 00*,...@.R...Z..Z?......&..%…,,,,,,,,,,
0,2986,3:00.171.768,79.000 us,2 B,,SP,55,Write Transaction,00 00,..,,,,,,,,,,
0,2987,3:00.177.115,81.900 us,2 B,,SP,55,Read Transaction,00 00*,..,,,,,,,,,,
0,2988,3:00.191.778,79.000 us,2 B,,SP,55,Write Transaction,00 00,..,,,,,,,,,,
0,2989,3:00.197.129,82.300 us,2 B,,SP,55,Read Transaction,00 08*,..,,,,,,,,,,
0,2990,3:00.197.489,79.100 us,2 B,,SP,55,Write Transaction,12 01,..,,,,,,,,,,
0,2991,3:00.205.828,2.322.400 ms,92 B,,SP,55,Read Transaction,00 24 FD 3E 02 4E 01 9C 02 5A 81 02 5A 1D 15 F5 1B 15 F4 3C 26 00 DC 25 FF F6 00 02 58 00 00 00 00 01 00 00 00 00 00 00 00 00 00 00 00 02 00 00 00 00 00 00 00 00 00 00 00 00 00 00 00 00 00 00 00 00 00 00 00 00 00 00 00 00 00 00 00 00 00 00 00 00 02 01 00 00 00 00 00 00 00 00*,.$.>.N...Z..Z......<&..%…,,,,,,,,,,
0,2992,3:00.211.802,79.000 us,2 B,,SP,55,Write Transaction,00 00,..,,,,,,,,,,
0,2993,3:00.217.146,81.900 us,2 B,,SP,55,Read Transaction,00 00*,..,,,,,,,,,,
0,2994,3:00.231.815,79.100 us,2 B,,SP,55,Write Transaction,00 00,..,,,,,,,,,,
0,2995,3:00.237.163,82.200 us,2 B,,SP,55,Read Transaction,00 08*,..,,,,,,,,,,
0,2996,3:00.237.527,79.000 us,2 B,,SP,55,Write Transaction,12 01,..,,,,,,,,,,
0,2997,3:00.245.869,2.322.500 ms,92 B,,SP,55,Read Transaction,00 29 FD 3E 02 4D 01 A2 02 5A 98 02 5A 2D 15 F5 5C 15 F4 72 26 01 15 26 00 34 00 02 58 00 00 00 00 01 00 00 00 00 00 00 00 00 00 00 00 02 00 00 00 00 00 00 00 00 00 00 00 00 00 00 00 00 00 00 00 00 00 00 00 00 00 00 00 00 00 00 00 00 00 00 00 00 02 01 00 00 00 00 00 00 00 00*,.).>.M...Z..Z-..\..r&..&…,,,,,,,,,,
0,2998,3:00.251.842,79.000 us,2 B,,SP,55,Write Transaction,00 00,..,,,,,,,,,,
0,2999,3:00.257.188,82.000 us,2 B,,SP,55,Read Transaction,00 00*,..,,,,,,,,,,
0,3000,3:00.271.854,79.100 us,2 B,,SP,55,Write Transaction,00 00,..,,,,,,,,,,
0,3001,3:00.277.199,82.400 us,2 B,,SP,55,Read Transaction,00 00*,..,,,,,,,,,,
0,3002,3:00.291.636,79.000 us,2 B,,SP,55,Write Transaction,00 00,..,,,,,,,,,,
0,3003,3:00.296.983,81.900 us,2 B,,SP,55,Read Transaction,00 00*,..,,,,,,,,,,
0,3004,3:00.311.641,79.000 us,2 B,,SP,55,Write Transaction,00 00,..,,,,,,,,,,
0,3005,3:00.316.987,82.300 us,2 B,,SP,55,Read Transaction,00 08*,..,,,,,,,,,,
0,3006,3:00.317.345,79.000 us,2 B,,SP,55,Write Transaction,12 01,..,,,,,,,,,,
0,3007,3:00.325.687,2.322.400 ms,92 B,,SP,55,Read Transaction,00 2E FD 41 02 51 01 A1 02 5A BB 02 5A 56 15 F5 98 15 F4 AA 26 01 52 26 00 65 00 02 58 00 00 00 00 01 00 00 00 00 00 00 00 00 00 00 00 02 00 00 00 00 00 00 00 00 00 00 00 00 00 00 00 00 00 00 00 00 00 00 00 00 00 00 00 00 00 00 00 00 00 00 00 00 02 01 00 00 00 00 00 00 00 00*,...A.Q...Z..ZV......&.R&…,,,,,,,,,,
0,3008,3:00.331.672,79.000 us,2 B,,SP,55,Write Transaction,00 00,..,,,,,,,,,,
0,3009,3:00.337.016,82.000 us,2 B,,SP,55,Read Transaction,00 00*,..,,,,,,,,,,
0,3010,3:00.351.690,79.000 us,2 B,,SP,55,Write Transaction,00 00,..,,,,,,,,,,
0,3011,3:00.357.036,82.200 us,2 B,,SP,55,Read Transaction,00 08*,..,,,,,,,,,,
0,3012,3:00.357.395,79.000 us,2 B,,SP,55,Write Transaction,12 01,..,,,,,,,,,,
0,3013,3:00.365.736,2.322.500 ms,92 B,,SP,55,Read Transaction,00 33 FD 3C 02 4E 01 A4 02 5B 3C 02 5A D4 15 F5 D8 15 F4 E9 26 01 8F 26 00 9C 00 02 58 00 00 00 00 01 00 00 00 00 00 00 00 00 00 00 00 02 00 00 00 00 00 00 00 00 00 00 00 00 00 00 00 00 00 00 00 00 00 00 00 00 00 00 00 00 00 00 00 00 00 00 00 00 02 01 00 00 00 00 00 00 00 00*,.3.<.N...[<.Z.......&..&…,,,,,,,,,,
0,3014,3:00.371.701,79.000 us,2 B,,SP,55,Write Transaction,00 00,..,,,,,,,,,,
0,3015,3:00.377.048,81.900 us,2 B,,SP,55,Read Transaction,00 00*,..,,,,,,,,,,
0,3016,3:00.391.719,79.100 us,2 B,,SP,55,Write Transaction,00 00,..,,,,,,,,,,
0,3017,3:00.397.065,82.300 us,2 B,,SP,55,Read Transaction,00 08*,..,,,,,,,,,,
0,3018,3:00.397.424,79.000 us,2 B,,SP,55,Write Transaction,12 01,..,,,,,,,,,,
0,3019,3:00.405.765,2.322.500 ms,92 B,,SP,55,Read Transaction,00 38 FD 3F 02 4C 01 A3 02 5C 03 02 5B 96 15 F6 2F 15 F5 42 26 01 BA 26 00 CF 00 02 58 00 00 00 00 01 00 00 00 00 00 00 00 00 00 00 00 02 00 00 00 00 00 00 00 00 00 00 00 00 00 00 00 00 00 00 00 00 00 00 00 00 00 00 00 00 00 00 00 00 00 00 00 00 02 01 00 00 00 00 00 00 00 00*,.8.?.L...\..[.../..B&..&…,,,,,,,,,,
0,3020,3:00.411.744,79.000 us,2 B,,SP,55,Write Transaction,00 00,..,,,,,,,,,,
0,3021,3:00.417.093,82.000 us,2 B,,SP,55,Read Transaction,00 00*,..,,,,,,,,,,
0,3022,3:00.431.761,79.000 us,2 B,,SP,55,Write Transaction,00 00,..,,,,,,,,,,
0,3023,3:00.437.108,82.400 us,2 B,,SP,55,Read Transaction,00 08*,..,,,,,,,,,,
0,3024,3:00.437.468,79.100 us,2 B,,SP,55,Write Transaction,12 01,..,,,,,,,,,,
0,3025,3:00.445.810,2.322.600 ms,92 B,,SP,55,Read Transaction,00 3D FD 40 02 4F 01 A4 02 5C D3 02 5C 6B 15 F6 80 15 F5 99 26 01 E1 26 00 F3 00 02 58 00 00 00 00 01 00 00 00 00 00 00 00 00 00 00 00 02 00 00 00 00 00 00 00 00 00 00 00 00 00 00 00 00 00 00 00 00 00 00 00 00 00 00 00 00 00 00 00 00 00 00 00 00 02 01 00 00 00 00 00 00 00 00*,.=.@.O...\..\k......&..&…,,,,,,,,,,
0,3026,3:00.451.787,79.000 us,2 B,,SP,55,Write Transaction,00 00,..,,,,,,,,,,
0,3027,3:00.457.140,82.000 us,2 B,,SP,55,Read Transaction,00 00*,..,,,,,,,,,,
0,3028,3:00.471.803,79.000 us,2 B,,SP,55,Write Transaction,00 00,..,,,,,,,,,,
0,3029,3:00.477.151,82.300 us,2 B,,SP,55,Read Transaction,00 00*,..,,,,,,,,,,
0,3030,3:00.491.810,79.000 us,2 B,,SP,55,Write Transaction,00 00,..,,,,,,,,,,
0,3031,3:00.497.156,81.900 us,2 B,,SP,55,Read Transaction,00 00*,..,,,,,,,,,,
0,3032,3:00.511.839,79.000 us,2 B,,SP,55,Write Transaction,00 00,..,,,,,,,,,,
0,3033,3:00.517.185,82.300 us,2 B,,SP,55,Read Transaction,00 08*,..,,,,,,,,,,
0,3034,3:00.517.544,79.000 us,2 B,,SP,55,Write Transaction,12 01,..,,,,,,,,,,
0,3035,3:00.525.885,2.322.300 ms,92 B,,SP,55,Read Transaction,00 42 FD 40 02 47 01 A4 02 5D 9E 02 5D 35 15 F6 E3 15 F5 F3 26 02 1C 26 01 32 00 02 58 00 00 00 00 01 00 00 00 00 00 00 00 00 00 00 00 02 00 00 00 00 00 00 00 00 00 00 00 00 00 00 00 00 00 00 00 00 00 00 00 00 00 00 00 00 00 00 00 00 00 00 00 00 02 01 00 00 00 00 00 00 00 00*,.B.@.G...]..]5......&..&…,,,,,,,,,,
0,3036,3:00.531.610,78.900 us,2 B,,SP,55,Write Transaction,00 00,..,,,,,,,,,,
0,3037,3:00.536.956,81.800 us,2 B,,SP,55,Read Transaction,00 00*,..,,,,,,,,,,
0,3038,3:00.551.630,79.100 us,2 B,,SP,55,Write Transaction,00 00,..,,,,,,,,,,
0,3039,3:00.556.979,82.200 us,2 B,,SP,55,Read Transaction,00 08*,..,,,,,,,,,,
0,3040,3:00.557.339,79.000 us,2 B,,SP,55,Write Transaction,12 01,..,,,,,,,,,,
0,3041,3:00.565.679,2.322.500 ms,92 B,,SP,55,Read Transaction,00 47 FD 41 02 4D 01 A7 02 5E 99 02 5E 30 15 F7 12 15 F6 24 26 02 3F 26 01 4D 00 02 58 00 00 00 00 00 00 00 00 00 00 00 00 00 00 00 00 02 00 00 00 00 00 00 00 00 00 00 00 00 00 00 00 00 00 00 00 00 00 00 00 00 00 00 00 00 00 00 00 00 00 00 00 00 02 01 00 00 00 00 00 00 00 00*,.G.A.M...^..^0.....$&.?&…,,,,,,,,,,
0,3042,3:00.571.648,79.100 us,2 B,,SP,55,Write Transaction,00 00,..,,,,,,,,,,
0,3043,3:00.576.994,82.000 us,2 B,,SP,55,Read Transaction,00 00*,..,,,,,,,,,,
0,3044,3:00.591.657,79.100 us,2 B,,SP,55,Write Transaction,00 00,..,,,,,,,,,,
0,3045,3:00.597.006,82.300 us,2 B,,SP,55,Read Transaction,00 08*,..,,,,,,,,,,
0,3046,3:00.597.366,79.000 us,2 B,,SP,55,Write Transaction,12 01,..,,,,,,,,,,
0,3047,3:00.605.710,2.322.600 ms,92 B,,SP,55,Read Transaction,00 4C FD 3F 02 51 01 A6 02 5F 71 02 5F 0A 15 F7 5C 15 F6 79 26 02 6D 26 01 8D 00 02 58 00 00 00 00 00 00 00 00 00 00 00 00 00 00 00 00 02 00 00 00 00 00 00 00 00 00 00 00 00 00 00 00 00 00 00 00 00 00 00 00 00 00 00 00 00 00 00 00 00 00 00 00 00 02 01 00 00 00 00 00 00 00 00*,.L.?.Q..._q._...\..y&.m&…,,,,,,,,,,
0,3048,3:00.611.683,79.000 us,2 B,,SP,55,Write Transaction,00 00,..,,,,,,,,,,
0,3049,3:00.617.030,82.000 us,2 B,,SP,55,Read Transaction,00 00*,..,,,,,,,,,,
0,3050,3:00.631.698,79.000 us,2 B,,SP,55,Write Transaction,00 00,..,,,,,,,,,,
0,3051,3:00.637.043,82.200 us,2 B,,SP,55,Read Transaction,00 08*,..,,,,,,,,,,
0,3052,3:00.637.401,79.000 us,2 B,,SP,55,Write Transaction,12 01,..,,,,,,,,,,
0,3053,3:00.645.747,2.322.700 ms,92 B,,SP,55,Read Transaction,00 51 FD 3D 02 4E 01 A5 02 60 86 02 60 1B 15 F7 B2 15 F6 CB 26 02 81 26 01 94 00 02 58 00 00 00 00 00 00 00 00 00 00 00 00 00 00 00 00 02 00 00 00 00 00 00 00 00 00 00 00 00 00 00 00 00 00 00 00 00 00 00 00 00 00 00 00 00 00 00 00 00 00 00 00 00 02 01 00 00 00 00 00 00 00 00*,.Q.=.N...`..`.......&..&…,,,,,,,,,,
0,3054,3:00.651.719,79.000 us,2 B,,SP,55,Write Transaction,00 00,..,,,,,,,,,,
0,3055,3:00.657.066,81.900 us,2 B,,SP,55,Read Transaction,00 00*,..,,,,,,,,,,
0,3056,3:00.671.732,79.000 us,2 B,,SP,55,Write Transaction,00 00,..,,,,,,,,,,
0,3057,3:00.677.078,82.300 us,2 B,,SP,55,Read Transaction,00 00*,..,,,,,,,,,,
0,3058,3:00.691.769,79.000 us,2 B,,SP,55,Write Transaction,00 00,..,,,,,,,,,,
0,3059,3:00.697.115,82.000 us,2 B,,SP,55,Read Transaction,00 00*,..,,,,,,,,,,
0,3060,3:00.711.782,79.000 us,2 B,,SP,55,Write Transaction,00 00,..,,,,,,,,,,
0,3061,3:00.717.133,82.300 us,2 B,,SP,55,Read Transaction,00 08*,..,,,,,,,,,,
0,3062,3:00.717.492,79.100 us,2 B,,SP,55,Write Transaction,12 01,..,,,,,,,,,,
0,3063,3:00.725.840,2.322.600 ms,92 B,,SP,55,Read Transaction,00 56 FD 3C 02 4B 01 A4 02 61 80 02 61 15 15 F8 27 15 F7 3E 26 02 CE 26 01 DE 00 02 58 00 00 00 00 00 00 00 00 00 00 00 00 00 00 00 00 02 00 00 00 00 00 00 00 00 00 00 00 00 00 00 00 00 00 00 00 00 00 00 00 00 00 00 00 00 00 00 00 00 00 00 00 00 02 01 00 00 00 00 00 00 00 00*,.V.<.K...a..a...'..>&..&…,,,,,,,,,,
0,3064,3:00.731.801,79.000 us,2 B,,SP,55,Write Transaction,00 00,..,,,,,,,,,,
0,3065,3:00.737.178,81.900 us,2 B,,SP,55,Read Transaction,00 00*,..,,,,,,,,,,
0,3066,3:00.751.818,78.900 us,2 B,,SP,55,Write Transaction,00 00,..,,,,,,,,,,
0,3067,3:00.757.164,82.200 us,2 B,,SP,55,Read Transaction,00 08*,..,,,,,,,,,,
0,3068,3:00.757.523,79.000 us,2 B,,SP,55,Write Transaction,12 01,..,,,,,,,,,,
0,3069,3:00.765.863,2.322.600 ms,92 B,,SP,55,Read Transaction,00 5B FD 3C 02 4F 01 A5 02 62 96 02 62 31 15 F8 6E 15 F7 83 26 03 03 26 02 21 00 02 58 00 00 00 00 00 00 00 00 00 00 00 00 00 00 00 00 02 00 00 00 00 00 00 00 00 00 00 00 00 00 00 00 00 00 00 00 00 00 00 00 00 00 00 00 00 00 00 00 00 00 00 00 00 02 01 00 00 00 00 00 00 00 00*,.[.<.O...b..b1..n...&..&…,,,,,,,,,,
0,3070,3:00.771.829,79.000 us,2 B,,SP,55,Write Transaction,00 00,..,,,,,,,,,,
0,3071,3:00.777.183,82.000 us,2 B,,SP,55,Read Transaction,00 00*,..,,,,,,,,,,
0,3072,3:00.791.610,79.000 us,2 B,,SP,55,Write Transaction,00 00,..,,,,,,,,,,
0,3073,3:00.796.957,82.200 us,2 B,,SP,55,Read Transaction,00 08*,..,,,,,,,,,,
0,3074,3:00.797.316,79.000 us,2 B,,SP,55,Write Transaction,12 01,..,,,,,,,,,,
0,3075,3:00.805.657,2.322.700 ms,92 B,,SP,55,Read Transaction,00 60 FD 3E 02 44 01 A4 02 63 6E 02 63 06 15 F8 76 15 F7 8E 26 02 FE 26 02 14 00 02 58 00 00 00 00 00 00 00 00 00 00 00 00 00 00 00 00 02 00 00 00 00 00 00 00 00 00 00 00 00 00 00 00 00 00 00 00 00 00 00 00 00 00 00 00 00 00 00 00 00 00 00 00 00 02 01 00 00 00 00 00 00 00 00*,.`.>.D...cn.c...v...&..&…,,,,,,,,,,
0,3076,3:00.811.633,79.000 us,2 B,,SP,55,Write Transaction,00 00,..,,,,,,,,,,
0,3077,3:00.816.977,82.000 us,2 B,,SP,55,Read Transaction,00 00*,..,,,,,,,,,,
0,3078,3:00.831.648,79.200 us,2 B,,SP,55,Write Transaction,00 00,..,,,,,,,,,,
0,3079,3:00.837.004,82.300 us,2 B,,SP,55,Read Transaction,00 08*,..,,,,,,,,,,
0,3080,3:00.837.363,79.100 us,2 B,,SP,55,Write Transaction,12 01,..,,,,,,,,,,
0,3081,3:00.845.707,2.322.600 ms,92 B,,SP,55,Read Transaction,00 65 FD 3F 02 44 01 A6 02 62 C1 02 62 54 15 F7 D2 15 F6 EA 26 02 DA 26 01 F3 00 02 58 00 00 00 00 00 00 00 00 00 00 00 00 00 00 00 00 02 00 00 00 00 00 00 00 00 00 00 00 00 00 00 00 00 00 00 00 00 00 00 00 00 00 00 00 00 00 00 00 00 00 00 00 00 02 01 00 00 00 00 00 00 00 00*,.e.?.D...b..bT......&..&…,,,,,,,,,,
0,3082,3:00.851.675,79.100 us,2 B,,SP,55,Write Transaction,00 00,..,,,,,,,,,,
0,3083,3:00.857.020,81.900 us,2 B,,SP,55,Read Transaction,00 00*,..,,,,,,,,,,
0,3084,3:00.871.684,79.000 us,2 B,,SP,55,Write Transaction,00 00,..,,,,,,,,,,
0,3085,3:00.877.031,82.200 us,2 B,,SP,55,Read Transaction,00 00*,..,,,,,,,,,,
0,3086,3:00.891.700,79.000 us,2 B,,SP,55,Write Transaction,00 00,..,,,,,,,,,,
0,3087,3:00.897.053,82.100 us,2 B,,SP,55,Read Transaction,00 00*,..,,,,,,,,,,
0,3088,3:00.911.786,79.000 us,2 B,,SP,55,Write Transaction,00 00,..,,,,,,,,,,
0,3089,3:00.917.132,82.200 us,2 B,,SP,55,Read Transaction,00 08*,..,,,,,,,,,,
0,3090,3:00.917.491,79.100 us,2 B,,SP,55,Write Transaction,12 01,..,,,,,,,,,,
0,3091,3:00.925.831,2.322.400 ms,92 B,,SP,55,Read Transaction,00 6A FD 43 02 4C 01 A3 02 60 83 02 60 1D 15 F7 68 15 F6 83 26 02 7E 26 01 99 00 02 58 00 00 00 00 00 00 00 00 00 00 00 00 00 00 00 00 02 00 00 00 00 00 00 00 00 00 00 00 00 00 00 00 00 00 00 00 00 00 00 00 00 00 00 00 00 00 00 00 00 00 00 00 00 02 01 00 00 00 00 00 00 00 00*,.j.C.L...`..`...h...&.~&…,,,,,,,,,,
0,3092,3:00.931.734,79.000 us,2 B,,SP,55,Write Transaction,00 00,..,,,,,,,,,,
0,3093,3:00.937.079,81.900 us,2 B,,SP,55,Read Transaction,00 00*,..,,,,,,,,,,
0,3094,3:00.951.761,79.000 us,2 B,,SP,55,Write Transaction,00 00,..,,,,,,,,,,
0,3095,3:00.957.107,82.200 us,2 B,,SP,55,Read Transaction,00 08*,..,,,,,,,,,,
0,3096,3:00.957.468,79.100 us,2 B,,SP,55,Write Transaction,12 01,..,,,,,,,,,,
0,3097,3:00.965.810,2.322.500 ms,92 B,,SP,55,Read Transaction,00 6F FD 43 02 49 01 A7 02 5E B7 02 5E 4D 15 F7 11 15 F6 27 26 02 70 26 01 85 00 02 58 00 00 00 00 00 00 00 00 00 00 00 00 00 00 00 00 02 00 00 00 00 00 00 00 00 00 00 00 00 00 00 00 00 00 00 00 00 00 00 00 00 00 00 00 00 00 00 00 00 00 00 00 00 02 01 00 00 00 00 00 00 01 01*,.o.C.I...^..^M.....'&.p&…,,,,,,,,,,
0,3098,3:00.971.780,79.000 us,2 B,,SP,55,Write Transaction,00 00,..,,,,,,,,,,
0,3099,3:00.977.127,81.900 us,2 B,,SP,55,Read Transaction,00 00*,..,,,,,,,,,,
0,3100,3:00.991.791,79.000 us,2 B,,SP,55,Write Transaction,00 00,..,,,,,,,,,,
0,3101,3:00.997.135,82.200 us,2 B,,SP,55,Read Transaction,00 08*,..,,,,,,,,,,
0,3102,3:00.997.494,78.900 us,2 B,,SP,55,Write Transaction,12 01,..,,,,,,,,,,
0,3103,3:01.005.833,2.322.300 ms,92 B,,SP,55,Read Transaction,00 74 FD 44 02 49 01 A5 02 5D 8B 02 5D 1C 15 F6 FF 15 F6 19 26 02 79 26 01 90 00 02 58 00 00 00 00 00 00 00 00 00 00 00 00 00 00 00 00 02 00 00 00 00 00 00 00 00 00 00 00 00 00 00 00 00 00 00 00 00 00 00 00 00 00 00 00 00 00 00 00 00 00 00 00 00 02 01 00 00 00 00 00 00 01 01*,.t.D.I...]..].......&.y&…,,,,,,,,,,
0,3104,3:01.011.820,79.000 us,2 B,,SP,55,Write Transaction,00 00,..,,,,,,,,,,
0,3105,3:01.017.167,81.900 us,2 B,,SP,55,Read Transaction,00 00*,..,,,,,,,,,,
0,3106,3:01.031.588,79.000 us,2 B,,SP,55,Write Transaction,00 00,..,,,,,,,,,,
0,3107,3:01.036.931,82.200 us,2 B,,SP,55,Read Transaction,00 08*,..,,,,,,,,,,
0,3108,3:01.037.289,79.000 us,2 B,,SP,55,Write Transaction,12 01,..,,,,,,,,,,
0,3109,3:01.045.629,2.322.400 ms,92 B,,SP,55,Read Transaction,00 79 FD 44 02 4E 01 A9 02 5C B8 02 5C 50 15 F7 03 15 F6 1D 26 02 74 26 01 92 00 02 58 00 00 00 00 00 00 00 00 00 00 00 00 00 00 00 00 02 00 00 00 00 00 00 00 00 00 00 00 00 00 00 00 00 00 00 00 00 00 00 00 00 00 00 00 00 00 00 00 00 00 00 00 00 02 01 00 00 00 00 00 00 01 01*,.y.D.N...\..\P......&.t&…,,,,,,,,,,
0,3110,3:01.051.615,79.000 us,2 B,,SP,55,Write Transaction,00 00,..,,,,,,,,,,
0,3111,3:01.056.960,81.900 us,2 B,,SP,55,Read Transaction,00 00*,..,,,,,,,,,,
0,3112,3:01.071.632,79.000 us,2 B,,SP,55,Write Transaction,00 00,..,,,,,,,,,,
0,3113,3:01.076.977,82.300 us,2 B,,SP,55,Read Transaction,00 00*,..,,,,,,,,,,
0,3114,3:01.091.653,78.900 us,2 B,,SP,55,Write Transaction,00 00,..,,,,,,,,,,
0,3115,3:01.096.999,82.000 us,2 B,,SP,55,Read Transaction,00 00*,..,,,,,,,,,,
0,3116,3:01.111.670,79.000 us,2 B,,SP,55,Write Transaction,00 00,..,,,,,,,,,,
0,3117,3:01.117.016,82.200 us,2 B,,SP,55,Read Transaction,00 08*,..,,,,,,,,,,
0,3118,3:01.117.375,79.100 us,2 B,,SP,55,Write Transaction,12 01,..,,,,,,,,,,
0,3119,3:01.125.715,2.322.300 ms,92 B,,SP,55,Read Transaction,00 7E FD 45 02 4B 01 A3 02 5C 9A 02 5C 33 15 F6 F7 15 F6 11 26 02 8D 26 01 A0 00 02 58 00 00 00 00 00 00 00 00 00 00 00 00 00 00 00 00 02 00 00 00 00 00 00 00 00 00 00 00 00 00 00 00 00 00 00 00 00 00 00 00 00 00 00 00 00 00 00 00 00 00 00 00 00 02 01 00 00 00 00 00 00 01 01*,.~.E.K...\..\3......&..&…,,,,,,,,,,
0,3120,3:01.131.681,79.000 us,2 B,,SP,55,Write Transaction,00 00,..,,,,,,,,,,
0,3121,3:01.137.030,82.000 us,2 B,,SP,55,Read Transaction,00 00*,..,,,,,,,,,,
0,3122,3:01.151.697,79.100 us,2 B,,SP,55,Write Transaction,00 00,..,,,,,,,,,,
0,3123,3:01.157.046,82.200 us,2 B,,SP,55,Read Transaction,00 08*,..,,,,,,,,,,
0,3124,3:01.157.404,79.000 us,2 B,,SP,55,Write Transaction,12 01,..,,,,,,,,,,
0,3125,3:01.165.745,2.322.500 ms,92 B,,SP,55,Read Transaction,00 83 FD 40 02 4F 01 A2 02 5C 54 02 5B EB 15 F7 16 15 F6 2E 26 02 9E 26 01 BA 00 02 58 00 00 00 00 00 00 00 00 00 00 00 00 00 00 00 00 02 00 00 00 00 00 00 00 00 00 00 00 00 00 00 00 00 00 00 00 00 00 00 00 00 00 00 00 00 00 00 00 00 00 00 00 00 02 01 00 00 00 00 00 00 01 01*,...@.O...\T.[.......&..&…,,,,,,,,,,
0,3126,3:01.171.717,79.000 us,2 B,,SP,55,Write Transaction,00 00,..,,,,,,,,,,
0,3127,3:01.177.063,81.900 us,2 B,,SP,55,Read Transaction,00 00*,..,,,,,,,,,,
0,3128,3:01.191.745,79.000 us,2 B,,SP,55,Write Transaction,00 00,..,,,,,,,,,,
0,3129,3:01.197.091,82.300 us,2 B,,SP,55,Read Transaction,00 08*,..,,,,,,,,,,
0,3130,3:01.197.450,79.000 us,2 B,,SP,55,Write Transaction,12 01,..,,,,,,,,,,
0,3131,3:01.205.792,2.322.500 ms,92 B,,SP,55,Read Transaction,00 88 FD 3F 02 4B 01 A9 02 5C 67 02 5B FD 15 F7 38 15 F6 53 26 02 C7 26 01 E2 00 02 58 00 00 00 00 00 00 00 00 00 00 00 00 00 00 00 00 02 00 00 00 00 00 00 00 00 00 00 00 00 00 00 00 00 00 00 00 00 00 00 00 00 00 00 00 00 00 00 00 00 00 00 00 00 02 01 00 00 00 00 00 00 01 01*,...?.K...\g.[...8..S&..&…,,,,,,,,,,
0,3132,3:01.211.763,79.100 us,2 B,,SP,55,Write Transaction,00 00,..,,,,,,,,,,
0,3133,3:01.217.112,82.000 us,2 B,,SP,55,Read Transaction,00 00*,..,,,,,,,,,,
0,3134,3:01.231.782,79.000 us,2 B,,SP,55,Write Transaction,00 00,..,,,,,,,,,,
0,3135,3:01.237.130,82.300 us,2 B,,SP,55,Read Transaction,00 08*,..,,,,,,,,,,
0,3136,3:01.237.489,79.100 us,2 B,,SP,55,Write Transaction,12 01,..,,,,,,,,,,
0,3137,3:01.245.835,2.322.700 ms,92 B,,SP,55,Read Transaction,00 8D FD 3E 02 4D 01 A3 02 5C BE 02 5C 52 15 F7 6F 15 F6 84 26 02 E4 26 01 FA 00 02 58 00 00 00 00 00 00 00 00 00 00 00 00 00 00 00 00 02 00 00 00 00 00 00 00 00 00 00 00 00 00 00 00 00 00 00 00 00 00 00 00 00 00 00 00 00 00 00 00 00 00 00 00 00 02 01 00 00 00 00 00 00 01 01*,...>.M...\..\R..o...&..&…,,,,,,,,,,
0,3138,3:01.251.802,79.000 us,2 B,,SP,55,Write Transaction,00 00,..,,,,,,,,,,
0,3139,3:01.257.148,81.900 us,2 B,,SP,55,Read Transaction,00 00*,..,,,,,,,,,,
0,3140,3:01.271.809,79.000 us,2 B,,SP,55,Write Transaction,00 00,..,,,,,,,,,,
0,3141,3:01.277.159,82.300 us,2 B,,SP,55,Read Transaction,00 00*,..,,,,,,,,,,
0,3142,3:01.291.584,79.100 us,2 B,,SP,55,Write Transaction,00 00,..,,,,,,,,,,
0,3143,3:01.296.930,82.000 us,2 B,,SP,55,Read Transaction,00 00*,..,,,,,,,,,,
0,3144,3:01.311.621,79.100 us,2 B,,SP,55,Write Transaction,00 00,..,,,,,,,,,,
0,3145,3:01.316.969,82.300 us,2 B,,SP,55,Read Transaction,00 08*,..,,,,,,,,,,
0,3146,3:01.317.330,79.000 us,2 B,,SP,55,Write Transaction,12 01,..,,,,,,,,,,
0,3147,3:01.325.670,2.322.500 ms,92 B,,SP,55,Read Transaction,00 92 FD 3D 02 4B 01 A3 02 5D 5C 02 5C F3 15 F7 B9 15 F6 C6 26 03 41 26 02 52 00 02 58 00 00 00 00 00 00 00 00 00 00 00 00 00 00 00 00 02 00 00 00 00 00 00 00 00 00 00 00 00 00 00 00 00 00 00 00 00 00 00 00 00 00 00 00 00 00 00 00 00 00 00 00 00 02 01 00 00 00 00 00 00 01 01*,...=.K...]\.\.......&.A&…,,,,,,,,,,
0,3148,3:01.331.635,79.200 us,2 B,,SP,55,Write Transaction,00 00,..,,,,,,,,,,
0,3149,3:01.336.987,81.900 us,2 B,,SP,55,Read Transaction,00 00*,..,,,,,,,,,,
0,3150,3:01.351.648,79.100 us,2 B,,SP,55,Write Transaction,00 00,..,,,,,,,,,,
0,3151,3:01.356.994,82.200 us,2 B,,SP,55,Read Transaction,00 08*,..,,,,,,,,,,
0,3152,3:01.357.353,79.000 us,2 B,,SP,55,Write Transaction,12 01,..,,,,,,,,,,
0,3153,3:01.365.698,2.326.000 ms,92 B,,SP,55,Read Transaction,00 97 FD 3B 02 4B 01 A4 02 5E 15 02 5D A8 15 F8 0B 15 F7 18 26 03 41 26 02 53 00 02 58 00 00 00 00 00 00 00 00 00 00 00 00 00 00 00 00 02 00 00 00 00 00 00 00 00 00 00 00 00 00 00 00 00 00 00 00 00 00 00 00 00 00 00 00 00 00 00 00 00 00 00 00 00 02 01 00 00 00 00 00 00 01 01*,...;.K...^..].......&.A&…,,,,,,,,,,
0,3154,3:01.371.671,79.100 us,2 B,,SP,55,Write Transaction,00 00,..,,,,,,,,,,
0,3155,3:01.377.016,82.000 us,2 B,,SP,55,Read Transaction,00 00*,..,,,,,,,,,,
0,3156,3:01.391.685,79.000 us,2 B,,SP,55,Write Transaction,00 00,..,,,,,,,,,,
0,3157,3:01.397.031,82.300 us,2 B,,SP,55,Read Transaction,00 08*,..,,,,,,,,,,
0,3158,3:01.397.389,79.000 us,2 B,,SP,55,Write Transaction,12 01,..,,,,,,,,,,
0,3159,3:01.405.730,2.322.700 ms,92 B,,SP,55,Read Transaction,00 9C FD 3A 02 4B 01 A1 02 5E CE 02 5E 68 15 F8 60 15 F7 75 26 03 89 26 02 9A 00 02 58 00 00 00 00 00 00 00 00 00 00 00 00 00 00 00 00 02 00 00 00 00 00 00 00 00 00 00 00 00 00 00 00 00 00 00 00 00 00 00 00 00 00 00 00 00 00 00 00 00 00 00 00 00 02 01 00 00 00 00 00 00 01 01*,...:.K...^..^h..`..u&..&…,,,,,,,,,,
0,3160,3:01.411.710,79.100 us,2 B,,SP,55,Write Transaction,00 00,..,,,,,,,,,,
0,3161,3:01.417.057,81.900 us,2 B,,SP,55,Read Transaction,00 00*,..,,,,,,,,,,
0,3162,3:01.431.726,79.100 us,2 B,,SP,55,Write Transaction,00 00,..,,,,,,,,,,
0,3163,3:01.437.072,82.300 us,2 B,,SP,55,Read Transaction,00 08*,..,,,,,,,,,,
0,3164,3:01.437.431,79.000 us,2 B,,SP,55,Write Transaction,12 01,..,,,,,,,,,,
0,3165,3:01.445.768,2.322.400 ms,92 B,,SP,55,Read Transaction,00 A1 FD 42 02 4D 01 A7 02 5F 8B 02 5F 1D 15 F8 8C 15 F7 A9 26 03 93 26 02 A9 00 02 58 00 00 00 00 00 00 00 00 00 00 00 00 00 00 00 00 02 00 00 00 00 00 00 00 00 00 00 00 00 00 00 00 00 00 00 00 00 00 00 00 00 00 00 00 00 00 00 00 00 00 00 00 00 02 01 00 00 00 00 00 00 01 01*,...B.M..._.._.......&..&…,,,,,,,,,,
0,3166,3:01.451.750,79.000 us,2 B,,SP,55,Write Transaction,00 00,..,,,,,,,,,,
0,3167,3:01.457.119,81.900 us,2 B,,SP,55,Read Transaction,00 00*,..,,,,,,,,,,
0,3168,3:01.471.762,79.000 us,2 B,,SP,55,Write Transaction,00 00,..,,,,,,,,,,
0,3169,3:01.477.107,82.300 us,2 B,,SP,55,Read Transaction,00 00*,..,,,,,,,,,,
0,3170,3:01.491.768,79.000 us,2 B,,SP,55,Write Transaction,00 00,..,,,,,,,,,,
0,3171,3:01.497.116,81.900 us,2 B,,SP,55,Read Transaction,00 00*,..,,,,,,,,,,
0,3172,3:01.511.789,79.000 us,2 B,,SP,55,Write Transaction,00 00,..,,,,,,,,,,
0,3173,3:01.517.135,82.300 us,2 B,,SP,55,Read Transaction,00 08*,..,,,,,,,,,,
0,3174,3:01.517.494,79.000 us,2 B,,SP,55,Write Transaction,12 01,..,,,,,,,,,,
0,3175,3:01.525.835,2.321.700 ms,92 B,,SP,55,Read Transaction,00 A6 FD 3A 02 49 01 A6 02 60 79 02 60 11 15 F8 BA 15 F7 D4 26 03 BC 26 02 D6 00 02 58 00 00 00 00 00 00 00 00 00 00 00 00 00 00 00 00 02 00 00 00 00 00 00 00 00 00 00 00 00 00 00 00 00 00 00 00 00 00 00 00 00 00 00 00 00 00 00 00 00 00 00 00 00 02 01 00 00 00 00 00 00 01 01*,...:.I...`y.`.......&..&…,,,,,,,,,,
0,3176,3:01.531.577,79.100 us,2 B,,SP,55,Write Transaction,00 00,..,,,,,,,,,,
0,3177,3:01.536.924,81.900 us,2 B,,SP,55,Read Transaction,00 00*,..,,,,,,,,,,
0,3178,3:01.551.595,79.000 us,2 B,,SP,55,Write Transaction,00 00,..,,,,,,,,,,
0,3179,3:01.556.942,82.200 us,2 B,,SP,55,Read Transaction,00 08*,..,,,,,,,,,,
0,3180,3:01.557.301,79.000 us,2 B,,SP,55,Write Transaction,12 01,..,,,,,,,,,,
0,3181,3:01.565.640,2.322.400 ms,92 B,,SP,55,Read Transaction,00 AB FD 3E 02 47 01 A3 02 61 57 02 60 F2 15 F9 07 15 F8 12 26 03 F4 26 03 0C 00 02 58 00 00 00 00 00 00 00 00 00 00 00 00 00 00 00 00 03 00 00 00 00 00 00 00 00 00 00 00 00 00 00 00 00 00 00 00 00 00 00 00 00 00 00 00 00 00 00 00 00 00 00 00 00 02 01 00 00 00 00 00 00 01 01*,...>.G...aW.`.......&..&…,,,,,,,,,,
0,3182,3:01.571.606,79.100 us,2 B,,SP,55,Write Transaction,00 00,..,,,,,,,,,,
0,3183,3:01.576.952,81.900 us,2 B,,SP,55,Read Transaction,00 00*,..,,,,,,,,,,
0,3184,3:01.591.632,79.100 us,2 B,,SP,55,Write Transaction,00 00,..,,,,,,,,,,
0,3185,3:01.596.978,82.300 us,2 B,,SP,55,Read Transaction,00 08*,..,,,,,,,,,,
0,3186,3:01.597.337,79.000 us,2 B,,SP,55,Write Transaction,12 01,..,,,,,,,,,,
0,3187,3:01.605.677,2.322.400 ms,92 B,,SP,55,Read Transaction,00 B0 FD 42 02 4A 01 A4 02 62 42 02 61 D7 15 F9 2F 15 F8 43 26 03 F7 26 03 10 00 02 58 00 00 00 00 00 00 00 00 00 00 00 00 00 00 00 00 03 00 00 00 00 00 00 00 00 00 00 00 00 00 00 00 00 00 00 00 00 00 00 00 00 00 00 00 00 00 00 00 00 00 00 00 00 02 01 00 00 00 00 00 00 01 01*,...B.J...bB.a.../..C&..&…,,,,,,,,,,
0,3188,3:01.611.645,79.100 us,2 B,,SP,55,Write Transaction,00 00,..,,,,,,,,,,
0,3189,3:01.616.991,81.900 us,2 B,,SP,55,Read Transaction,00 00*,..,,,,,,,,,,
0,3190,3:01.631.728,79.000 us,2 B,,SP,55,Write Transaction,00 00,..,,,,,,,,,,
0,3191,3:01.637.081,82.400 us,2 B,,SP,55,Read Transaction,00 08*,..,,,,,,,,,,
0,3192,3:01.637.442,79.200 us,2 B,,SP,55,Write Transaction,12 01,..,,,,,,,,,,
0,3193,3:01.645.788,2.322.300 ms,92 B,,SP,55,Read Transaction,00 B5 FD 3C 02 4D 01 A7 02 63 47 02 62 D8 15 F9 A7 15 F8 B6 26 04 2A 26 03 46 00 02 58 00 00 00 00 00 00 00 00 00 00 00 00 00 00 00 00 03 00 00 00 00 00 00 00 00 00 00 00 00 00 00 00 00 00 00 00 00 00 00 00 00 00 00 00 00 00 00 00 00 00 00 00 00 02 01 00 00 00 00 00 00 01 01*,...<.M...cG.b.......&.*&…,,,,,,,,,,
0,3194,3:01.651.692,79.000 us,2 B,,SP,55,Write Transaction,00 00,..,,,,,,,,,,
0,3195,3:01.657.039,82.000 us,2 B,,SP,55,Read Transaction,00 00*,..,,,,,,,,,,
0,3196,3:01.671.704,79.000 us,2 B,,SP,55,Write Transaction,00 00,..,,,,,,,,,,
0,3197,3:01.677.052,82.200 us,2 B,,SP,55,Read Transaction,00 00*,..,,,,,,,,,,
0,3198,3:01.691.720,79.000 us,2 B,,SP,55,Write Transaction,00 00,..,,,,,,,,,,
0,3199,3:01.697.070,82.100 us,2 B,,SP,55,Read Transaction,00 00*,..,,,,,,,,,,
0,3200,3:01.711.741,79.000 us,2 B,,SP,55,Write Transaction,00 00,..,,,,,,,,,,
0,3201,3:01.717.087,82.300 us,2 B,,SP,55,Read Transaction,00 08*,..,,,,,,,,,,
0,3202,3:01.717.446,79.000 us,2 B,,SP,55,Write Transaction,12 01,..,,,,,,,,,,
0,3203,3:01.725.787,2.322.500 ms,92 B,,SP,55,Read Transaction,00 BA FD 41 02 47 01 A4 02 63 96 02 63 31 15 F9 6D 15 F8 7E 26 04 1B 26 03 36 00 02 58 00 00 00 00 00 00 00 00 00 00 00 00 00 00 00 00 03 00 00 00 00 00 00 00 00 00 00 00 00 00 00 00 00 00 00 00 00 00 00 00 00 00 00 00 00 00 00 00 00 00 00 00 00 02 01 00 00 00 00 00 00 01 01*,...A.G...c..c1..m..~&..&…,,,,,,,,,,
0,3204,3:01.731.759,79.100 us,2 B,,SP,55,Write Transaction,00 00,..,,,,,,,,,,
0,3205,3:01.737.106,81.900 us,2 B,,SP,55,Read Transaction,00 00*,..,,,,,,,,,,
0,3206,3:01.751.774,79.000 us,2 B,,SP,55,Write Transaction,00 00,..,,,,,,,,,,
0,3207,3:01.757.120,82.300 us,2 B,,SP,55,Read Transaction,00 08*,..,,,,,,,,,,
0,3208,3:01.757.478,79.100 us,2 B,,SP,55,Write Transaction,12 01,..,,,,,,,,,,
0,3209,3:01.765.818,2.322.300 ms,92 B,,SP,55,Read Transaction,00 BF FD 3C 02 4D 01 A4 02 61 6F 02 61 02 15 F8 8C 15 F7 A4 26 03 CC 26 02 DF 00 02 58 00 00 00 00 00 00 00 00 00 00 00 00 00 00 00 00 03 00 00 00 00 00 00 00 00 00 00 00 00 00 00 00 00 00 00 00 00 00 00 00 00 00 00 00 00 00 00 00 00 00 00 00 00 02 01 00 00 00 00 00 00 01 01*,...<.M...ao.a.......&..&…,,,,,,,,,,
0,3210,3:01.771.795,79.100 us,2 B,,SP,55,Write Transaction,00 00,..,,,,,,,,,,
0,3211,3:01.777.142,82.000 us,2 B,,SP,55,Read Transaction,00 00*,..,,,,,,,,,,
0,3212,3:01.791.569,79.000 us,2 B,,SP,55,Write Transaction,00 00,..,,,,,,,,,,
0,3213,3:01.796.912,82.200 us,2 B,,SP,55,Read Transaction,00 08*,..,,,,,,,,,,
0,3214,3:01.797.271,79.000 us,2 B,,SP,55,Write Transaction,12 01,..,,,,,,,,,,
0,3215,3:01.805.611,2.322.600 ms,92 B,,SP,55,Read Transaction,00 C4 FD 3E 02 4F 01 A6 02 5F 06 02 5E 97 15 F8 3A 15 F7 4E 26 03 B8 26 02 C8 00 02 58 00 00 00 00 00 00 00 00 00 00 00 00 00 00 00 00 03 00 00 00 00 00 00 00 00 00 00 00 00 00 00 00 00 00 00 00 00 00 00 00 00 00 00 00 00 00 00 00 00 00 00 00 00 02 01 00 00 00 00 00 00 01 01*,...>.O..._..^...:..N&..&…,,,,,,,,,,
0,3216,3:01.811.589,79.000 us,2 B,,SP,55,Write Transaction,00 00,..,,,,,,,,,,
0,3217,3:01.816.938,81.900 us,2 B,,SP,55,Read Transaction,00 00*,..,,,,,,,,,,
0,3218,3:01.831.599,79.100 us,2 B,,SP,55,Write Transaction,00 00,..,,,,,,,,,,
0,3219,3:01.836.944,82.200 us,2 B,,SP,55,Read Transaction,00 08*,..,,,,,,,,,,
0,3220,3:01.837.303,79.000 us,2 B,,SP,55,Write Transaction,12 01,..,,,,,,,,,,
0,3221,3:01.845.644,2.322.300 ms,92 B,,SP,55,Read Transaction,00 C9 FD 3C 02 45 01 A1 02 5D 31 02 5C C2 15 F8 0F 15 F7 22 26 03 9C 26 02 B7 00 02 58 00 00 00 00 00 00 00 00 00 00 00 00 00 00 00 00 03 00 00 00 00 00 00 00 00 00 00 00 00 00 00 00 00 00 00 00 00 00 00 00 00 00 00 00 00 00 00 00 00 00 00 00 00 02 01 00 00 00 00 00 00 01 01*,"...<.E...]1.\......""&..&…",,,,,,,,,,
0,3222,3:01.851.627,79.000 us,2 B,,SP,55,Write Transaction,00 00,..,,,,,,,,,,
0,3223,3:01.856.974,82.000 us,2 B,,SP,55,Read Transaction,00 00*,..,,,,,,,,,,
0,3224,3:01.871.645,79.100 us,2 B,,SP,55,Write Transaction,00 00,..,,,,,,,,,,
0,3225,3:01.876.992,82.300 us,2 B,,SP,55,Read Transaction,00 00*,..,,,,,,,,,,
0,3226,3:01.891.668,79.000 us,2 B,,SP,55,Write Transaction,00 00,..,,,,,,,,,,
0,3227,3:01.897.013,81.900 us,2 B,,SP,55,Read Transaction,00 00*,..,,,,,,,,,,
0,3228,3:01.911.682,79.000 us,2 B,,SP,55,Write Transaction,00 00,..,,,,,,,,,,
0,3229,3:01.917.029,82.300 us,2 B,,SP,55,Read Transaction,00 08*,..,,,,,,,,,,
0,3230,3:01.917.388,79.000 us,2 B,,SP,55,Write Transaction,12 01,..,,,,,,,,,,
0,3231,3:01.925.729,2.322.500 ms,92 B,,SP,55,Read Transaction,00 CE FD 3E 02 4B 01 A3 02 5B CB 02 5B 61 15 F7 EB 15 F7 02 26 03 AC 26 02 BD 00 02 58 00 00 00 00 00 00 00 00 00 00 00 00 00 00 00 00 03 00 00 00 00 00 00 00 00 00 00 00 00 00 00 00 00 00 00 00 00 00 00 00 00 00 00 00 00 00 00 00 00 00 00 00 00 02 01 00 00 00 00 00 00 01 01*,...>.K...[..[a......&..&…,,,,,,,,,,
0,3232,3:01.931.694,79.000 us,2 B,,SP,55,Write Transaction,00 00,..,,,,,,,,,,
0,3233,3:01.937.040,82.000 us,2 B,,SP,55,Read Transaction,00 00*,..,,,,,,,,,,
0,3234,3:01.951.729,79.100 us,2 B,,SP,55,Write Transaction,00 00,..,,,,,,,,,,
0,3235,3:01.957.076,82.200 us,2 B,,SP,55,Read Transaction,00 08*,..,,,,,,,,,,
0,3236,3:01.957.435,79.100 us,2 B,,SP,55,Write Transaction,12 01,..,,,,,,,,,,
0,3237,3:01.965.774,2.322.300 ms,92 B,,SP,55,Read Transaction,00 D3 FD 3C 02 4D 01 A1 02 5A FE 02 5A 92 15 F7 F1 15 F7 07 26 03 BC 26 02 D3 00 02 4E 00 00 00 00 00 00 00 00 00 00 00 00 00 00 00 00 03 00 00 00 00 00 00 00 00 00 00 00 00 00 00 00 00 00 00 00 00 00 00 00 00 00 00 00 00 00 00 00 00 00 00 00 00 02 01 00 00 00 00 00 00 01 01*,...<.M...Z..Z.......&..&…,,,,,,,,,,
0,3238,3:01.971.741,79.000 us,2 B,,SP,55,Write Transaction,00 00,..,,,,,,,,,,
0,3239,3:01.977.087,81.900 us,2 B,,SP,55,Read Transaction,00 00*,..,,,,,,,,,,
0,3240,3:01.991.755,79.000 us,2 B,,SP,55,Write Transaction,00 00,..,,,,,,,,,,
0,3241,3:01.997.104,82.200 us,2 B,,SP,55,Read Transaction,00 08*,..,,,,,,,,,,
0,3242,3:01.997.464,79.000 us,2 B,,SP,55,Write Transaction,12 01,..,,,,,,,,,,
0,3243,3:02.005.803,2.322.100 ms,92 B,,SP,55,Read Transaction,00 D8 FD 3E 02 4B 01 A1 02 5A 92 02 5A 2A 15 F8 2F 15 F7 41 26 03 C4 26 02 D6 00 02 4E 00 00 00 00 00 00 00 00 00 00 00 00 00 00 00 00 03 00 00 00 00 00 00 00 00 00 00 00 00 00 00 00 00 00 00 00 00 00 00 00 00 00 00 00 00 00 00 00 00 00 00 00 00 02 01 00 00 00 00 00 00 01 01*,...>.K...Z..Z*../..A&..&…,,,,,,,,,,
0,3244,3:02.011.775,79.100 us,2 B,,SP,55,Write Transaction,00 00,..,,,,,,,,,,
0,3245,3:02.017.127,82.000 us,2 B,,SP,55,Read Transaction,00 00*,..,,,,,,,,,,
0,3246,3:02.031.554,79.000 us,2 B,,SP,55,Write Transaction,00 00,..,,,,,,,,,,
0,3247,3:02.036.902,82.200 us,2 B,,SP,55,Read Transaction,00 08*,..,,,,,,,,,,
0,3248,3:02.037.264,79.000 us,2 B,,SP,55,Write Transaction,12 01,..,,,,,,,,,,
0,3249,3:02.045.607,2.322.500 ms,92 B,,SP,55,Read Transaction,00 DD FD 40 02 4B 01 A8 02 5A 84 02 5A 1F 15 F8 34 15 F7 4A 26 03 D5 26 02 F7 00 02 4E 00 00 00 00 00 00 00 00 00 00 00 00 00 00 00 00 03 00 00 00 00 00 00 00 00 00 00 00 00 00 00 00 00 00 00 00 00 00 00 00 00 00 00 00 00 00 00 00 00 00 00 00 00 02 01 00 00 00 00 00 00 01 01*,...@.K...Z..Z...4..J&..&…,,,,,,,,,,
0,3250,3:02.051.579,79.000 us,2 B,,SP,55,Write Transaction,00 00,..,,,,,,,,,,
0,3251,3:02.056.925,82.000 us,2 B,,SP,55,Read Transaction,00 00*,..,,,,,,,,,,
0,3252,3:02.071.592,79.000 us,2 B,,SP,55,Write Transaction,00 00,..,,,,,,,,,,
0,3253,3:02.076.938,82.200 us,2 B,,SP,55,Read Transaction,00 00*,..,,,,,,,,,,
0,3254,3:02.091.615,79.000 us,2 B,,SP,55,Write Transaction,00 00,..,,,,,,,,,,
0,3255,3:02.096.962,81.900 us,2 B,,SP,55,Read Transaction,00 00*,..,,,,,,,,,,
0,3256,3:02.111.630,79.000 us,2 B,,SP,55,Write Transaction,00 00,..,,,,,,,,,,
0,3257,3:02.116.976,82.300 us,2 B,,SP,55,Read Transaction,00 08*,..,,,,,,,,,,
0,3258,3:02.117.335,79.000 us,2 B,,SP,55,Write Transaction,12 01,..,,,,,,,,,,
0,3259,3:02.125.676,2.322.500 ms,92 B,,SP,55,Read Transaction,00 E2 FD 3B 02 4B 01 A2 02 5A D0 02 5A 66 15 F8 92 15 F7 AD 26 04 20 26 03 36 00 02 4E 00 00 00 00 00 00 00 00 00 00 00 00 00 00 00 00 03 00 00 00 00 00 00 00 00 00 00 00 00 00 00 00 00 00 00 00 00 00 00 00 00 00 00 00 00 00 00 00 00 00 00 00 00 02 01 00 00 00 00 00 00 01 01*,...;.K...Z..Zf......&. &…,,,,,,,,,,
0,3260,3:02.131.654,79.100 us,2 B,,SP,55,Write Transaction,00 00,..,,,,,,,,,,
0,3261,3:02.136.999,81.900 us,2 B,,SP,55,Read Transaction,00 00*,..,,,,,,,,,,
0,3262,3:02.151.666,79.100 us,2 B,,SP,55,Write Transaction,00 00,..,,,,,,,,,,
0,3263,3:02.157.012,82.400 us,2 B,,SP,55,Read Transaction,00 08*,..,,,,,,,,,,
0,3264,3:02.157.371,79.000 us,2 B,,SP,55,Write Transaction,12 01,..,,,,,,,,,,
0,3265,3:02.165.720,2.324.400 ms,92 B,,SP,55,Read Transaction,00 E7 FD 40 02 52 01 9F 02 5B 46 02 5A DD 15 F8 D8 15 F7 F4 26 04 38 26 03 54 00 02 4E 00 00 00 00 00 00 00 00 00 00 00 00 00 00 00 00 03 00 00 00 00 00 00 00 00 00 00 00 00 00 00 00 00 00 00 00 00 00 00 00 00 00 00 00 00 00 00 00 00 00 00 00 00 02 01 00 00 00 00 00 00 01 01*,...@.R...[F.Z.......&.8&…,,,,,,,,,,
0,3266,3:02.171.704,79.000 us,2 B,,SP,55,Write Transaction,00 00,..,,,,,,,,,,
0,3267,3:02.177.060,82.000 us,2 B,,SP,55,Read Transaction,00 00*,..,,,,,,,,,,
0,3268,3:02.191.697,79.000 us,2 B,,SP,55,Write Transaction,00 00,..,,,,,,,,,,
0,3269,3:02.197.042,82.200 us,2 B,,SP,55,Read Transaction,00 08*,..,,,,,,,,,,
0,3270,3:02.197.401,79.100 us,2 B,,SP,55,Write Transaction,12 01,..,,,,,,,,,,
0,3271,3:02.205.743,2.322.600 ms,92 B,,SP,55,Read Transaction,00 EC FD 3D 02 4C 01 9D 02 5B DB 02 5B 79 15 F9 24 15 F8 40 26 04 75 26 03 8B 00 02 4E 00 00 00 00 00 00 00 00 00 00 00 00 00 00 00 00 03 00 00 00 00 00 00 00 00 00 00 00 00 00 00 00 00 00 00 00 00 00 00 00 00 00 00 00 00 00 00 00 00 00 00 00 00 02 01 00 00 00 00 00 00 01 01*,...=.L...[..[y..$..@&.u&…,,,,,,,,,,
0,3272,3:02.211.713,79.000 us,2 B,,SP,55,Write Transaction,00 00,..,,,,,,,,,,
0,3273,3:02.217.088,82.000 us,2 B,,SP,55,Read Transaction,00 00*,..,,,,,,,,,,
0,3274,3:02.231.746,79.200 us,2 B,,SP,55,Write Transaction,00 00,..,,,,,,,,,,
0,3275,3:02.237.094,82.300 us,2 B,,SP,55,Read Transaction,00 08*,..,,,,,,,,,,
0,3276,3:02.237.453,79.100 us,2 B,,SP,55,Write Transaction,12 01,..,,,,,,,,,,
0,3277,3:02.245.804,2.323.500 ms,92 B,,SP,55,Read Transaction,00 F1 FD 3A 02 4B 01 A2 02 5C B5 02 5C 4B 15 F9 6C 15 F8 81 26 04 9C 26 03 BA 00 02 4E 00 00 00 00 00 00 00 00 00 00 00 00 00 00 00 00 03 00 00 00 00 00 00 00 00 00 00 00 00 00 00 00 00 00 00 00 00 00 00 00 00 00 00 00 00 00 00 00 00 00 00 00 00 02 01 00 00 00 00 00 00 01 01*,...:.K...\..\K..l...&..&…,,,,,,,,,,
0,3278,3:02.251.755,79.000 us,2 B,,SP,55,Write Transaction,00 00,..,,,,,,,,,,
0,3279,3:02.257.100,82.100 us,2 B,,SP,55,Read Transaction,00 00*,..,,,,,,,,,,
0,3280,3:02.271.773,79.100 us,2 B,,SP,55,Write Transaction,00 00,..,,,,,,,,,,
0,3281,3:02.277.126,82.300 us,2 B,,SP,55,Read Transaction,00 00*,..,,,,,,,,,,
0,3282,3:02.291.547,79.100 us,2 B,,SP,55,Write Transaction,00 00,..,,,,,,,,,,
0,3283,3:02.296.893,82.000 us,2 B,,SP,55,Read Transaction,00 00*,..,,,,,,,,,,
0,3284,3:02.311.563,79.000 us,2 B,,SP,55,Write Transaction,00 00,..,,,,,,,,,,
0,3285,3:02.316.908,82.300 us,2 B,,SP,55,Read Transaction,00 08*,..,,,,,,,,,,
0,3286,3:02.317.267,79.000 us,2 B,,SP,55,Write Transaction,12 01,..,,,,,,,,,,
0,3287,3:02.325.607,2.322.300 ms,92 B,,SP,55,Read Transaction,00 F6 FD 3E 02 4D 01 A2 02 5D 77 02 5D 11 15 F9 A9 15 F8 BE 26 04 B7 26 03 CF 00 02 4E 00 00 00 00 00 00 00 00 00 00 00 00 00 00 00 00 03 00 00 00 00 00 00 00 00 00 00 00 00 00 00 00 00 00 00 00 00 00 00 00 00 00 00 00 00 00 00 00 00 00 00 00 00 02 01 00 00 00 00 00 00 01 01*,...>.M...]w.].......&..&…,,,,,,,,,,
0,3288,3:02.331.590,79.100 us,2 B,,SP,55,Write Transaction,00 00,..,,,,,,,,,,
0,3289,3:02.336.936,82.000 us,2 B,,SP,55,Read Transaction,00 00*,..,,,,,,,,,,
0,3290,3:02.351.598,79.000 us,2 B,,SP,55,Write Transaction,00 00,..,,,,,,,,,,
0,3291,3:02.356.948,82.300 us,2 B,,SP,55,Read Transaction,00 08*,..,,,,,,,,,,
0,3292,3:02.357.308,79.000 us,2 B,,SP,55,Write Transaction,12 01,..,,,,,,,,,,
0,3293,3:02.365.647,2.322.400 ms,92 B,,SP,55,Read Transaction,00 FB FD 3D 02 50 01 A4 02 5E 93 02 5E 29 15 F9 FA 15 F9 17 26 05 02 26 04 1C 00 02 4E 00 00 00 00 00 00 00 00 00 00 00 00 00 00 00 00 03 00 00 00 00 00 00 00 00 00 00 00 00 00 00 00 00 00 00 00 00 00 00 00 00 00 00 00 00 00 00 00 00 00 00 00 00 02 01 00 00 00 00 00 00 01 01*,...=.P...^..^)......&..&…,,,,,,,,,,
0,3294,3:02.371.632,79.000 us,2 B,,SP,55,Write Transaction,00 00,..,,,,,,,,,,
0,3295,3:02.376.977,81.900 us,2 B,,SP,55,Read Transaction,00 00*,..,,,,,,,,,,
0,3296,3:02.391.643,79.000 us,2 B,,SP,55,Write Transaction,00 00,..,,,,,,,,,,
0,3297,3:02.396.990,82.200 us,2 B,,SP,55,Read Transaction,00 08*,..,,,,,,,,,,
0,3298,3:02.397.377,79.000 us,2 B,,SP,55,Write Transaction,12 01,..,,,,,,,,,,
0,3299,3:02.405.721,2.322.100 ms,92 B,,SP,55,Read Transaction,00 00 FD 40 02 4D 01 A2 02 5F 88 02 5F 1E 15 FA 70 15 F9 87 26 05 22 26 04 3A 00 02 4E 00 00 00 00 00 00 00 00 00 00 00 00 00 00 00 00 03 00 00 00 00 00 00 00 00 00 00 00 00 00 00 00 00 00 00 00 00 00 00 00 00 00 00 00 00 00 00 00 00 00 00 00 00 02 01 00 00 00 00 00 00 01 01*,"...@.M..._.._...p...&.""&…",,,,,,,,,,
0,3300,3:02.411.661,79.000 us,2 B,,SP,55,Write Transaction,00 00,..,,,,,,,,,,
0,3301,3:02.417.008,82.000 us,2 B,,SP,55,Read Transaction,00 00*,..,,,,,,,,,,
0,3302,3:02.431.671,79.000 us,2 B,,SP,55,Write Transaction,00 00,..,,,,,,,,,,
0,3303,3:02.437.017,82.300 us,2 B,,SP,55,Read Transaction,00 08*,..,,,,,,,,,,
0,3304,3:02.437.375,79.000 us,2 B,,SP,55,Write Transaction,12 01,..,,,,,,,,,,
0,3305,3:02.445.717,2.322.400 ms,92 B,,SP,55,Read Transaction,00 05 FD 3F 02 50 01 A6 02 60 71 02 60 0A 15 FA A6 15 F9 B9 26 05 42 26 04 50 00 02 4E 00 00 00 00 00 00 00 00 00 00 00 00 00 00 00 00 03 00 00 00 00 00 00 00 00 00 00 00 00 00 00 00 00 00 00 00 00 00 00 00 00 00 00 00 00 00 00 00 00 00 00 00 00 02 01 00 00 00 00 00 00 01 01*,...?.P...`q.`.......&.B&…,,,,,,,,,,
0,3306,3:02.451.700,79.100 us,2 B,,SP,55,Write Transaction,00 00,..,,,,,,,,,,
0,3307,3:02.457.047,82.000 us,2 B,,SP,55,Read Transaction,00 00*,..,,,,,,,,,,
0,3308,3:02.471.711,79.100 us,2 B,,SP,55,Write Transaction,00 00,..,,,,,,,,,,
0,3309,3:02.477.058,82.300 us,2 B,,SP,55,Read Transaction,00 00*,..,,,,,,,,,,
0,3310,3:02.491.734,79.100 us,2 B,,SP,55,Write Transaction,00 00,..,,,,,,,,,,
0,3311,3:02.497.080,81.900 us,2 B,,SP,55,Read Transaction,00 00*,..,,,,,,,,,,
0,3312,3:02.511.746,79.000 us,2 B,,SP,55,Write Transaction,00 00,..,,,,,,,,,,
0,3313,3:02.517.091,82.300 us,2 B,,SP,55,Read Transaction,00 08*,..,,,,,,,,,,
0,3314,3:02.517.450,79.000 us,2 B,,SP,55,Write Transaction,12 01,..,,,,,,,,,,
0,3315,3:02.525.798,2.323.200 ms,92 B,,SP,55,Read Transaction,00 0A FD 3B 02 46 01 A3 02 61 99 02 61 29 15 FB 18 15 FA 2C 26 05 89 26 04 A4 00 02 4E 00 00 00 00 00 00 00 00 00 00 00 00 00 00 00 00 03 00 00 00 00 00 00 00 00 00 00 00 00 00 00 00 00 00 00 00 00 00 00 00 00 00 00 00 00 00 00 00 00 00 00 00 00 02 01 00 00 00 00 00 00 01 01*,...;.F...a..a).....,&..&…,,,,,,,,,
0,3316,3:02.531.535,79.100 us,2 B,,SP,55,Write Transaction,00 00,..,,,,,,,,,,
0,3317,3:02.536.883,82.000 us,2 B,,SP,55,Read Transaction,00 00*,..,,,,,,,,,,
0,3318,3:02.551.555,79.000 us,2 B,,SP,55,Write Transaction,00 00,..,,,,,,,,,,
0,3319,3:02.556.900,82.200 us,2 B,,SP,55,Read Transaction,00 08*,..,,,,,,,,,,
0,3320,3:02.557.259,79.000 us,2 B,,SP,55,Write Transaction,12 01,..,,,,,,,,,,
0,3321,3:02.565.598,2.322.100 ms,92 B,,SP,55,Read Transaction,00 0F FD 41 02 4A 01 A4 02 62 7E 02 62 11 15 FB 40 15 FA 58 26 05 98 26 04 B1 00 02 4E 00 00 00 00 00 00 00 00 00 00 00 00 00 00 00 00 03 00 00 00 00 00 00 00 00 00 00 00 00 00 00 00 00 00 00 00 00 00 00 00 00 00 00 00 00 00 00 00 00 00 00 00 00 02 01 00 00 00 00 00 00 01 01*,...A.J...b~.b...@..X&..&…,,,,,,,,,,
0,3322,3:02.571.563,79.000 us,2 B,,SP,55,Write Transaction,00 00,..,,,,,,,,,,
0,3323,3:02.576.909,82.000 us,2 B,,SP,55,Read Transaction,00 00*,..,,,,,,,,,,
0,3324,3:02.591.588,79.000 us,2 B,,SP,55,Write Transaction,00 00,..,,,,,,,,,,
0,3325,3:02.596.934,82.300 us,2 B,,SP,55,Read Transaction,00 08*,..,,,,,,,,,,
0,3326,3:02.597.292,79.100 us,2 B,,SP,55,Write Transaction,12 01,..,,,,,,,,,,
0,3327,3:02.605.633,2.326.000 ms,92 B,,SP,55,Read Transaction,00 14 FD 3B 02 4A 01 9D 02 61 64 02 60 FD 15 FA 87 15 F9 97 26 05 60 26 04 73 00 02 4E 00 00 00 00 00 00 00 00 00 00 00 00 00 00 00 00 03 00 00 00 00 00 00 00 00 00 00 00 00 00 00 00 00 00 00 00 00 00 00 00 00 00 00 00 00 00 00 00 00 00 00 00 00 02 01 00 00 00 00 00 00 01 01*,...;.J...ad.`.......&.`&…,,,,,,,,,,
0,3328,3:02.611.603,79.000 us,2 B,,SP,55,Write Transaction,00 00,..,,,,,,,,,,
0,3329,3:02.616.950,81.900 us,2 B,,SP,55,Read Transaction,00 00*,..,,,,,,,,,,
0,3330,3:02.631.625,79.100 us,2 B,,SP,55,Write Transaction,00 00,..,,,,,,,,,,
0,3331,3:02.636.972,82.300 us,2 B,,SP,55,Read Transaction,00 08*,..,,,,,,,,,,
0,3332,3:02.637.331,79.000 us,2 B,,SP,55,Write Transaction,12 01,..,,,,,,,,,,
0,3333,3:02.645.671,2.322.300 ms,92 B,,SP,55,Read Transaction,00 19 FD 3B 02 4C 01 A3 02 5E C3 02 5E 5B 15 FA 0E 15 F9 2E 26 05 0E 26 04 22 00 02 4E 00 00 00 00 00 00 00 00 00 00 00 00 00 00 00 00 03 00 00 00 00 00 00 00 00 00 00 00 00 00 00 00 00 00 00 00 00 00 00 00 00 00 00 00 00 00 00 00 00 00 00 00 00 02 01 00 00 00 00 00 00 01 01*,...;.L...^..^[......&..&…,,,,,,,,,,
0,3334,3:02.651.638,79.000 us,2 B,,SP,55,Write Transaction,00 00,..,,,,,,,,,,
0,3335,3:02.656.984,82.000 us,2 B,,SP,55,Read Transaction,00 00*,..,,,,,,,,,,
0,3336,3:02.671.657,79.000 us,2 B,,SP,55,Write Transaction,00 00,..,,,,,,,,,,
0,3337,3:02.677.004,82.300 us,2 B,,SP,55,Read Transaction,00 00*,..,,,,,,,,,,
0,3338,3:02.691.682,79.000 us,2 B,,SP,55,Write Transaction,00 00,..,,,,,,,,,,
0,3339,3:02.697.027,81.900 us,2 B,,SP,55,Read Transaction,00 00*,..,,,,,,,,,,
0,3340,3:02.711.693,79.000 us,2 B,,SP,55,Write Transaction,00 00,..,,,,,,,,,,
0,3341,3:02.717.042,82.300 us,2 B,,SP,55,Read Transaction,00 08*,..,,,,,,,,,,
0,3342,3:02.717.403,79.000 us,2 B,,SP,55,Write Transaction,12 01,..,,,,,,,,,,
0,3343,3:02.725.744,2.322.600 ms,92 B,,SP,55,Read Transaction,00 1E FD 40 02 48 01 9E 02 5C 77 02 5C 08 15 F